!Keysight Technologies N9917A: A.12.46
!Date: Thursday, 10 November 2022 20:35:18
!Timezone: (UTC) Coordinated Universal Time
!Model: N9917A
!Serial: MY56071016
!GPS Latitude: 
!GPS Longitude: 
!GPS TimeStamp: 0001-01-01 00:00:00Z
!GPS Seconds Since Last Read: 0
!CHECKSUM:1941243829
!Correction: S11(ON U)S21(ON U)S12(ON U)S22(ON U)
!S2P File: Measurements:S11,S21,S12,S22:
# Hz S DB R 50
5000000	-0.24043821526019	-6.68222965739885	-67.087221179402	87.6175730555709	-63.4971318374805	86.2757961430804	-0.0715051216221497	-9.30551856088431	
5195000	-0.254233148985202	-7.04068679872283	-64.253966284601	95.899894398759	-72.4577923003415	121.328997740639	-0.08258541583936	-9.73272032419795	
5390000	-0.271033674255387	-7.42045133336623	-62.0160008272796	86.3312939075716	-63.1160053588078	107.452230141411	-0.0918889830734326	-10.161677746584	
5585000	-0.284651471886727	-7.77894562332631	-59.6256851070958	116.323460997764	-62.926203671939	102.092634349877	-0.0973129744114545	-10.6215505087364	
5780000	-0.29240053238367	-8.10962903678315	-63.489591183478	111.423282398279	-59.0591273135218	83.63136885613	-0.102359625130387	-11.0609726240634	
5975000	-0.296792361206136	-8.39603115860495	-62.2328718143758	78.4502746544096	-59.6326021368343	99.5114943869155	-0.0995035478856521	-11.5031796324011	
6170000	-0.291224375604234	-8.68878725473754	-60.3539543494611	99.9305596118469	-63.4640199254115	74.1516506147549	-0.0966111330401796	-11.9586998434141	
6365000	-0.285405850264184	-9.03790636200594	-60.6608684956695	75.4754472926705	-61.0427655921757	54.1763676915698	-0.100178927747947	-12.3963914241806	
6560000	-0.27785135476384	-9.37267486932744	-61.6940809514144	73.1232558576201	-63.3536076919725	51.6181300362995	-0.0977477331420094	-12.8379082830764	
6755000	-0.264221295958642	-9.72544987585138	-62.9495450732203	62.1257581983683	-65.2153998918177	59.6555394956265	-0.102121179821021	-13.2954035829508	
6950000	-0.257091313289678	-10.0931532851991	-59.5425925881537	69.6808008926201	-64.7048964380443	65.0917164672382	-0.0990058293137767	-13.7373234017663	
7145000	-0.247753855479927	-10.4286746911044	-64.475372301467	62.1595729671626	-60.5682270641692	79.6631898207105	-0.0955993714995741	-14.1877233554862	
7340000	-0.233126466713704	-10.7762436475578	-61.2933484692771	69.3254632866113	-63.8776773837639	49.732664818368	-0.0903023875884972	-14.60388755559	
7535000	-0.224606714850873	-11.1389734615428	-61.1776753572341	61.7133693012431	-65.0900740937676	59.4538070116997	-0.0858200931654518	-15.027735804792	
7730000	-0.214413024515651	-11.4879037075411	-62.8550893366436	60.6929882163544	-61.7016912519719	53.4592255924717	-0.0804603189358843	-15.5084404814012	
7925000	-0.209019508869545	-11.8174974583061	-64.5614132289188	79.7012188974085	-64.0993514524533	65.979891974673	-0.0815058294678209	-15.9099044470932	
8120000	-0.199154569471968	-12.1775488359161	-63.5713617341673	71.6875687071085	-60.2118749204883	75.9918027882604	-0.0782930355401426	-16.4066656000752	
8315000	-0.191292471678883	-12.5162595831237	-63.5634018008561	52.9617430561844	-61.7196339720707	57.5735004139754	-0.0803175633015206	-16.8420234035642	
8510000	-0.181852058838158	-12.8304376958591	-64.3041916562945	70.7873378196657	-61.9457431829703	60.5458653692637	-0.0789305226851911	-17.321742042925	
8705000	-0.171588991376847	-13.2040845061036	-65.5930743341975	56.5989182739747	-63.0957089790973	67.3999804963439	-0.0749756703362637	-17.750495692452	
8900000	-0.169637336046446	-13.5262128732707	-62.3104582383887	48.7247280085416	-61.5631520764413	66.5519650294605	-0.0717945691691485	-18.2131700064079	
9095000	-0.15988726258536	-13.8430830451823	-60.8847127137978	69.0183670136457	-61.3551841971135	71.0942077899653	-0.0699582074474377	-18.6889251341369	
9290000	-0.153811857302578	-14.1816040600667	-61.3637029329033	67.5651129530248	-60.6414545869624	67.3864360685876	-0.0721646210154669	-19.1609559334475	
9485000	-0.148983953789442	-14.5318895044656	-61.3946636478554	69.9056493437584	-60.6719226138978	60.940468283313	-0.0680774369371701	-19.6084530263833	
9680000	-0.145432312567466	-14.8498745987982	-60.4081049906486	63.171273249855	-60.8217216402377	60.7293528300897	-0.0695071486552423	-20.0610860795281	
9875000	-0.141424867180385	-15.1679873542012	-60.7759910644279	58.1290244431107	-59.6334302206623	68.3366362317107	-0.0687787697150533	-20.5209352955218	
10070000	-0.142432983966722	-15.5277434903626	-59.2247300774589	57.54709554306	-59.2358740905791	68.7692004334493	-0.0694238158767019	-20.965543170893	
10265000	-0.149188138483657	-15.8478806781044	-59.7282677341854	65.504721156275	-58.3828675434886	63.5996709476092	-0.0695639389964083	-21.4423838328495	
10460000	-0.152260502117837	-16.1565620848354	-61.2698583649748	67.8836199709231	-59.4217122537207	63.4148451399684	-0.07519504281381	-21.9148031507707	
10655000	-0.15421951194036	-16.5173961777917	-57.8612235730249	62.7689647279153	-59.2058103333022	70.0874909153325	-0.0812130192314047	-22.3775339298409	
10850000	-0.164699590557569	-16.8470391318083	-59.2844107834882	60.9608604192843	-58.699392854911	56.121334541684	-0.0893408462824923	-22.8519467571195	
11045000	-0.171590729690555	-17.1801491152196	-59.6902735865207	60.9176144917906	-59.1673169929774	65.0043217228601	-0.0941793730845032	-23.3369550507011	
11240000	-0.178475209230661	-17.4931362159772	-58.5065207842858	57.4019808917383	-59.0762527536298	54.673577129374	-0.104011278158511	-23.804795451434	
11435000	-0.188388382249587	-17.8443514366311	-58.0456777700658	58.6215316536484	-57.8519963248155	66.5457629020828	-0.108045244296534	-24.2808955613519	
11630000	-0.199015894534639	-18.1790177071184	-57.7358020846068	61.4600671199409	-57.8668258026241	66.626482072392	-0.115374574642841	-24.7323021702601	
11825000	-0.211520477730119	-18.5162273170243	-57.2652530641647	64.8636654234506	-56.7711755585393	58.682836327467	-0.128955035322265	-25.2315856588544	
12020000	-0.223157528165972	-18.8579865942459	-56.3320658984773	61.9455440108356	-56.2061907571881	64.0900979678012	-0.138348848962426	-25.7382993646822	
12215000	-0.238205763038147	-19.2218427295887	-56.523136945443	62.4541153445319	-56.5095288512034	57.084054258149	-0.143043150744752	-26.2371885250538	
12410000	-0.256210590817188	-19.5921095731293	-55.8664877367887	53.5320685176355	-54.2762301471486	58.4922554132803	-0.146855239771595	-26.7556515829162	
12605000	-0.269493508919387	-19.9548793781788	-55.4335941744935	58.125001913461	-54.593337083764	58.7409078893917	-0.149909478616638	-27.2812375686635	
12800000	-0.285385893512956	-20.3223687728975	-54.1970552042004	56.1775938541646	-54.8665642044472	46.8306309128733	-0.147236349156275	-27.7569353713565	
12995000	-0.300782585678698	-20.7175527637679	-53.488278788788	55.6409668652744	-53.6751232910707	55.6460101182209	-0.147852695950687	-28.3504638816229	
13190000	-0.311430845162798	-21.0773140547563	-54.748447930064	45.7397562959429	-54.1640956228941	49.8185708282425	-0.147600820668079	-28.8780711565414	
13385000	-0.321224664928738	-21.4630283502823	-53.2992192026435	55.7767701643607	-52.7949235686977	49.6964603290233	-0.146973002661509	-29.4115773527302	
13580000	-0.332548244712264	-21.8536236411782	-52.9156861205645	46.9032545474322	-53.1082625998167	45.1130408823629	-0.141215068085637	-29.9649227465121	
13775000	-0.343970964465638	-22.223206195434	-51.8492336636464	43.1040821169427	-51.8547464283376	39.3951470023051	-0.140868018217014	-30.4967111343782	
13970000	-0.351197276653051	-22.6444389011006	-52.4990009009231	38.4642784355283	-52.7752215294716	40.8769116002241	-0.138181842144916	-31.0715687587425	
14165000	-0.363689673279681	-23.0212003264192	-52.0242648296743	39.2830426488876	-52.2174377445766	38.6327575559855	-0.142789772420753	-31.6364673772462	
14360000	-0.372875295388532	-23.4092363251274	-51.8738163285747	34.4746500729082	-51.4062855798587	31.3687145666728	-0.150282300205967	-32.2412802614211	
14555000	-0.38970657342069	-23.8578052865691	-50.7601347831224	30.9693470804256	-51.3186177116254	33.2710268201844	-0.155782530584375	-32.8056259702077	
14750000	-0.397510070196587	-24.2715447906919	-52.2675124603336	32.1839578672716	-51.7625885084411	31.8993545342929	-0.165010080528007	-33.4031216847765	
14945000	-0.414999083017318	-24.6440795550787	-52.4174417609505	33.4627735314485	-50.9864886686305	28.7164960092506	-0.180427784149124	-33.973704649168	
15140000	-0.431884691124071	-25.1009208571656	-50.1809820991308	27.8755709807256	-51.8701241855596	30.3571304725204	-0.186724548245433	-34.5671495510676	
15335000	-0.443925775999458	-25.4979402725011	-50.9498492702184	27.5434323566798	-51.0835092169107	29.6181273948838	-0.20064264752545	-35.1463212555806	
15530000	-0.463387021433646	-25.9701290309375	-50.8781511435402	28.1191861614691	-51.2202829487426	21.8161596388275	-0.210106673184683	-35.7519914145964	
15725000	-0.475089557879702	-26.3639574479057	-50.9515209935502	22.8212949796647	-50.5910333909135	23.4392315550139	-0.222922556149085	-36.353381035399	
15920000	-0.493204996005365	-26.8223677537437	-49.943966149936	15.3023244678614	-50.3526364333515	19.8582623865696	-0.233549186898415	-36.977123098281	
16115000	-0.506968259824095	-27.2841862825334	-49.6926690216638	16.7540466676141	-50.5725485337933	22.4116210481194	-0.247163529009289	-37.6175005056201	
16310000	-0.517253751471034	-27.735366650029	-50.1301622696403	14.5386395081708	-49.7255387321156	15.9584323348281	-0.254211429019398	-38.242996373594	
16505000	-0.535407623183143	-28.1799068629186	-49.7265908768421	14.3014659221854	-49.494953274825	10.5650218842014	-0.264976605203294	-38.9474343533477	
16700000	-0.547886427064443	-28.6613748182853	-49.7596087631657	10.3330896865553	-49.3681159501968	12.1074136305185	-0.276277252274445	-39.6336587264903	
16895000	-0.559936005301239	-29.1448693924945	-49.3752810258438	13.5518714534549	-49.2476078042116	13.1036736326275	-0.27969484401036	-40.3276163762132	
17090000	-0.568933239356564	-29.5886907521634	-49.5896353931502	8.38597937836338	-48.7271145447768	8.24188504849655	-0.291593234071752	-41.033805113323	
17285000	-0.577311467878794	-30.0607809100603	-48.4247901362781	5.67765138600734	-48.9067632761424	5.64822625920948	-0.305040687380815	-41.7112520569146	
17480000	-0.59091767075177	-30.5101972881018	-48.5805926298902	4.55389492506917	-48.2340492729053	2.79422996468371	-0.314942092683928	-42.4177817420869	
17675000	-0.598884212718919	-30.9993452479603	-48.174954134358	4.93211589642695	-47.9105442524464	2.9335392528617	-0.323435247086241	-43.1196785086509	
17870000	-0.605168591126606	-31.4754413669397	-47.7777789928936	1.91409243365515	-47.9774741242479	2.26709666349422	-0.342955501829333	-43.833150258311	
18065000	-0.614497066217202	-31.9271259676032	-47.1930002609907	1.89864860060078	-47.0059316583675	-1.1726845941281	-0.343393825101389	-44.5707842163707	
18260000	-0.624930929881683	-32.3475087411239	-47.3821269114385	-5.80033321019786	-47.0718314533936	-3.44784192807088	-0.357081072907517	-45.3524851838372	
18455000	-0.636346217163559	-32.7747042876417	-47.1678502169391	-4.80022932734634	-46.8223748772338	-3.14718630083817	-0.360078280911146	-46.0933577575612	
18650000	-0.638030859762922	-33.2073910801244	-46.7679613909365	-6.03854037368887	-46.6262697922827	-7.51531415721127	-0.368285283457494	-46.8645244641404	
18845000	-0.642839332353821	-33.6781764466029	-46.5400718455275	-11.949307825302	-46.1969371761842	-13.1127789446787	-0.374404053023259	-47.6538427987552	
19040000	-0.645232834083849	-34.0819966615318	-46.0099980708763	-12.8857176190024	-46.1164259744598	-14.719813083694	-0.384202474222179	-48.4713307932874	
19235000	-0.652518582190384	-34.5080019806366	-45.2196914153232	-19.0389228490112	-45.3066436521212	-20.3604308121828	-0.39883633566376	-49.2873548289267	
19430000	-0.654226218982016	-34.9065009759031	-45.8274194315304	-26.5205467207842	-45.5489772221453	-27.2435866036478	-0.405248752775625	-50.049370138262	
19625000	-0.657156166101787	-35.3189784437438	-46.2067012776608	-28.443316306704	-46.0044722665377	-28.6464167602623	-0.40728432414329	-50.8285254081327	
19820000	-0.660607934475249	-35.7895439741604	-45.7210700589629	-29.3587049092698	-45.8804058345881	-28.093867457423	-0.405642469432448	-51.6864714639429	
20015000	-0.669242556158852	-36.2310357021748	-45.9562574261832	-30.8208464542199	-45.8312833057045	-31.5563324858854	-0.418590898919515	-52.5333685095695	
20210000	-0.673563994270109	-36.6988543512814	-45.6126368702504	-32.6450884997221	-45.8709185919292	-31.5411503775816	-0.43220874375362	-53.3928173128381	
20405000	-0.683001054897285	-37.1392993046864	-45.4335584131638	-33.7414565830772	-45.5611358990595	-35.497305503244	-0.450785145773937	-54.3084181417272	
20600000	-0.696831184476894	-37.6112134665199	-45.4011691412139	-38.037639467185	-45.5275575643719	-36.8671090309213	-0.468682604729501	-55.2046217118376	
20795000	-0.704577732780604	-38.1426076886668	-45.4779523929966	-39.0177239347683	-45.4905182509327	-39.3815699431573	-0.488904951269758	-56.1266731886124	
20990000	-0.723742760140643	-38.6321121415134	-45.2787098529195	-43.1850840532083	-45.0434111481609	-43.0298435227451	-0.511868938558744	-57.0884065113204	
21185000	-0.732638907848052	-39.1779145959292	-45.2472617089502	-45.0896186375764	-45.0373834143994	-43.8219479134315	-0.542940405988201	-58.0382417740664	
21380000	-0.756271850111239	-39.7058578324079	-44.9784072800807	-47.0365678878376	-44.9555177097254	-45.7320969244302	-0.571943003034677	-59.0452151373184	
21575000	-0.773253447138078	-40.2924593640188	-44.8285655743646	-48.1120374785621	-44.8759431172711	-49.6126878013416	-0.602983479044656	-59.9969638403261	
21770000	-0.795311220347728	-40.8542832358315	-44.8469155305138	-49.8476529886725	-44.9341233350585	-51.3998601119738	-0.630241957289522	-61.0641135354787	
21965000	-0.809210156970977	-41.4344319680725	-44.4628241716617	-53.5467329528393	-44.9491113384844	-53.1631977512821	-0.660959733966782	-62.1256447814734	
22160000	-0.828945674414837	-42.016508366868	-44.8136420556315	-55.8062364856044	-44.4257184357465	-56.0446568052442	-0.686000271379063	-63.2339100103288	
22355000	-0.851006799803483	-42.6544304466316	-44.3682752451219	-56.6160041076093	-44.5540521102032	-55.9272297971862	-0.713356785808972	-64.3379117163603	
22550000	-0.868377648391438	-43.2796617807711	-44.3911507817078	-59.615894562441	-44.1909316056302	-59.1651564688583	-0.73343401161231	-65.4632029668504	
22745000	-0.882457954045598	-43.9196137513137	-44.3856906147568	-60.2432692634428	-44.1341133099624	-59.1874351173118	-0.758016136649013	-66.6214760610564	
22940000	-0.909607202517336	-44.5729306406364	-43.9042266355131	-64.3763036254972	-43.8209999676337	-64.9735154555389	-0.770728448162092	-67.8184752342109	
23135000	-0.926500850995956	-45.2749535397053	-43.8299412891546	-64.9520496040305	-44.0494908929069	-63.6512981105208	-0.788453395454092	-68.9900649051236	
23330000	-0.949349855775151	-45.9329079107036	-43.7324730345793	-65.3271548280054	-43.6684792207279	-66.1064769361059	-0.817779092474794	-70.1948010509049	
23525000	-0.979132570060441	-46.6658982985909	-43.8378013750584	-70.4157987937068	-43.2863799812605	-69.6993768154968	-0.834737470285005	-71.4260297113779	
23720000	-1.00616241130321	-47.3997214850378	-43.4033904472133	-70.5553602902988	-43.348157309236	-70.2270714494428	-0.859847303037279	-72.6737648563675	
23915000	-1.03179163067735	-48.1159956269743	-43.2222622733932	-73.0910877257274	-43.1385175656266	-73.3953730328798	-0.891045211793023	-73.9539220838815	
24110000	-1.06345344353623	-48.8704077790472	-43.1260141534315	-74.4768776359731	-43.3237490245551	-73.4104503992551	-0.917719289122417	-75.3549399742518	
24305000	-1.09897720821611	-49.6349718078294	-42.8645619366397	-76.7903357021916	-43.039348065897	-76.7603553890586	-0.959268813183854	-76.7174154503197	
24500000	-1.12920572644921	-50.4543001290319	-42.7898597012351	-76.2032249218838	-42.6660302612179	-78.0107663935235	-0.9942984144783	-78.0806621783586	
24695000	-1.16136665822469	-51.2612550221355	-42.9103889704911	-80.525509763634	-42.648548745053	-80.8117857229851	-1.03457259976029	-79.4806662136248	
24890000	-1.19971915920304	-52.0667437691462	-42.3921130305941	-83.8203071311865	-42.6743642016137	-82.0335397914754	-1.07797851149045	-80.9472408584452	
25085000	-1.23605301626865	-52.9427735025265	-42.1742063146124	-84.0616432701848	-42.035569749138	-84.8663281385362	-1.12582547715122	-82.3971910085082	
25280000	-1.27742791170967	-53.802601606471	-41.9318406237314	-87.0141612219356	-41.9716889013889	-88.2603373103713	-1.17141064836863	-83.9355739229115	
25475000	-1.31551146021584	-54.6647901257964	-41.8773198716957	-85.7730797953116	-41.9012332814453	-87.182180620699	-1.22055635632393	-85.530272256526	
25670000	-1.36408295605547	-55.5734321926644	-41.8595136524957	-90.6460212473612	-41.8492097822686	-89.8353302210488	-1.26791017118852	-87.1152035052371	
25865000	-1.41241059862012	-56.5262803531677	-41.3421079600035	-91.9560213212199	-41.5863721789135	-93.3596036064139	-1.32055089931059	-88.727210900994	
26060000	-1.45605487353455	-57.4607242265528	-41.4642355903633	-93.7839524922225	-41.3952552761733	-94.7273972345951	-1.37982748812519	-90.4283960457071	
26255000	-1.5129533690176	-58.4099933213	-41.1490423020788	-95.8197642426608	-41.0006495053617	-95.0510674774417	-1.43714421892024	-92.1360183928634	
26450000	-1.55789520280441	-59.3699230062651	-40.9161253819618	-99.7150030358154	-40.7845802681708	-100.366596029389	-1.4997850248615	-93.9384950852529	
26645000	-1.61744725026906	-60.3926662602669	-40.8305520503544	-101.286009683068	-40.7758095466573	-100.642384941695	-1.5587278296251	-95.7671973830902	
26840000	-1.67604786010019	-61.4382190588416	-40.6711970785997	-103.665196125991	-40.6475697178899	-103.281023861308	-1.62539541396592	-97.622128411346	
27035000	-1.74216162918187	-62.4477813100659	-40.5960578933553	-106.292344796012	-40.3845527563189	-106.50130156179	-1.68936259521456	-99.5284217290771	
27230000	-1.79597491685224	-63.5198965957715	-40.2369847204136	-107.909518809332	-40.2206300243947	-107.769686285596	-1.76203755425042	-101.483828201853	
27425000	-1.85386411463602	-64.6329711903198	-40.2081703322986	-110.784889899489	-40.2218828863395	-109.49130919397	-1.83203538390416	-103.501577419443	
27620000	-1.91998340384898	-65.7271332454611	-40.0453928123888	-112.831297666605	-40.1413687644276	-112.456731782182	-1.9067899673451	-105.567087728249	
27815000	-1.98429712153575	-66.9149104145319	-39.8799880401463	-115.361482014498	-39.9601009380509	-114.273706473633	-1.98266407722027	-107.691571815427	
28010000	-2.05217435764819	-68.0540322615321	-39.6224735828687	-117.251799066379	-39.6467961145856	-117.584099115618	-2.05696441107415	-109.8573614912	
28205000	-2.11691213581259	-69.2744979405177	-39.5206432502472	-119.779740885671	-39.4628950560104	-118.575498454789	-2.13207576030681	-112.065209909422	
28400000	-2.19250648397121	-70.4967142521748	-39.3540424099528	-120.920559760853	-39.493069965171	-121.309753316788	-2.21532625262629	-114.363334780932	
28595000	-2.26542522135228	-71.7059532659508	-39.1542725907102	-122.653407757346	-39.2530328376295	-122.733812766091	-2.29671318221823	-116.682092546522	
28790000	-2.3430451264535	-73.0043841863171	-39.071904228327	-125.646684238953	-39.0621608665272	-125.249578226346	-2.37617548058124	-119.068927964631	
28985000	-2.43055739874712	-74.2541538369029	-39.0426593109706	-127.422555145188	-38.9184371031793	-127.645650869019	-2.46728223989893	-121.520134803596	
29180000	-2.52308574738441	-75.5623562298758	-38.7934392226149	-128.980125080946	-38.74089722298	-129.06546806089	-2.55637347742945	-124.065019734408	
29375000	-2.62558511248134	-76.8516636797417	-38.6986195457553	-130.325781933997	-38.6954991475582	-130.745805027938	-2.65902584021756	-126.644129967837	
