!Keysight Technologies N9917A: A.12.46
!Date: Thursday, 10 November 2022 21:25:22
!Timezone: (UTC) Coordinated Universal Time
!Model: N9917A
!Serial: MY56071016
!GPS Latitude: 
!GPS Longitude: 
!GPS TimeStamp: 0001-01-01 00:00:00Z
!GPS Seconds Since Last Read: 0
!CHECKSUM:1289071637
!Correction: S11(ON U)S21(ON U)S12(ON U)S22(ON U)
!S2P File: Measurements:S11,S21,S12,S22:
# Hz S DB R 50
5000000	-0.0394139900100284	-9.01598031914746	-80.1195231703619	77.850923049184	-70.2241715943209	77.1197313308526	0.00586718405866363	-9.26009414428825	
5195000	-0.0448162857761855	-9.43834627579476	-81.4406476411466	46.0028252877022	-74.5400487274682	13.7666320466725	-0.00202840210378659	-9.66092029064288	
5390000	-0.0552705176300883	-9.85721820985758	-66.678135200043	77.899009866595	-70.6732661666031	77.2291691354378	-0.0176821372921025	-10.109598153326	
5585000	-0.0614235283655226	-10.291691218549	-68.4688211432715	86.4159768228615	-73.8364081179032	-160.250818870378	-0.0151640053433183	-10.5238820621611	
5780000	-0.0622912498026007	-10.7191801935989	-65.0883687412224	70.9658519859681	-63.5249155739989	27.3426893365983	-0.0225669290432753	-10.9691957842657	
5975000	-0.0566267759131301	-11.1748912634185	-81.2640578129915	65.3537749423886	-67.9988396011154	142.603336988397	-0.0191248621279245	-11.3764397167714	
6170000	-0.0532071276228225	-11.6142063120665	-81.9258463767739	-163.281635390547	-71.4943803986989	132.726157666137	-0.0137068630934355	-11.8217617321069	
6365000	-0.0532860085405645	-12.0290467982412	-67.0059401157698	57.7086121912273	-68.8205584503423	82.8134273415125	-0.0142811957622201	-12.2789186410745	
6560000	-0.0511596281209471	-12.4664388108551	-69.8659170125327	113.595576487073	-69.4005791976498	94.466644724246	-0.0120997793773764	-12.700698052816	
6755000	-0.0525156040514414	-12.9202751204575	-69.8709392587985	109.863006615481	-68.0290281026441	71.8447834284234	-0.0161706977224026	-13.1601649867747	
6950000	-0.0470926731339986	-13.3534944000656	-80.2272667180162	33.703911091449	-74.9816498898078	109.544437338628	-0.0179647692810531	-13.5768151694275	
7145000	-0.0449429404590822	-13.7858307470899	-78.6371037150412	70.0911783462127	-71.1753981881195	76.9304452089758	-0.0138006352284096	-14.0091329480587	
7340000	-0.0395549215395769	-14.2095559034731	-78.3502011051026	34.3478147106895	-78.1493068083399	72.597717748325	-0.0101527976230785	-14.4392486933799	
7535000	-0.0343545524816435	-14.6235267283232	-69.9332237641115	109.168721017187	-73.3979465609867	24.2035848739267	-0.00651324824199093	-14.8719028283149	
7730000	-0.0344452673583215	-15.0800481455156	-68.8328964939222	75.9938792837564	-73.7990111850817	91.9569808065704	-0.0055743470070187	-15.3113169488722	
7925000	-0.0324232654633169	-15.4899646062945	-78.1059961335409	88.5967903085353	-76.3830374816992	33.8534336708865	-0.0054370046009704	-15.7387152751111	
8120000	-0.030684919228108	-15.969374092629	-71.4567470257962	36.3235358534385	-68.2042151133852	84.4391010317802	-0.0083544278447421	-16.1877215606558	
8315000	-0.0322941453553312	-16.4004276740661	-72.6879705644197	60.2340074174083	-68.2317638881846	127.525260121507	-0.0117361026167205	-16.6334909364018	
8510000	-0.0322650483670886	-16.848572598926	-66.2486542280137	111.18154553208	-68.9252774827569	116.511097027893	-0.00808245279860149	-17.0877790591482	
8705000	-0.0300901942042291	-17.290602944423	-72.9796859665011	92.5850211633529	-69.5625433375421	90.7077524647465	-0.0153639342489767	-17.5581271595599	
8900000	-0.0307298381532764	-17.7449101516352	-67.2942038180195	79.8864284933443	-73.2202125993081	43.8808785385557	-0.00566552947244114	-18.0291571907077	
9095000	-0.0318607258479332	-18.1982403463998	-72.9209322916125	68.3064838310991	-71.6521136583429	53.7561905693299	-0.0109357388217847	-18.4934369380959	
9290000	-0.0288488517989078	-18.6973256753823	-66.0236980100667	81.9232179720236	-71.3100661015672	86.1050070938351	-0.0119090557378215	-18.9555287304321	
9485000	-0.027518817099412	-19.1339693567924	-67.3012214048875	87.9126967504313	-69.8368040925827	84.0622852431887	-0.00768225886378972	-19.437619332151	
9680000	-0.0290484277685597	-19.5850483903149	-67.3616186591416	66.3260702819217	-68.3679177732146	84.6863451894778	-0.00683290313807685	-19.8886664086291	
9875000	-0.0293989397222881	-20.0597966169829	-67.6960099321685	80.3870874769538	-67.1514765585157	67.301385385968	-0.0105160064109491	-20.360644493311	
10070000	-0.0305904192465038	-20.541809187474	-67.4899477197654	52.8457082177781	-68.7371400699724	75.7184153520651	-0.0124952038085251	-20.8312061083783	
10265000	-0.0330601060314678	-20.9870952382312	-67.6215366329261	68.1825743114221	-69.9980086607863	70.6391834651133	-0.0137734497694085	-21.2898311026666	
10460000	-0.0366467630474102	-21.4642388081068	-70.0696410759132	46.7805754017223	-67.8730738373572	70.7411462010631	-0.0155574124881527	-21.7786959374728	
10655000	-0.0381736946532243	-21.967446083422	-68.5789031362757	69.7358414383927	-68.330182362361	78.794798051953	-0.0173121961017523	-22.2334551413486	
10850000	-0.0424822656632435	-22.4579915007863	-67.2142067406039	88.7291265771379	-66.5347114062695	91.1188242071304	-0.0211824736901559	-22.7183358647594	
11045000	-0.0435748420375959	-22.9264444776687	-68.4297240883223	53.6682891903772	-65.0699957589304	74.9816651497625	-0.0245125294495578	-23.2298511589519	
11240000	-0.0508313948759353	-23.3937992321256	-70.8353703074296	71.3842608030102	-74.8878851023837	109.856279749806	-0.02941597975482	-23.6983864519155	
11435000	-0.0529269802950054	-23.8721383197479	-67.462857966813	73.6811880470564	-65.380373715691	82.0334239478573	-0.0349373067063868	-24.2038183967007	
11630000	-0.054125859241615	-24.3579875532177	-65.5437442911657	71.570829816912	-67.8869933237533	72.1020269007375	-0.0373192080407929	-24.6739921126538	
11825000	-0.0614686759974065	-24.8634518804754	-67.9413771688051	87.1200044313343	-65.5239916824976	78.2790110451316	-0.0419756745753391	-25.1736268468635	
12020000	-0.0616313601522045	-25.3658135094355	-67.2424151260519	63.2984457244342	-66.514825452306	76.266911137192	-0.0424886086749145	-25.6743579315855	
12215000	-0.0610729255587211	-25.8783977010961	-66.1980071339177	77.6758829320717	-66.6323995479907	93.4561453266314	-0.0497670976412548	-26.1995531099442	
12410000	-0.0564043813839806	-26.4172613098529	-69.7726703829956	83.3853668491871	-63.2796214481238	49.121679114784	-0.047965822047193	-26.7157688591766	
12605000	-0.0545517176562029	-26.9405478993977	-64.9126486953671	98.383368016657	-63.447877592805	72.3423848235201	-0.039227515880996	-27.2397728048582	
12800000	-0.0452330192115236	-27.4712242425637	-70.656988821389	103.743733316372	-66.5222928106461	68.1230218440713	-0.0386632072880162	-27.7731550598705	
12995000	-0.0404417005008934	-28.010091915533	-65.9639437147485	83.6372413431346	-63.2854962939122	74.1226304646553	-0.0281585058100491	-28.2998851469879	
13190000	-0.0322667239592755	-28.6025447813627	-65.2198477272716	70.7101591135611	-69.7857617533996	52.7822490925082	-0.0135999577529828	-28.8417793285663	
13385000	-0.0275315128718532	-29.157903589693	-62.4342487459824	84.0313688306509	-68.1420256553398	90.1156816452014	-0.00298382962390227	-29.4010987289766	
13580000	-0.0210061257139078	-29.6624345383722	-64.0430658543604	94.7521691622172	-64.2544797432211	61.233209725746	0.00667597712299815	-29.9392488699996	
13775000	-0.0093632507016584	-30.264916911462	-62.9492655586842	71.8507412525909	-61.8441026603018	75.7970127138231	0.0117304967670388	-30.4768230177614	
13970000	-0.0073637580990951	-30.8099297747002	-62.7934840002314	65.5069659082869	-63.6829012998801	82.3268728656756	0.0203101534607481	-31.0718114217834	
14165000	-0.00344126793969285	-31.3992969520516	-62.8126737095444	72.6823384876115	-64.6679786347283	86.2736771854873	0.0290671965464804	-31.6314196336179	
14360000	-0.00186274113753258	-31.9375014313489	-61.5389104594162	61.73003225531	-62.1226474621395	87.3963616815772	0.026743685712072	-32.1792445555408	
14555000	-0.00263611540852567	-32.5350008903977	-60.7917773737539	58.3971487986363	-63.767796560354	57.4818009289349	0.0290105821302704	-32.7670763277947	
14750000	-0.00883487157560883	-33.104753374751	-63.5618260122266	45.3862777750333	-58.6655960612288	52.2095355692021	0.0270489752307131	-33.3218434207693	
14945000	-0.0131663586698089	-33.6998217422338	-61.5518521279673	58.2143915809227	-60.2380190086352	71.1939460794692	0.0175337219100956	-33.9122706372765	
15140000	-0.0186771311995875	-34.3121326699686	-61.1574093810095	56.7264660776282	-59.8183415405705	43.2761140716025	0.01003205873421	-34.501319588351	
15335000	-0.0254763053266545	-34.8918676410443	-62.5599350226695	59.6522487315418	-59.6501140363358	52.1533544785132	0.00282813623953241	-35.076410292659	
15530000	-0.0273852760402169	-35.5293437599577	-62.779936225523	54.8927655138	-62.7055945148852	66.3709487547327	0.00156441062650264	-35.6639236166278	
15725000	-0.0354281493104708	-36.1055369940383	-60.6488190624076	52.430343105879	-60.9924613295271	46.0822540260036	-0.0100630883682449	-36.2673491297255	
15920000	-0.0417347608216567	-36.7728949077526	-59.459989350966	56.2045240984912	-62.8820710911521	61.1229532334284	-0.0167792470110244	-36.8746427767541	
16115000	-0.0555398266426549	-37.3917045914867	-62.4691418932368	47.1156393965927	-57.8663073068549	51.3096574411769	-0.0234299790012421	-37.4879311018361	
16310000	-0.0569064072237006	-38.0011550139078	-62.787138451712	54.5174268263435	-59.7618136810306	51.3902002576569	-0.0321802056352961	-38.1034243522378	
16505000	-0.0628519726274618	-38.6637131874307	-59.4880010869675	46.0833940238966	-57.4916384932052	52.1493292512091	-0.0389247944808314	-38.7790307019947	
16700000	-0.0675353370485635	-39.369709364619	-60.7096229601681	44.9686028949194	-62.1046052270333	61.9484756254831	-0.043199263088431	-39.4349806720799	
16895000	-0.0717373110126557	-40.0502877356014	-61.9261317220681	39.7416900112637	-59.7234298415866	52.3061132645721	-0.0431561785861961	-40.1320722733501	
17090000	-0.0732709050483967	-40.7177325619456	-60.2574967280418	53.850114929463	-58.2225950469443	53.1892545478813	-0.0497626907727439	-40.8388160832376	
17285000	-0.0716157821483206	-41.4089018537516	-58.5741218963666	55.705329691103	-59.376686082391	59.1147637446246	-0.0556582059417021	-41.5300399072045	
17480000	-0.0742526280232522	-42.1604231271898	-59.1575103078279	43.0478379744128	-57.3629906506001	54.4959795301265	-0.0646966862104063	-42.2285817638483	
17675000	-0.074191516730048	-42.913575685798	-58.9385683626649	44.6858559555337	-60.4839321354489	42.1066229568246	-0.0726428259193944	-42.949064414362	
17870000	-0.0786269502606126	-43.586305396452	-58.8658262028079	43.4567639436195	-58.2074442288276	44.2588789196044	-0.0788425229032577	-43.6379167177799	
18065000	-0.0780013302747008	-44.3390078063939	-57.8189582733402	41.2762789840508	-57.2441768687956	46.7348203540529	-0.0793310795132813	-44.3725623685819	
18260000	-0.0789188249186461	-45.1106251808777	-56.7617266650281	46.2659713015501	-57.0686959312866	48.737370383608	-0.0842306025009149	-45.1116217560946	
18455000	-0.0804451039186585	-45.8446049338387	-56.8066900397539	49.5271874968647	-57.0931605251343	42.9733768090052	-0.083109857931713	-45.8310544279828	
18650000	-0.0779491079496523	-46.6286441293464	-56.8715868774166	43.4754071281315	-57.1028874527952	42.0633786604318	-0.0869820282226537	-46.6207628425835	
18845000	-0.0802019457556571	-47.4096726015672	-57.594636541024	38.8181311007306	-57.3049568275397	39.9909590557387	-0.0866946273329357	-47.4064146206693	
19040000	-0.081214559886712	-48.1876469479531	-55.8773123775335	33.1417425679816	-57.0562112767284	34.8998734701721	-0.0916435192584257	-48.2188261599541	
19235000	-0.0728212091389368	-49.0323127648881	-55.4024084543523	31.8879227837001	-56.7090530430086	31.1054165185505	-0.0901215777223563	-49.0477858598163	
19430000	-0.0795277883484284	-49.8221264702062	-56.1761663562357	36.4144912010476	-55.5101645924312	35.7305733870711	-0.0877694570626091	-49.8733876273075	
19625000	-0.0790097858851785	-50.6273447372465	-55.1635192159322	36.8545609740848	-55.8962516535982	35.8373362645532	-0.0860580781227868	-50.7066032872704	
19820000	-0.0793220010716038	-51.5260230009476	-54.7071630877856	34.7831117058201	-55.7126737141631	32.9966391181767	-0.084682226417977	-51.5694043088275	
20015000	-0.0884716428567136	-52.390790579276	-54.5909539427801	30.4853583259427	-54.9532310543756	30.6750731196969	-0.0907521767592481	-52.4203376993792	
20210000	-0.0981704454385578	-53.2819261439854	-54.0150448648869	27.4512440534357	-54.2796146720736	28.9094413544732	-0.0915874524357332	-53.286450861788	
20405000	-0.11411507049863	-54.1891735796699	-53.8501604350449	25.7275704574723	-54.106384597822	25.2513874388206	-0.104415582014899	-54.2005429439683	
20600000	-0.125878625236084	-55.131749704706	-52.8418020526397	17.2949809976935	-53.2059936638081	21.6404912499616	-0.111906451858941	-55.0926970268596	
20795000	-0.140545890420569	-56.0797263381726	-52.4848196876065	13.9576811797957	-52.3043747882639	12.0295105512132	-0.121867285876973	-56.0567161035884	
20990000	-0.161167709040692	-57.0490156880157	-52.9102826842069	3.30729513937587	-53.0286882873493	4.30312453723107	-0.143491656698644	-56.9892393487705	
21185000	-0.172310406486121	-58.0294072994877	-55.3411088446228	-6.07609948061188	-54.651539890736	-10.7322014162835	-0.150587841849105	-57.9296691905832	
21380000	-0.184045767327657	-59.0597936698845	-56.0983081959135	3.71496593258247	-55.7000902213218	1.26347697003098	-0.164774397392829	-58.930770925012	
21575000	-0.202829497478372	-60.083345949519	-55.7379201906831	3.70661471528318	-56.0471818929563	9.25566510296139	-0.179772903975847	-59.9769413050556	
21770000	-0.211422742261295	-61.1922009569848	-55.7283633246579	10.4703415164984	-55.0791805092734	10.7654795081723	-0.19380490912658	-60.9990204444086	
21965000	-0.214915008104692	-62.251531325239	-54.7307256887657	15.709257285151	-53.681344325326	5.84657653419851	-0.2104710668663	-62.0679281122119	
22160000	-0.220104446130314	-63.3257508585788	-54.3682500503681	18.7507248700644	-54.0610561558187	10.0584285102692	-0.22060057605078	-63.1655787240818	
22355000	-0.217320012134194	-64.4492390257284	-52.8826538935239	11.1865288814329	-53.2983635008995	8.13255742865852	-0.229015909617965	-64.300168903005	
22550000	-0.215761778825705	-65.5832878353793	-53.0302998107706	13.358049763961	-52.9127999435051	10.6189689534423	-0.228507744856817	-65.4392067485612	
22745000	-0.213872081190152	-66.7691498877044	-53.2104092557915	10.9161453007689	-52.2635683345464	8.91677210979567	-0.229218257623265	-66.6315324580987	
22940000	-0.218481499198018	-67.9660653394453	-52.4115783077343	8.94346934614289	-52.7816885680927	5.25990871434955	-0.223793949514309	-67.7804922498006	
23135000	-0.219210951132313	-69.2090717002333	-51.5970986497503	4.66353972938575	-52.0742240746619	5.51973947562809	-0.21914196875419	-68.9733665794945	
23330000	-0.22614917642383	-70.4472119532291	-51.6602825584399	1.3752505327114	-52.0239660299044	8.59689339816344	-0.216089444737077	-70.153297622259	
23525000	-0.232737144959957	-71.7315779930311	-51.581287706615	3.5703304494801	-50.6365977494021	2.23606113893087	-0.214837312067134	-71.3870211334396	
23720000	-0.242205064150701	-73.0281811218186	-51.863324836448	-0.502386121834881	-51.1627586093006	0.622086571637543	-0.210472964706842	-72.6704907422453	
23915000	-0.256546645584349	-74.3558457833286	-50.3789364142936	0.121801965086076	-50.9289863536719	-0.769622344711191	-0.217306450028785	-73.9535057102374	
24110000	-0.265407207835014	-75.7388007932308	-49.8064635799505	-8.70951545932842	-50.7442129009084	-2.34135042886952	-0.226681224067119	-75.2713049116555	
24305000	-0.285671312103359	-77.1561322993733	-49.7015580026737	-5.69738392487261	-49.8038561707566	1.93756435796334	-0.237842678740036	-76.6163031382577	
24500000	-0.301635874935729	-78.5669251382795	-49.4247094724143	-4.94936419718366	-49.3517102278375	-2.5588649441163	-0.253727892180608	-78.0105796569441	
24695000	-0.327085278302608	-80.0126217353067	-49.0139066408698	-8.34135866269274	-49.5539419219618	-5.24771311377598	-0.263578953820203	-79.4100755072784	
24890000	-0.343136745887035	-81.5241624097692	-49.0217691631539	-10.3266847057994	-48.7130586338565	-7.98936976879691	-0.281996017098099	-80.91092874851	
25085000	-0.369615993790581	-83.0566054858851	-48.036574418595	-13.006972094307	-49.2216841216845	-12.9384398336692	-0.297377021064993	-82.3456158070149	
25280000	-0.39293503734138	-84.6592038592938	-48.4219225238528	-13.1463099992849	-47.7783414262002	-16.0490461314318	-0.323671098299585	-83.8777672420816	
25475000	-0.417500346518945	-86.2657166655735	-47.6313442288072	-15.1190802428326	-47.5359125334691	-15.057262286813	-0.345172439471078	-85.4547380843025	
25670000	-0.453360400523045	-87.9625788135489	-47.6226479043872	-20.1200469960165	-47.5857425168593	-17.8377723239712	-0.370915710922137	-87.0562123679274	
25865000	-0.488175932333888	-89.6210708582451	-46.7971658342025	-20.8576665983702	-46.5054925229917	-19.8224790593852	-0.398903819764718	-88.6941952791288	
26060000	-0.520846721600816	-91.3422938378671	-46.3479672057205	-20.6261183205945	-46.5480897723575	-21.5243930619811	-0.424812875913199	-90.3606262320272	
26255000	-0.563424351522866	-93.1423050363576	-46.3613113581974	-21.4566548663342	-46.3760149983691	-22.5059678006586	-0.452424315438763	-92.1077446523597	
26450000	-0.606691723721556	-94.9760395306977	-45.864058235704	-26.1642425125539	-45.9424351741694	-23.9639548873007	-0.492063167414583	-93.8548686289525	
26645000	-0.643301965810428	-96.8532844792662	-45.0566874117758	-26.6982613525933	-45.4242402616097	-28.2945423771164	-0.516544278132904	-95.6909269900751	
26840000	-0.684441316515219	-98.7546191426551	-44.6998775510613	-29.857947180692	-45.2329794027006	-28.0092994161985	-0.559597491342095	-97.5522313095884	
27035000	-0.724133379547105	-100.729279035728	-44.6150051984158	-30.067685083988	-44.8008540585438	-32.1105990060136	-0.600152580254129	-99.5126109445761	
27230000	-0.763734363625146	-102.791238488192	-44.1795277125851	-33.2309089828324	-44.318413117331	-33.0198497405403	-0.637606181113008	-101.470458955607	
27425000	-0.803344690556709	-104.858418161015	-43.782874618182	-34.551723318986	-43.9117120621228	-35.5050065494583	-0.680114348959696	-103.501317519818	
27620000	-0.84167553743134	-107.023492057728	-43.3871546433443	-37.5245899512101	-43.3763728156246	-37.6265991097027	-0.718507574999681	-105.573811569354	
27815000	-0.887916992532692	-109.216714357204	-42.9047718395721	-40.462988070207	-42.9861250716186	-39.8750291305183	-0.758228435041914	-107.682015147058	
28010000	-0.936513649586266	-111.479405314739	-42.3500232229348	-42.3090968546754	-42.4368821019247	-41.399906765801	-0.804735083500647	-109.89024996627	
28205000	-0.978022873991323	-113.773748096204	-41.8805659539433	-44.0878991349134	-42.1342570687014	-43.7255098549618	-0.843867432800586	-112.120560601478	
28400000	-1.03179702044222	-116.113199881837	-41.39403054545	-46.6205085703792	-41.5774950309847	-46.6233458932445	-0.881589696215954	-114.439146111252	
28595000	-1.07859041786466	-118.51188896132	-41.0343404034891	-49.0736738046038	-40.9923220578815	-49.1037372687977	-0.930691563408976	-116.799537412945	
28790000	-1.14656240811114	-121.007911607376	-40.3695935743853	-50.8720728877365	-40.4536531555415	-51.4316296285394	-0.971591402794884	-119.178470155999	
28985000	-1.21599157043733	-123.525771625276	-39.9185965126193	-53.2214419712354	-40.0363353391566	-53.3151874035255	-1.0203050864007	-121.682294539586	
29180000	-1.28464586513421	-126.141131271367	-39.5858139901617	-56.1803366370823	-39.3468064338524	-56.3151921024675	-1.07138701005136	-124.184109621562	
