!Keysight Technologies N9917A: A.12.46
!Date: Thursday, 10 November 2022 22:32:28
!Timezone: (UTC) Coordinated Universal Time
!Model: N9917A
!Serial: MY56071016
!GPS Latitude: 
!GPS Longitude: 
!GPS TimeStamp: 0001-01-01 00:00:00Z
!GPS Seconds Since Last Read: 0
!CHECKSUM:1399499414
!Correction: S11(ON U)S21(ON U)S12(ON U)S22(ON U)
!S2P File: Measurements:S11,S21,S12,S22:
# Hz S DB R 50
5000000	-0.154708108174682	-9.02689394894435	-79.7913067657697	53.8871162202171	-84.4831290999561	-131.236396339109	-0.206683332440992	-7.67218696073632	
5195000	-0.169871560594366	-9.46714088902291	-87.9397714626808	-2.87374510782466	-66.9126877110127	-139.017954667262	-0.227566453976307	-8.01564536125314	
5390000	-0.17645865744541	-9.91248122567027	-72.321873034583	-57.0997717500759	-69.6868507361208	-68.632515394489	-0.246877189990311	-8.32366262792711	
5585000	-0.180056035980646	-10.3678907331211	-84.0286273171704	-13.0393175406939	-78.0416394508771	91.8548372027106	-0.260289327840992	-8.6225905277927	
5780000	-0.18080625109455	-10.8210631083003	-69.0208182765096	-39.6038426100647	-72.609070614549	48.2618824100774	-0.276995112757135	-8.94006781951976	
5975000	-0.176171567763855	-11.2994700566252	-75.2688585843038	162.379956802039	-77.0526421291814	-37.851955484606	-0.290561448290977	-9.20520662493517	
6170000	-0.170989879927166	-11.752299842575	-70.9879097668918	170.461774743419	-74.5602656666196	75.1302749114492	-0.301363438015727	-9.49325558538779	
6365000	-0.170521324058766	-12.184131326461	-74.5335289930103	-136.164502870748	-82.074623425895	-9.19674311455146	-0.305032428120444	-9.80605195366863	
6560000	-0.166406831711006	-12.642138725844	-82.0325886859383	-160.998153044676	-71.5763057000505	-145.982880455431	-0.313453760318122	-10.1075079740246	
6755000	-0.157701625415839	-13.0889726529851	-93.5342420058139	-160.298177435816	-80.7911815063468	-20.0323698759609	-0.320405884657525	-10.4024405984134	
6950000	-0.140418751539408	-13.5322815679871	-73.4785022028178	-177.590436743661	-81.918925985053	-151.835570999797	-0.325708149417089	-10.6710181382882	
7145000	-0.132974940627183	-14.0106901283359	-70.1355468764327	131.28694771724	-70.3354188398533	-49.9985333305977	-0.330075317832883	-10.9672057632667	
7340000	-0.122763752070458	-14.4666708137394	-76.2661049618253	87.0497160930329	-80.3945777748643	170.109261871793	-0.339170240641089	-11.2842268260971	
7535000	-0.115279263147063	-14.9301729098836	-72.3230527931713	109.603438922596	-77.7190533791324	97.0744842327622	-0.343437974867615	-11.5475449126939	
7730000	-0.105111450207146	-15.360149992367	-78.4655072241748	-148.569253531318	-70.7975454755185	163.319007406159	-0.350618412869027	-11.8292833157483	
7925000	-0.09426546231208	-15.7794637897006	-73.3095106380733	173.428119258492	-80.0915117639597	156.267350854728	-0.359012441995162	-12.1218072601207	
8120000	-0.0923258293671875	-16.2299338347803	-98.9076547662529	-151.293815470807	-77.1311118190507	162.976411251751	-0.365686832648037	-12.4157594488025	
8315000	-0.0802425310642606	-16.7079631555796	-72.300143403293	135.165055708584	-76.8001806823755	-83.3166437146252	-0.373054408000424	-12.7049608068935	
8510000	-0.0696945971692323	-17.1107230316438	-77.1157950375417	-173.862840157188	-80.7882350885841	41.738834572391	-0.383203287466818	-13.0210403577647	
8705000	-0.063376029261278	-17.5597298025126	-71.5567542544945	155.210170910408	-78.3655156714772	139.509777268064	-0.390727642491122	-13.2828565003273	
8900000	-0.058247071818608	-17.983241392177	-78.8623661950341	-61.3503129647588	-70.0471946686024	122.923456684816	-0.393918305188899	-13.568457547172	
9095000	-0.0460900365671902	-18.4750687307416	-73.3463408818734	167.262845954945	-87.7467044297826	39.8249075435885	-0.405461000086227	-13.8756029645496	
9290000	-0.0413940957175941	-18.8906449088236	-78.1416045435747	167.296868643125	-75.0838252424303	122.881132895344	-0.41487481038671	-14.1486149352635	
9485000	-0.0313831648506908	-19.3475232961327	-79.9402135203335	55.5395567372793	-91.7562001299017	-88.8091150082179	-0.426499195588319	-14.4580371424537	
9680000	-0.028910386675591	-19.8004085347289	-79.6413136386563	-99.6946531688585	-83.7653122851602	-93.1585660472793	-0.438868685073603	-14.7585245899698	
9875000	-0.0294079776776059	-20.2302895759977	-78.0192668811668	-151.336745623259	-80.9625776130615	-33.3359772288001	-0.451993096401439	-15.0132216422409	
10070000	-0.0257208345539284	-20.665579018052	-76.2809486130473	-157.941100921705	-82.1145886456509	-49.8229852679359	-0.468543512829618	-15.32493617894	
10265000	-0.0249396527025969	-21.1119018866908	-73.3777949116872	-177.010847825507	-81.0415551953651	-112.931852158833	-0.488503553775783	-15.5738463790712	
10460000	-0.0288970165762944	-21.5939433807951	-91.9063617058819	-137.459590523278	-76.7753563061428	-160.944107228471	-0.505348604544901	-15.8566719546208	
10655000	-0.0331043484558526	-22.0378372627131	-69.7692112053121	-118.31005905094	-66.5719655397973	-137.942241239303	-0.527427089051828	-16.1041940811224	
10850000	-0.035371927045579	-22.4904694494377	-69.9876196644225	-134.513947458276	-72.9642522268098	175.821596069376	-0.544474357074267	-16.3909012551518	
11045000	-0.0423554136335846	-22.9584021351096	-70.8000946838613	-143.347073906854	-72.0870652444648	-137.98281881308	-0.566827966900191	-16.6667092581737	
11240000	-0.0487414394070042	-23.404498029884	-80.7362109881986	-164.86286818379	-69.9179730927452	-144.841018020561	-0.586270635133967	-16.9283057872299	
11435000	-0.0543053486304902	-23.840397270715	-68.9252693883363	-150.09671092957	-67.0954776296287	-147.831440583794	-0.609402852857767	-17.2061545389117	
11630000	-0.0613847015798077	-24.3058435825426	-66.0837874745503	-167.782962848278	-65.9268383022478	-159.204464706705	-0.63119974696694	-17.4663896945847	
11825000	-0.0675783089054039	-24.7514887487348	-65.0179926006638	-153.560992692498	-64.1068682963748	-154.866178792514	-0.649863686584894	-17.756669178824	
12020000	-0.0779112511846231	-25.2679007422392	-63.4142025711174	-168.39076423247	-66.9137576143191	178.822631964413	-0.67401940824787	-18.0205010945316	
12215000	-0.0793212220454801	-25.7393400433824	-64.7188278157055	168.690143125437	-66.0719299001349	-162.483256919902	-0.696374707129322	-18.3301800403736	
12410000	-0.0863305416252785	-26.2530445218419	-65.0274229012208	152.546405621572	-69.3228749412113	-177.046743787922	-0.719644023407521	-18.6066185166709	
12605000	-0.087385160146887	-26.7681498252806	-63.785329616059	151.235372139823	-62.2077826654686	176.638546518083	-0.740520083892927	-18.8747500977878	
12800000	-0.0887968444535943	-27.2822150903445	-62.7162606091375	170.801758299795	-61.5859067530211	161.445534835949	-0.764060299731835	-19.1647513354267	
12995000	-0.0885533341927301	-27.820126057395	-64.8537920341162	178.678619958062	-62.572411387207	162.918197246892	-0.788490759333967	-19.4411842420924	
13190000	-0.084944141667678	-28.3670358391172	-64.437627264384	159.509645871795	-66.6454069619781	159.519027959843	-0.809123553014846	-19.7166686299145	
13385000	-0.0869110136919396	-28.9010818663481	-60.3457800410621	160.078907565396	-63.3608705577809	153.803376456517	-0.832141526983634	-20.0061592120034	
13580000	-0.0885023617271817	-29.4438267469569	-63.7472455510824	143.854248199347	-61.94045852607	151.583829174938	-0.857283159748878	-20.2602784161232	
13775000	-0.08858802934249	-29.9927602810197	-63.7968790234934	128.439724844493	-62.3592127712762	152.4857107816	-0.873533148754273	-20.517485155615	
13970000	-0.0916048161460539	-30.5950851052467	-61.7194797999112	129.414469720069	-60.4172486037282	139.237715079979	-0.893710373766084	-20.8061502839236	
14165000	-0.0929154241145118	-31.1805663028404	-62.2852219542305	126.875285449355	-61.7922308843985	140.206625792914	-0.917419606626855	-21.0701302600813	
14360000	-0.0962923743603839	-31.7192977994799	-61.0665030026699	135.893749116248	-59.1957501894078	138.55621940304	-0.937614022561814	-21.3693990757845	
14555000	-0.10473383055418	-32.3353846351331	-63.7373162447222	126.584935581104	-62.8300787930165	123.627047610717	-0.966407774427396	-21.6348707894068	
14750000	-0.115565515785217	-32.9173087432998	-63.3669615398559	102.874187436807	-62.5133694390446	120.636682389107	-0.992372439742648	-21.8934255532993	
14945000	-0.128852997408423	-33.5490582478329	-63.8980341483483	136.105269108755	-58.9558482408439	105.298917058953	-1.02302181242634	-22.1820136749007	
15140000	-0.130551377449931	-34.1454298242906	-64.5869561442285	93.3101597011365	-65.0795623260684	95.2441975065162	-1.06378259638697	-22.3815364560394	
15335000	-0.140598512716832	-34.7483363893428	-65.7287920498904	121.583553526948	-65.1976680594411	105.934063378332	-1.09282400103855	-22.6245591479511	
15530000	-0.147520945354242	-35.3891377660361	-69.5468789691594	76.3285557047353	-69.7414932917896	85.6950561025787	-1.12614240816974	-22.8443724495801	
15725000	-0.154512563063853	-36.0138613300579	-65.8036746016883	137.548109294964	-69.8043605823862	168.517465002747	-1.15134105569314	-23.0449066599825	
15920000	-0.160808473045802	-36.6703586276546	-72.2880249426802	-131.760630044767	-62.0554328474852	178.763134635379	-1.16961010993889	-23.2718178870196	
16115000	-0.163693544025976	-37.3295530062961	-60.851999585817	-177.82684552381	-62.8402144131763	-175.692201266049	-1.1903634974665	-23.5626461173934	
16310000	-0.172537747522148	-37.972103012805	-59.8744129392033	161.981011720888	-59.3836072257025	160.178750732144	-1.22102786962189	-23.781256190003	
16505000	-0.178387563021853	-38.6681317960823	-58.1596559311376	157.627414841697	-58.6485440581272	143.120695458436	-1.24132127363637	-24.0911401680053	
16700000	-0.175196468833656	-39.3580036422661	-57.5254612978705	153.694495054801	-59.1052890775454	154.666345948488	-1.25958465555875	-24.3910615692757	
16895000	-0.170500889409557	-40.0888221667216	-56.8397043534503	144.910897875694	-57.9710988485327	137.588577509814	-1.28236803552923	-24.6650892837915	
17090000	-0.167368310967475	-40.8134513575628	-56.77065557586	134.227070170372	-55.1671629019623	126.69395000136	-1.29776721335707	-24.9462839563213	
17285000	-0.164395643060521	-41.5165347534203	-56.6982021560668	119.761307521474	-55.8784915255735	127.487600341617	-1.31669360404328	-25.2040911549147	
17480000	-0.158576368306398	-42.2075409609416	-56.0016241898135	120.383190745398	-56.7427399231347	129.556595064576	-1.3218630716206	-25.526434908284	
17675000	-0.155991479474314	-42.9777877160159	-55.9271955238229	128.879613084978	-56.7353778575352	113.475323105137	-1.3353276888676	-25.8164754341927	
17870000	-0.148936101470365	-43.7475305060893	-56.9234107743631	117.614028922345	-56.5556347431918	113.324515334851	-1.35166118928471	-26.1283940054124	
18065000	-0.142765357204659	-44.4562752081283	-55.9482239540955	114.342863174701	-55.1539893911568	121.237378708868	-1.37139862342381	-26.4241117669824	
18260000	-0.135129250859439	-45.2458230021709	-56.1990176556429	105.072013421887	-56.8469876495218	122.790241755003	-1.38968023086215	-26.7659393413125	
18455000	-0.12796185571654	-46.0153671980932	-55.5815421689203	114.166799122815	-56.4991745665624	113.751937591229	-1.40893567591747	-27.0429293689564	
18650000	-0.120597826636358	-46.7733475096057	-55.2483680239256	105.600202454705	-55.1223972637231	104.308760225191	-1.42938661423522	-27.3848365277979	
18845000	-0.112086594443401	-47.5649523075856	-54.898524871138	112.234177378381	-55.7384938361839	106.332249273702	-1.44900321260901	-27.6931878379276	
19040000	-0.105430648366268	-48.3343781837368	-55.2084176329453	103.288624052247	-54.6615628996789	106.952953535313	-1.4678959430134	-28.0269700559278	
19235000	-0.101636924443131	-49.1807556512378	-55.2860437711206	111.000471655709	-54.9737960275975	104.547219806275	-1.48773574756128	-28.322841498676	
19430000	-0.0931533638856817	-49.938668829099	-55.6133822305718	98.7975799414752	-55.3805858761757	99.9093595631445	-1.5121253865511	-28.643521860746	
19625000	-0.0884431357252236	-50.7884015433444	-54.4377409303613	106.756762711594	-54.9250465214897	100.082898048089	-1.52643574786294	-28.9356752253346	
19820000	-0.0927692108003465	-51.6579541056752	-54.2611924036838	102.700739290749	-54.2644356750807	100.392792942169	-1.54935895798348	-29.2529965436223	
20015000	-0.0966326937690989	-52.4578140801866	-53.7489802038353	97.2903204698409	-54.6690784776608	97.8505366844292	-1.57381433530993	-29.5328957806776	
20210000	-0.101219165621653	-53.3675174572587	-53.245456832871	97.3960860779502	-53.936093446161	98.6522012497951	-1.59754449775549	-29.8443120537371	
20405000	-0.10959476525857	-54.2648829172234	-53.7264243960943	98.1655705916098	-52.9482093473638	96.0368909153597	-1.62552046834775	-30.1583160401082	
20600000	-0.123101994835973	-55.1536085757227	-53.1866062795862	95.7755545139112	-53.0603712395802	94.4581602647072	-1.65260188144966	-30.4715803944445	
20795000	-0.137991089805961	-56.1045271827192	-52.6363489602108	94.9499300422515	-52.5297655499929	91.4691083078402	-1.68589522477397	-30.7649773364448	
20990000	-0.155870502279892	-57.0823047575902	-52.411534774335	90.9678621522725	-52.1408360823479	92.8554261137258	-1.71752105088289	-31.0615027564215	
21185000	-0.171803866797945	-58.0384916107881	-51.8183205285679	91.3386476706363	-52.0538259740412	87.3583128011954	-1.75266981193523	-31.3826178033662	
21380000	-0.185124503096982	-59.0642811398678	-51.4568709924103	87.006395578362	-51.2375411294761	89.1033721380109	-1.78947826983739	-31.7072686140924	
21575000	-0.203386962347572	-60.1078089368648	-50.9721234646423	87.5841527270548	-51.1607363991359	86.4886604086443	-1.83218760295756	-32.0178493421981	
21770000	-0.219171704222473	-61.1714944023855	-50.9203043838701	85.0544758477807	-50.7545347635304	86.1802037903118	-1.87173931627093	-32.3338387567209	
21965000	-0.231262451393196	-62.2203102718846	-50.5770580666283	82.7453497966977	-50.6032738910881	81.5008398160273	-1.91388103414643	-32.690235961951	
22160000	-0.237681074362772	-63.2897117171868	-49.9692235413583	80.6914192933342	-50.0705575998004	80.0394214334426	-1.96112101205079	-33.0704434890961	
22355000	-0.238380155513153	-64.4132831814497	-49.8172785532542	79.9815556246687	-49.9829817228638	80.0408396407111	-1.99903299227648	-33.3937371004291	
22550000	-0.244647061240231	-65.5195628300697	-49.6991762884711	74.3701738151069	-49.8069194988517	76.4571399463864	-2.0400764302228	-33.7754419432183	
22745000	-0.24958496303428	-66.6796577922362	-49.5799194320315	71.8043615808114	-48.9079416355432	75.6019884043318	-2.08395415217835	-34.0985565986112	
22940000	-0.255657802060654	-67.8886761210814	-48.740227712721	71.9373164701724	-48.9121337340412	75.2316170322301	-2.12672574633408	-34.4630312429576	
23135000	-0.266521228637996	-69.1172416271038	-48.96289330288	69.7880668342353	-48.2647562632925	67.3537749704531	-2.16831804107125	-34.8182671290076	
23330000	-0.273758700705408	-70.3388750734616	-48.7370989274856	66.2396153274288	-48.8015073175032	67.5296301839207	-2.20853838403475	-35.165336469944	
23525000	-0.284087367304696	-71.645002847083	-48.5905665177144	66.3997426552815	-48.1110837304562	67.9621644696334	-2.24890814724653	-35.5181885230241	
23720000	-0.29357234088636	-72.9756344204784	-47.641030557946	68.9144624675009	-47.7568452168465	63.8866454428165	-2.29165123981997	-35.8538377408753	
23915000	-0.316792598681736	-74.2391125480715	-47.6282485658381	68.0209640886841	-47.9077228803261	62.0363706246342	-2.33981684829438	-36.2169288520561	
24110000	-0.333028078520194	-75.6204205926491	-47.8423477754484	64.6510862168885	-48.0071872681773	64.0461974912871	-2.38672140987177	-36.5468053021763	
24305000	-0.357438997176592	-77.05601100027	-47.4902999758386	58.6438413716807	-47.2056675787271	58.8372757208007	-2.43449361442969	-36.9208705488654	
24500000	-0.371051629858726	-78.4682579456074	-47.6477541921108	62.2203054370587	-47.2912909939475	62.0586612084939	-2.48844875304184	-37.2536293295091	
24695000	-0.399373305260831	-79.9359590729576	-46.8572031517727	58.5440295359939	-46.5806664716212	62.032035164794	-2.54766110936975	-37.6325514877782	
24890000	-0.416352647432751	-81.475582876825	-46.4688684669241	59.1146814130952	-46.4780098492193	56.2412383169678	-2.60006229358776	-38.0500093768531	
25085000	-0.44094649394639	-83.0210329042538	-45.87928006845	54.5142503620803	-45.8077744020564	56.7463488849916	-2.66076077978899	-38.4379239232462	
25280000	-0.465521357171983	-84.6063333271004	-45.1821311557283	56.3836231785354	-45.8307557699406	54.5882455399385	-2.72381262966467	-38.8110699707106	
25475000	-0.493061576668543	-86.2723630804077	-45.0060158397289	52.972841657594	-44.9946740449986	53.6686608562323	-2.78444264182118	-39.1657405772079	
25670000	-0.517314804894566	-87.9671761247758	-44.902355401539	50.4542915742684	-44.8545069018849	48.819405938279	-2.84441204755959	-39.5667914915135	
25865000	-0.557410194020247	-89.6544417128414	-44.3133870554823	49.3153955048626	-44.4251416404498	47.1597098856587	-2.90868441569797	-39.9409792168153	
26060000	-0.586441327627659	-91.430794925716	-44.2083448685374	46.8188343744781	-43.8368914086889	47.0501061912653	-2.98090164754703	-40.3034836947479	
26255000	-0.623829711649304	-93.2315616773486	-43.9045646586384	42.8642799937486	-43.6434025046849	43.9633041374569	-3.05181820455162	-40.6595611890827	
26450000	-0.659982198680163	-95.0738200626882	-43.2641539448549	39.1420979802436	-43.5915698043383	40.2508669059223	-3.12219721909902	-40.9954728244463	
26645000	-0.699203442902373	-96.9387380037145	-43.4573038949748	36.3463581712396	-43.5053467138125	37.59923581035	-3.20085689155953	-41.4059308048425	
26840000	-0.733249216007871	-98.8508956319972	-42.8611288846067	34.2473670353384	-43.0656964170624	34.9271727801312	-3.27405050639436	-41.796410067705	
27035000	-0.774262449777275	-100.805149446291	-42.9324904488092	32.7745263442256	-42.8768215199612	33.9182558081602	-3.348432979118	-42.1521455135821	
27230000	-0.80621140847508	-102.818396290537	-42.2209197072753	29.54111295476	-42.5411908195157	30.9285351943242	-3.42912624991007	-42.5272614812294	
27425000	-0.841368109674032	-104.90337499409	-42.154403140272	29.6275881436323	-42.3835768253855	29.4601661121017	-3.50666497465072	-42.919495616138	
27620000	-0.876522455094834	-106.973386843139	-41.7604059407367	28.2381548064771	-42.0650352667599	27.7623750000159	-3.58699298655093	-43.3223840341713	
27815000	-0.909232201066742	-109.160985666269	-41.7013917271907	26.1806186268623	-41.6841930124954	26.127218279463	-3.66601118494789	-43.6844556492084	
28010000	-0.942378055159539	-111.389889158697	-41.4618427779688	24.3186474671792	-41.2392506294449	24.5151814331389	-3.75191616068817	-44.0929146191461	
28205000	-0.982938274801304	-113.654761272783	-40.8684054101695	23.1283708005052	-40.8980332514999	21.1725256115482	-3.83553283875482	-44.4559139814053	
28400000	-1.03048650544843	-116.016142981335	-40.5725569950634	19.7136587956138	-40.4846206641788	19.3522741878386	-3.91861752485209	-44.7992683459637	
28595000	-1.07916949770723	-118.387041147705	-40.0406241340708	17.437043143127	-40.2503658577448	16.6190844209329	-4.01329345661544	-45.0673825028492	
28790000	-1.14083781702306	-120.786802334896	-39.7067226152147	14.6468678969938	-39.7401648908181	14.6139838019272	-4.08709773407988	-45.4443913661458	
28985000	-1.19957062917658	-123.286332927502	-39.5143605782805	12.4592031524657	-39.3585236545702	12.7556258710424	-4.18334753154486	-45.7498970700638	
29180000	-1.26992775980365	-125.842920195497	-39.1298557107651	9.25778582164491	-39.1249918193873	9.92377426292444	-4.26967876113579	-46.0680018988244	
29375000	-1.34836120335864	-128.468123025177	-38.6649366745299	7.15607861443359	-38.8287260433928	6.53486383934163	-4.36262736960115	-46.3277809138466	
29570000	-1.42298708051433	-131.111792684058	-38.3739121029806	3.76549746169002	-38.4419269489868	3.36174991635739	-4.45559657128411	-46.608109153358	
