!Keysight Technologies N9917A: A.12.46
!Date: Thursday, 10 November 2022 22:38:50
!Timezone: (UTC) Coordinated Universal Time
!Model: N9917A
!Serial: MY56071016
!GPS Latitude: 
!GPS Longitude: 
!GPS TimeStamp: 0001-01-01 00:00:00Z
!GPS Seconds Since Last Read: 0
!CHECKSUM:1982755722
!Correction: S11(ON U)S21(ON U)S12(ON U)S22(ON U)
!S2P File: Measurements:S11,S21,S12,S22:
# Hz S DB R 50
5000000	-0.133893087357656	-8.92475503051614	-66.836570081178	138.305998183296	-87.310781943238	6.08375827213645	-0.233888281094269	-5.26279139235525	
5195000	-0.15003329322666	-9.3633064948532	-72.7527035898464	-3.55814697882429	-70.6372562456825	126.631324658804	-0.23880963152477	-5.59525808294452	
5390000	-0.156211296424223	-9.76776685499297	-68.1701172656578	31.709657426548	-75.0746226552309	90.5595675202933	-0.252070548286168	-5.94219024410705	
5585000	-0.162601757758119	-10.253781699833	-70.8919393941308	38.7416723301373	-65.8707762044767	53.1962947201588	-0.259542503073063	-6.29024633457266	
5780000	-0.165230702416328	-10.7015028991612	-96.1192594508435	-140.097570945926	-85.5482991439586	-8.8934593835528	-0.254067558442802	-6.67333257799079	
5975000	-0.156410146226916	-11.1414293795474	-81.6920319319118	127.100237585343	-70.5299297278247	107.140402913094	-0.261824769672718	-6.97326020388113	
6170000	-0.147608688341066	-11.6014570953156	-70.4651833507237	73.2289467657934	-70.9064145565764	73.5762372442003	-0.26205998070236	-7.29285565029103	
6365000	-0.151438509258889	-12.0407444587766	-71.3101935504312	-6.04433267653036	-83.4054094029447	112.639322007201	-0.26157797830123	-7.65055677733528	
6560000	-0.148463895410735	-12.5326642647539	-67.938306354009	31.6983485432873	-71.5258145766208	18.1834540068016	-0.26055488847664	-7.98236918974292	
6755000	-0.13964815847826	-12.9817166354501	-71.5530848865934	80.6193103228559	-68.2653281916487	34.3424095628264	-0.258204811112931	-8.28238045895869	
6950000	-0.124195586377297	-13.3975538808434	-76.3724378870579	-94.858182935335	-72.3971488401106	-9.3122687481193	-0.256282415931353	-8.59046408357229	
7145000	-0.116822288315706	-13.8548130594899	-76.8528649386648	-29.2235963929412	-69.3583459843059	67.2074062510935	-0.250614801298072	-8.90517781233282	
7340000	-0.109215922844669	-14.3269284063022	-70.4123983962246	-6.24430262891909	-75.5618885041156	81.198681248857	-0.250409446201051	-9.23878454989432	
7535000	-0.098423511967601	-14.7901222398235	-65.4209835439416	82.1769514801883	-80.4784428395289	34.2592670118578	-0.244492740931729	-9.53144642050816	
7730000	-0.0932239057383739	-15.2257995278004	-67.7470018253372	32.2170579058526	-78.5989511622181	-121.965323627025	-0.243068163686275	-9.86606813279445	
7925000	-0.0825920088937285	-15.6487097232197	-85.0021055222986	-76.1617639194252	-79.2378595636562	172.193352316823	-0.24235313009728	-10.1916788632284	
8120000	-0.0794348919996911	-16.1088972531704	-77.5542889019003	-45.7203358752155	-72.4651755177972	143.195774882877	-0.237964503061254	-10.5007825023564	
8315000	-0.0682081987091007	-16.5711029640631	-82.5065483695904	49.978406285678	-77.9745804343723	79.2022293648913	-0.240375230022025	-10.8174845563676	
8510000	-0.059574821694152	-16.988055438462	-81.2381848541785	126.264185552232	-69.965671915189	67.1933599678621	-0.236312496959964	-11.1485661137641	
8705000	-0.0535216206037151	-17.4428298394547	-81.0703029707226	84.2168817898901	-75.8888398243377	65.4038365273382	-0.23437143910268	-11.4643795316894	
8900000	-0.0512267421568858	-17.9039057424119	-88.0881228503695	15.1264326841145	-73.1532018667006	155.178854267795	-0.227941934070138	-11.7710705822433	
9095000	-0.0405752319506143	-18.3704339162133	-81.1219337688491	86.3432300358426	-73.6172696404181	98.352594440082	-0.226732092172907	-12.1515438272134	
9290000	-0.0367648597088471	-18.7986480032084	-89.5069541680904	101.099020556618	-72.3276204229713	82.4753817831229	-0.225088413568545	-12.4772194654168	
9485000	-0.0295371495925178	-19.2511133161275	-70.2921295378449	145.159060594572	-71.0803461452253	101.685567903112	-0.228301741204842	-12.7972574183913	
9680000	-0.0216855314996339	-19.7207377464383	-72.9997398892803	143.445363466461	-76.6301832309963	108.868575803184	-0.228866504632145	-13.155908613499	
9875000	-0.0195619499222955	-20.1359847962606	-70.2053642150819	121.062804271819	-71.9044649915787	114.82477385489	-0.230299255056789	-13.4879028747306	
10070000	-0.0203569445347679	-20.5952501628482	-69.3866652921646	104.497180968938	-70.6547753496958	99.7813113837498	-0.236079227976189	-13.8571041791988	
10265000	-0.0183532611745193	-21.0582886603809	-67.9400340786462	100.091120586809	-66.0055346069779	104.038356501062	-0.245768360768091	-14.1603515113963	
10460000	-0.0212900118518365	-21.5239315378122	-67.7053809073695	105.422151544298	-71.2679463008267	119.523958735121	-0.251859657121809	-14.5110625320803	
10655000	-0.0268323868997047	-21.9895551647876	-67.2997546977919	113.999567887468	-68.3467663008351	114.369334279372	-0.265154995558778	-14.8391222734293	
10850000	-0.0298613345112488	-22.4520682058044	-66.2930479678402	75.6521022891631	-67.8124226923122	72.3378082170947	-0.272463733178228	-15.1737383037166	
11045000	-0.0392634888603098	-22.915402092804	-67.5772922229318	75.5125070858728	-64.3305507197027	80.4860323720317	-0.286021907783991	-15.4974606429659	
11240000	-0.0416550403388808	-23.3659758593927	-64.8773969298816	58.8693368185733	-66.4361205708454	82.8614333040909	-0.294786361522391	-15.815338231889	
11435000	-0.0470829249325573	-23.8002213153971	-65.5790047168386	84.6663332380753	-64.1566115945347	72.5930462469778	-0.307232338276628	-16.1700090985645	
11630000	-0.0547334744366443	-24.2891969217107	-62.8287608255631	74.8091263959822	-67.3271051604369	66.8569726508991	-0.319169556633756	-16.4858164923889	
11825000	-0.0629744066418443	-24.7487242223319	-63.8186373084451	56.8831132023568	-64.3138649810572	70.8552176905769	-0.329890449854558	-16.7998924071253	
12020000	-0.069615458664501	-25.2480438443742	-67.3046767683714	65.8262396987065	-61.8240796939659	53.3947722657293	-0.34111926642962	-17.1507110538143	
12215000	-0.0703291323317443	-25.748384315838	-64.9714754145452	52.4664585825359	-62.5217942121754	72.4656631241083	-0.35395289793159	-17.5219674906976	
12410000	-0.0738535736684863	-26.2581358124671	-61.8069745965504	59.6841848187145	-65.0081473496054	64.854857532614	-0.371384102765256	-17.8700654917994	
12605000	-0.077013983953742	-26.7810251519423	-66.0894597002688	45.7247201635006	-62.5202970349226	34.0439546282839	-0.382687252400524	-18.2140571032722	
12800000	-0.0778600382165028	-27.2691809951138	-64.2333294171729	43.4363598789233	-63.8048596032063	38.3484945519597	-0.398790898474684	-18.529568635313	
12995000	-0.0775116819156183	-27.8072684769479	-64.5392046515898	49.113941561946	-63.6149790311453	20.4373613866112	-0.412079186878915	-18.8842302474332	
13190000	-0.0714257207708973	-28.3631533657456	-64.1947592725568	20.5455038952519	-63.0977284488662	27.0515800576459	-0.421783009533413	-19.2744257780707	
13385000	-0.0716882917654929	-28.8982331662726	-65.3297786580934	36.4566922093715	-62.1120564446285	25.031421231986	-0.432026771929558	-19.6476980280902	
13580000	-0.0713867429006941	-29.4358330178637	-61.7218104905393	24.5600849384093	-62.1923887801856	9.36261960196725	-0.442309433490851	-19.9824542994604	
13775000	-0.0710665964670146	-30.0095893645634	-63.732272103381	7.98545888570123	-63.3130853659377	15.4342768347178	-0.450250552371907	-20.3432063904129	
13970000	-0.0710555071848521	-30.575716000464	-62.1375283100999	16.1356624348451	-62.1353142364723	-19.4103742988961	-0.458901495043378	-20.6767935651788	
14165000	-0.0753692245837778	-31.173143642938	-65.5940010643242	3.96103557093364	-65.329940166161	9.4071648002037	-0.47092944433506	-21.0361986016272	
14360000	-0.0767613878133186	-31.7175444098211	-64.2587057431579	-11.7752181950599	-63.866073825837	-9.58466519913608	-0.488887007669564	-21.4130505540135	
14555000	-0.0801166471093668	-32.3349411410098	-61.6477995469035	2.68424761984844	-66.3955241626008	1.66886955607742	-0.506169833698538	-21.7627462617643	
14750000	-0.090885379915487	-32.9263984278329	-66.6028821137688	-42.2016087984625	-66.7477535224548	-20.4482446577574	-0.534372649668282	-22.1489625179065	
14945000	-0.104210280130166	-33.5059757562782	-66.1020151545964	-18.8454904353509	-66.1876267792567	-25.1866586998433	-0.558232639241271	-22.4750442805415	
15140000	-0.107416295562008	-34.1224920043339	-73.8960460342488	-112.200285815277	-68.2186845738419	-65.7649861006733	-0.594472433165566	-22.8110564092708	
15335000	-0.11852844445925	-34.7190434452079	-71.0771546715415	-61.527921791538	-72.5993238083403	-97.5517763128456	-0.619386390654005	-23.1441463447979	
15530000	-0.124712086099901	-35.3601054175666	-69.0520479677257	-171.718703069612	-65.7916245409084	144.90712067	-0.65560466395721	-23.4600367706982	
15725000	-0.132772055948778	-35.9581386334199	-84.6497180533936	56.3130592737965	-65.7653950938919	96.7369825920797	-0.688484583273892	-23.7357305367447	
15920000	-0.140767535516769	-36.6286972708435	-62.418437870036	91.1078380353404	-66.2940050408043	139.110654091717	-0.717595858399428	-23.984402184174	
16115000	-0.143823040171792	-37.2589235444683	-60.919449352039	61.6315034293838	-60.4027340376605	83.9471214559853	-0.736447735275153	-24.2489531632166	
16310000	-0.150491205002711	-37.8968704056572	-61.4203025415969	56.6037189351424	-62.2599084854432	72.526237390196	-0.759549865043139	-24.5005406064983	
16505000	-0.157127335167238	-38.6145914910072	-58.9613981024114	41.8996130795351	-57.3050111361409	41.8536328180292	-0.775574582260134	-24.8259294627555	
16700000	-0.15430424229339	-39.2872513177096	-59.4384589982457	43.5338932185667	-61.4114450526893	37.8839746938468	-0.787176238849796	-25.1690711841199	
16895000	-0.149571372944173	-39.9956030819791	-57.352363104042	31.5024063894731	-58.4916105787214	24.5245900736436	-0.802530265948635	-25.4760313360188	
17090000	-0.14878282725241	-40.7217690540288	-58.8442834360281	-0.204681886818166	-60.8102286015914	14.6337888174522	-0.819557609051676	-25.827224000292	
17285000	-0.148380593718359	-41.4412379130028	-62.4594646685382	5.95729128249329	-58.9783027858524	-1.84589225602554	-0.836399264172698	-26.0981011713716	
17480000	-0.140082860900189	-42.1484991167554	-62.4524480862294	-1.08395051287695	-60.6717804022691	6.88742214023385	-0.843066093357878	-26.405686082515	
17675000	-0.139301022490448	-42.9205298388521	-61.0251034759961	-6.99583732011936	-61.1820482418899	-19.5976565066792	-0.857405510979796	-26.7005169098506	
17870000	-0.131964260561107	-43.6779610718937	-64.7484473438884	-19.4676204086856	-62.6841130065599	6.32835236836764	-0.867224623592099	-27.0052151999181	
18065000	-0.12833553601356	-44.3803086170567	-63.5002826287957	-23.0350128074525	-65.1833804389387	-9.57345988659698	-0.872962594709527	-27.301162030409	
18260000	-0.12288038364866	-45.1476335870788	-65.1536215423286	-29.4117687107003	-65.197274959131	-26.1627601097206	-0.882276512144955	-27.6406759001201	
18455000	-0.119201170416758	-45.9452726079566	-65.6094678761203	-6.8062678309862	-64.1055520656295	-7.20162230246688	-0.889013459087933	-27.9407816694421	
18650000	-0.109458044787582	-46.6947950818801	-65.4853947199374	2.67161985014379	-65.4447120798379	-11.0079040959938	-0.901323868833493	-28.3075203157931	
18845000	-0.104456428163519	-47.4714511064718	-62.8912683162351	-12.1496187456244	-62.4787984274702	-20.9667666823604	-0.905863670991333	-28.6877775510607	
19040000	-0.0958933034095454	-48.2654902994442	-65.9079364962836	0.632113736278662	-62.9634975515789	-19.9139353221156	-0.915810560669089	-29.0487444066774	
19235000	-0.0957984317823098	-49.1024413164211	-66.1497122624082	-13.4039677032983	-66.6558111025562	-19.2115254559308	-0.924633952479364	-29.4007625117854	
19430000	-0.0831369933970401	-49.891085593592	-65.516348973513	-22.2939372778246	-66.373502575218	-20.6512488733699	-0.93666785757386	-29.7660028766417	
19625000	-0.0784043089881057	-50.7226389095019	-65.0039480450422	-21.40713888668	-63.7917120449971	-18.0085402230211	-0.935712414332125	-30.0980206889563	
19820000	-0.0846397683101376	-51.5974311307559	-65.5954104476627	-46.9000808800552	-65.7654762111444	-24.6615544044413	-0.948563683965157	-30.4719873120667	
20015000	-0.091771682607887	-52.4044362746883	-65.3403936852095	-12.7384342113488	-67.4459843495883	-29.3730569498685	-0.962475573579295	-30.7983424985576	
20210000	-0.0944068787720195	-53.3202208059232	-66.9524603533202	-18.6752421661961	-69.6452051303881	-33.3661871558579	-0.97395037586744	-31.1496746456983	
20405000	-0.104873768503821	-54.2243649525399	-65.460306948947	-17.451954995069	-65.4907320665933	-33.490588190149	-0.990658386136192	-31.5026974370727	
20600000	-0.117139366180952	-55.1228215507223	-64.6233488169519	-18.4124080826317	-66.852443204635	-10.4109763221492	-1.00457819401198	-31.8279697090844	
20795000	-0.132362809425227	-56.0595418976704	-64.8807233436023	-14.7476540840757	-67.0912086991522	-26.9143795337441	-1.02219143679555	-32.1673832214202	
20990000	-0.148438304886225	-57.0633970550175	-65.3870668578053	-23.2500713848965	-65.2886194962505	2.40163491033441	-1.03708303604524	-32.5216953988767	
21185000	-0.166996076658426	-58.0193460843126	-64.2900567260898	-25.331471604198	-65.1070229679056	-31.5684283164345	-1.05327887523067	-32.8536261340047	
21380000	-0.178778048822841	-59.0446063071321	-66.8862968439411	-32.4422567775846	-66.2249523246251	-16.2387853067811	-1.06813920117875	-33.217017281299	
21575000	-0.195953387781362	-60.0910457913909	-64.593480483845	-38.3975125060192	-63.7029018956992	-27.5249519794442	-1.08929863279342	-33.5842183317715	
21770000	-0.208396463440605	-61.1510540316068	-65.3454505959253	-26.5583646650964	-64.8342715837556	-46.0847060436475	-1.10323112585586	-33.9900802896421	
21965000	-0.220197864832568	-62.2069322405497	-64.9564631311044	-37.4009278739444	-65.5065475180016	-53.5299885577499	-1.11861477309365	-34.392531385657	
22160000	-0.22496275747964	-63.2805946365302	-64.5367687277337	-48.6698889640392	-65.3159025574563	-41.9091785601263	-1.1373507995378	-34.8661194008608	
22355000	-0.224833648964412	-64.4058887518802	-65.3567524339506	-66.2298002810615	-63.8625863341299	-42.8569912231977	-1.14833283716433	-35.2982023216166	
22550000	-0.230223387851874	-65.5206658317009	-63.6414976543811	-80.1390700498877	-69.0735226704235	-69.1205215944553	-1.16359399023844	-35.7956217540015	
22745000	-0.235306848185322	-66.6654963457309	-62.4968909785805	-87.3909080696097	-67.1532259250248	-110.080002650791	-1.18251274758	-36.2426367049762	
22940000	-0.239901037458287	-67.8891879294788	-66.1754094949178	-75.8720210894168	-66.0097410665904	-90.1117170258723	-1.20011373824298	-36.7509428784738	
23135000	-0.249441108435777	-69.1016909395166	-71.1733985038336	-99.6995336625219	-66.4206031361723	-121.33223356302	-1.21440569770236	-37.2351189012195	
23330000	-0.257796642692011	-70.3355445106605	-68.3197349279907	-106.62423763348	-64.2801946835328	-120.901564321168	-1.22946099139404	-37.7303764535196	
23525000	-0.265719230774453	-71.6220184904533	-67.7644805286582	-163.525648118219	-65.2916895135225	-154.069695484876	-1.24433409786045	-38.2341179035788	
23720000	-0.27359611718088	-72.966496997657	-68.8761222773922	-168.822104772259	-69.7442865507868	-163.184914916804	-1.25669072108632	-38.7017419288518	
23915000	-0.295650557630742	-74.2294123125594	-67.537490558309	155.664201345027	-63.7952897513458	-168.48691947152	-1.28002711172293	-39.2293944633615	
24110000	-0.313918474573958	-75.605161955619	-66.9312443111846	178.291995389496	-64.7822425906806	157.408116260538	-1.30246901488821	-39.6968575318748	
24305000	-0.338143111305823	-77.0122751651615	-65.6362562211187	122.119210089171	-64.956031724331	169.123678346111	-1.32455204692207	-40.1696706436182	
24500000	-0.350066506505501	-78.4392512763718	-65.1132934505984	158.606031804704	-61.7423013514247	120.600594921263	-1.35264702460697	-40.6850670216162	
24695000	-0.380747082105217	-79.9259158072328	-64.2119701787833	136.956672074881	-61.1063335377556	143.137971365275	-1.37992893402221	-41.2283506679147	
24890000	-0.397591224271481	-81.4578428315439	-64.0044890771088	140.320743472003	-63.3511656429022	155.722030991366	-1.40750827528542	-41.7764373376154	
25085000	-0.420900396035371	-82.9848430203524	-61.4222655942317	138.049286795045	-59.5355857820127	142.996652384825	-1.4346010863175	-42.338428200576	
25280000	-0.447847460611796	-84.5831085126328	-59.1991100971968	128.8434525227	-61.7049213382128	131.721600347767	-1.46664789734101	-42.8668117144675	
25475000	-0.475472648412599	-86.2400518181977	-59.5313732065755	131.243267621715	-59.7664886356638	119.898697547423	-1.49692993671241	-43.4223349271904	
25670000	-0.501087240830755	-87.9366277215012	-59.3861663376174	132.635641257007	-58.2354061360663	132.351909775269	-1.52813042338787	-44.04922514312	
25865000	-0.538935180217558	-89.6003308777985	-57.4502487331722	124.022517528909	-56.8085351575331	124.760305089438	-1.55944758354517	-44.5927509186523	
26060000	-0.571772344790925	-91.3914111340554	-55.6176527890904	121.804056965716	-55.8320408411075	116.158316070325	-1.59297416780402	-45.1983180327126	
26255000	-0.609463462246433	-93.1723801996169	-55.2898931260715	110.523076158436	-54.8343500599691	124.50047437958	-1.63178659999331	-45.8135397789607	
26450000	-0.64312849236137	-95.0085246662849	-54.3331527923176	119.126068393004	-53.3248566626385	114.570799783066	-1.67467662552588	-46.4311941156405	
26645000	-0.683366627333588	-96.8981236351796	-53.0892062589013	111.488948056318	-52.9075557730715	112.032137962837	-1.72094400626854	-47.071077224425	
26840000	-0.719840980015617	-98.8142662464816	-51.3920407656016	101.767806225712	-51.5161480655269	106.335204614592	-1.76272826677605	-47.7459029380065	
27035000	-0.761887146516269	-100.773199231887	-49.2562460979421	94.3921814653958	-50.0588672421086	94.7063975355684	-1.80810989427663	-48.4465221120539	
27230000	-0.791626134782424	-102.777973729435	-49.6106988115891	92.3932164723841	-49.7914917930874	85.6197255852688	-1.85142241630748	-49.1121052295212	
27425000	-0.832839805119302	-104.875930641866	-49.5247441352142	85.5302966405525	-49.0879032151755	84.0881269630333	-1.89639869697149	-49.830253283217	
27620000	-0.868539587584333	-106.959835009069	-48.7227270545522	79.9831898384845	-48.8630820971516	78.919758729131	-1.94843016199917	-50.5586640923181	
27815000	-0.902058275760599	-109.157791565829	-48.3692327323872	75.3605345203612	-48.4691677613407	71.3167421339758	-1.99400814235387	-51.3023928248435	
28010000	-0.936470690631344	-111.399217557504	-47.9880582518286	69.293094323036	-48.1663234514525	72.2589318971997	-2.04665049314538	-52.0651271755165	
28205000	-0.978678349147842	-113.659836045207	-47.6053748795614	65.1519127436068	-47.5153750711295	63.4100122634884	-2.09939035136274	-52.8017076377901	
28400000	-1.02592226539117	-116.037138186472	-47.5510277706368	60.5657377824726	-47.4454175562844	59.1076210958954	-2.15527947391799	-53.5903228195515	
28595000	-1.07625305382691	-118.413821793781	-46.6509555170704	56.7719022742546	-47.1787015679209	56.8064979665443	-2.22393748436258	-54.304985858379	
28790000	-1.14025494023723	-120.807968019546	-46.6667663328384	51.9498469410682	-46.8570534018806	51.2946447174193	-2.27252403120464	-55.1060919939398	
28985000	-1.1979320549721	-123.328312659764	-46.1665310874163	50.1811345863483	-46.3253133397104	50.7174017672422	-2.33391570178636	-55.908723751697	
29180000	-1.26828250102721	-125.883746781828	-45.9936318820035	46.5007721790686	-46.0696720451021	47.4356759514292	-2.39132034953988	-56.7101826221289	
29375000	-1.34636465171574	-128.52526944096	-45.6018955133663	42.9518834705001	-45.5932137342426	43.0562054280311	-2.46232081163577	-57.5031386464335	
