!Keysight Technologies N9917A: A.12.46
!Date: Thursday, 10 November 2022 22:44:37
!Timezone: (UTC) Coordinated Universal Time
!Model: N9917A
!Serial: MY56071016
!GPS Latitude: 
!GPS Longitude: 
!GPS TimeStamp: 0001-01-01 00:00:00Z
!GPS Seconds Since Last Read: 0
!CHECKSUM:1747683082
!Correction: S11(ON U)S21(ON U)S12(ON U)S22(ON U)
!S2P File: Measurements:S11,S21,S12,S22:
# Hz S DB R 50
5000000	-0.184327523648124	-8.18564019465862	-71.4640619075063	-166.944430794132	-69.7050653720042	8.2845687636975	-0.231299113791475	-5.22300052508173	
5195000	-0.19603012094736	-8.64970109457504	-90.8824539180066	-51.7989801779608	-78.5369018926476	-8.29270233809996	-0.238361945652211	-5.58585828522123	
5390000	-0.200635439256544	-9.11291543435791	-67.7022310461046	-118.054417477131	-67.9580754070749	-75.4366949735331	-0.250450750183772	-5.92756799400952	
5585000	-0.204122742021128	-9.58310364361844	-70.5307335493882	-177.02623739225	-66.3405613145028	-121.661170218227	-0.256041688638315	-6.27059111448696	
5780000	-0.20172352500356	-10.04298720381	-65.0637723644961	-132.917764240867	-74.8882534210772	-30.4825980540565	-0.253126291337464	-6.6445145425785	
5975000	-0.197798682023931	-10.5258978759443	-70.5828057379532	-86.1776545211159	-65.8164437217698	-104.790662105636	-0.262081867369189	-6.95245958086553	
6170000	-0.18914667623721	-11.0060696897661	-87.5505593892698	-156.521712346061	-79.2080124985502	-51.3020313638385	-0.260653951417321	-7.24792286846602	
6365000	-0.186001413578574	-11.4350552833383	-70.6962410905717	-148.448421040635	-76.498491120438	-121.80537652402	-0.25903351249191	-7.60495782981816	
6560000	-0.183142239558234	-11.9193181438947	-68.4092333749208	-127.10932724121	-79.0446652048481	-57.5274730395595	-0.256876938534248	-7.94241538301426	
6755000	-0.170721747748991	-12.3850485946081	-69.4361592154301	-98.0189661173058	-65.4204419431202	-120.494904927658	-0.256227635336907	-8.26473621763809	
6950000	-0.159228354995483	-12.833546982742	-65.3792871537259	-114.70282902583	-75.4377671719157	144.917964319644	-0.250792344943151	-8.53793492346631	
7145000	-0.151477488115063	-13.307495354561	-73.0095592996759	-162.534756376441	-66.2864501330365	-86.8952845375588	-0.245453095350502	-8.87145342672478	
7340000	-0.142818837116822	-13.7863803802938	-67.5294256034205	-105.650457373238	-62.3351073663118	-123.17472346599	-0.245941724547161	-9.22026968485753	
7535000	-0.129531233546386	-14.2302962847304	-68.3124926707789	-143.397748572041	-69.4597214372024	179.192157305284	-0.24293392169435	-9.50737634213788	
7730000	-0.12182847859676	-14.6760077673354	-66.753635245008	-161.033815807198	-67.5354502773227	-143.119745841339	-0.23896208901725	-9.81977051249737	
7925000	-0.110238170324998	-15.1312090193684	-66.9368788254236	-139.175757190403	-67.2931242876426	-133.282389950446	-0.239552887222165	-10.1539296756128	
8120000	-0.105651339429262	-15.5926187929198	-69.2978758449964	-153.116832755172	-68.3516933832905	-156.306764015824	-0.238760847768291	-10.4718921631064	
8315000	-0.0974067234555242	-16.062447989422	-74.2350608920676	-136.716667195218	-71.8635180645016	-137.759107448018	-0.23648402884992	-10.8002320375074	
8510000	-0.0865755686873189	-16.4906324666008	-78.0685230651109	-155.5233736748	-70.2627599742167	-174.134933636139	-0.235373796192334	-11.1396822008445	
8705000	-0.0792210945325083	-16.9508221778138	-67.9128326253901	-144.87148956955	-68.3518784032344	-103.20269267408	-0.233114222451757	-11.4158178085686	
8900000	-0.0753992223276561	-17.4111761532593	-70.9818867441959	-123.988719040896	-71.2892623807771	-115.197947436244	-0.225253879597039	-11.7522477939583	
9095000	-0.0664217030044891	-17.8977782578391	-66.6058131683579	-118.537178003033	-71.5213955943854	-135.060739990128	-0.226469510841934	-12.1209404425988	
9290000	-0.0579024610502845	-18.319611772681	-67.3142741679614	-118.954258727088	-66.5122163216648	-137.875962204174	-0.224177083813936	-12.4424727344145	
9485000	-0.0493849480278698	-18.7812911969391	-69.5930193821888	-119.788054528095	-65.0108828284805	-138.353136534088	-0.227272885971606	-12.77734226298	
9680000	-0.0443364082020381	-19.2525167537284	-66.6258682501816	-143.857632327463	-66.7143429414922	-154.834447723007	-0.226175734967934	-13.1337682632349	
9875000	-0.0431060152579685	-19.6975632998128	-65.0583667803327	-135.976414670605	-63.2867632476106	-138.653396942538	-0.227529134839073	-13.4497070927629	
10070000	-0.0388514616847182	-20.1450664945855	-65.2471067786647	-131.424884729047	-64.6239623180971	-125.279892407541	-0.23521781609465	-13.8104479456229	
10265000	-0.038246876704763	-20.6023371484392	-61.4985336098278	-139.53919431659	-63.4294730513799	-131.989577013334	-0.242723828313143	-14.146740549246	
10460000	-0.0392523608843199	-21.0902068681701	-62.5431111199824	-131.744680624909	-61.4402203751646	-129.087550455651	-0.250015300547074	-14.4874485890247	
10655000	-0.0432856883051995	-21.5640790483883	-62.04050388016	-132.34714140641	-61.288111105229	-148.988799296174	-0.263221459248931	-14.8041614307608	
10850000	-0.0491646913975755	-22.0157718581779	-61.9627736283635	-143.185023786079	-60.426866191919	-149.951348805967	-0.269985411862307	-15.1440310147768	
11045000	-0.0539539568633257	-22.4853433246106	-61.6998021282281	-158.555206951103	-63.7997232990443	-146.866707369908	-0.283003350487854	-15.4772730875007	
11240000	-0.0576586058921867	-22.9725430408323	-59.7451215533014	-157.73976698029	-61.3492787151898	-152.778747351096	-0.293562448357649	-15.7890762858069	
11435000	-0.0648995182177234	-23.3982038465438	-61.4235839353325	-163.979474004099	-60.1894768841772	-160.299756395912	-0.303175071914299	-16.1287245578505	
11630000	-0.0678358217572795	-23.8786695153083	-59.7222249186306	-157.930105478212	-59.4470859285744	-160.17599305604	-0.316251996649671	-16.4598095357923	
11825000	-0.076173774267341	-24.3514303312644	-60.0774469951816	-161.429893120754	-62.0178610715608	-169.859711225612	-0.32821364541546	-16.7953317995782	
12020000	-0.0884794615188373	-24.8463564465667	-60.3690925860621	-173.801474721718	-62.2497465897644	-173.795506300998	-0.341347851147403	-17.1387113513381	
12215000	-0.0851642664405571	-25.3463356479281	-59.9339504312029	-174.717774959794	-59.6257217292224	-176.431900095375	-0.352516463369965	-17.4994159732828	
12410000	-0.0908950607722148	-25.8626561945592	-58.5617073821891	174.209369700946	-61.2504948001062	-177.01082969205	-0.367979865092301	-17.8528315546079	
12605000	-0.0925371729496154	-26.3820475965584	-58.8027760008184	173.66974347906	-58.9453214153587	-173.524852748666	-0.380128806092723	-18.1785981631118	
12800000	-0.092972327482979	-26.8987194943278	-59.4758742404785	172.257539402324	-59.8208890246829	178.489364080104	-0.396264154930193	-18.5249663269575	
12995000	-0.0922675291648031	-27.4409410389946	-58.4941434573279	165.500209074197	-58.3149129998443	174.029074695124	-0.406094380233471	-18.8673744819819	
13190000	-0.0842774163810801	-27.9925122192008	-58.1123316156538	177.754056213866	-60.9778849412907	167.942419903016	-0.419157139637173	-19.2532197432923	
13385000	-0.0833125870896748	-28.5113087700209	-60.4086970253298	167.688502478396	-60.2013045168333	167.604369452333	-0.43050022824288	-19.614264692074	
13580000	-0.0824191529689271	-29.0704572456517	-59.2787748617954	163.670573610358	-58.8336183691357	163.258020471599	-0.439135318148979	-19.9653869414877	
13775000	-0.0815187542471734	-29.6227143933091	-59.318938529975	172.36479894197	-57.4041589899579	175.996590988252	-0.449617849111826	-20.3128352467477	
13970000	-0.0841713163709061	-30.2229307649628	-59.6703191107181	157.595882978176	-59.5819542822331	170.587455291687	-0.455112371405457	-20.6763797774046	
14165000	-0.0859989214261326	-30.7794033101706	-59.158903582565	173.731794576266	-59.658800451233	152.604526079467	-0.466524216416106	-21.0226182369857	
14360000	-0.089627955023084	-31.353436799456	-59.5650277353563	170.678121369425	-58.4971130783353	161.742801286047	-0.481332364852843	-21.3848163467863	
14555000	-0.0927209241335748	-31.9459608006688	-61.750266661921	-169.76643236696	-59.6963378874113	156.787118794792	-0.506030030931429	-21.7619456583947	
14750000	-0.106125402152746	-32.5307942040143	-58.3114892630076	171.26059300329	-57.7351546297594	161.551592723937	-0.52871962362183	-22.1170965059171	
14945000	-0.113158597156172	-33.1237985732805	-56.5209674021588	158.984570792607	-56.9828815641737	163.482312569462	-0.556781916692181	-22.4590136279727	
15140000	-0.117162718814559	-33.7305358805719	-56.7561754083471	160.442736471427	-58.1232303750689	163.205807290084	-0.586073380484129	-22.7807838091017	
15335000	-0.128946945463983	-34.3582749453546	-55.2703936264609	166.814342452949	-55.0837430842964	175.625693593978	-0.619404310761633	-23.1506412751428	
15530000	-0.133863177476568	-34.9858687665478	-53.2246049603061	168.107660180195	-54.6471233906723	162.347512263845	-0.65464828583596	-23.466169198064	
15725000	-0.136725712061351	-35.5703436315388	-52.477892518754	155.704517614433	-53.1462437463203	149.494541118167	-0.68643161010241	-23.7417870445687	
15920000	-0.155197632871708	-36.2271144689425	-51.0135793012211	144.404632580839	-52.5757897174637	152.764201900343	-0.71403941460438	-23.9647193789983	
16115000	-0.155753098425925	-36.8653704661403	-51.5890076080899	141.714949968551	-51.880213831822	133.76700056261	-0.73346537674734	-24.2267097170963	
16310000	-0.162153782492738	-37.5092301341519	-52.5136425967773	126.781406852543	-51.7727339748485	124.813270233807	-0.757648341646213	-24.5255930548883	
16505000	-0.167410455417739	-38.2108012239213	-52.418700596995	119.896098565986	-52.2924371548321	121.17742222596	-0.77169965956597	-24.8018833026186	
16700000	-0.166222223065856	-38.9005904137057	-53.2918045243166	114.926285589098	-53.0374103233199	113.945844506264	-0.783663704145179	-25.1414202617407	
16895000	-0.161538760563642	-39.5797320314765	-53.7784063063804	109.696965771249	-53.5310263034088	108.596379639559	-0.800010992444016	-25.4728777951827	
17090000	-0.156728060600582	-40.3054301493611	-53.7719281733178	98.8989591927113	-54.2512651367545	102.363738583278	-0.809634876357219	-25.8014503106331	
17285000	-0.154233143922863	-41.0088040213417	-55.3492145098866	101.649267394364	-55.0903702891545	103.145493299775	-0.836287997929482	-26.0683221733141	
17480000	-0.147065702675128	-41.7124320178314	-53.7977111686155	103.263094334765	-56.4732810048119	103.669493237622	-0.840438083889679	-26.3989176002747	
17675000	-0.146757875231701	-42.4568864837953	-54.2756456863538	101.740138124368	-54.4636187662915	99.338486794068	-0.851222461642084	-26.6858389188195	
17870000	-0.1362178027296	-43.217218845156	-54.6149360669692	100.5400927259	-54.5117210547902	100.663866498387	-0.858726494826624	-26.9860063230253	
18065000	-0.134238573029382	-43.9386909013538	-54.1925647171235	99.4433608294706	-54.0873118260062	107.41090516987	-0.87165816425172	-27.278022279964	
18260000	-0.128944986396755	-44.7133509930013	-53.543179604463	97.0164032129183	-53.883332445223	98.0556421581172	-0.878722416955988	-27.6221917389587	
18455000	-0.11937334968852	-45.4769504066563	-54.254453056177	90.8732218494517	-53.0522694526198	95.1046216436554	-0.883044272211943	-27.9212866992338	
18650000	-0.111673222387358	-46.2315858073047	-53.0058472066626	94.7126718999306	-52.8454685268205	92.7644673975444	-0.896321718605062	-28.2873438961189	
18845000	-0.105608941435498	-47.0099561159967	-53.5541578756661	91.1316833552239	-53.8195695354537	86.9387243365487	-0.901453742635531	-28.6604983064295	
19040000	-0.101077022595158	-47.797373082463	-53.0705953792153	86.5621279111222	-53.3636403948653	87.2439702278785	-0.913941350108054	-29.000182814671	
19235000	-0.0961423804532815	-48.6257984978057	-52.8483240922834	84.8891476360051	-53.0228914062251	87.2219510065303	-0.922202039180739	-29.3610841453609	
19430000	-0.0863350252869377	-49.395356650744	-52.6399215761733	78.2531646530643	-53.1445371378635	78.4820452530661	-0.932816885552767	-29.7273203461936	
19625000	-0.0827622328912467	-50.2339323346879	-52.9605103197939	79.0453880960155	-53.1652732118878	78.7863181729701	-0.934848434571043	-30.0814945418204	
19820000	-0.0852150742020108	-51.0782771136874	-52.7824789658925	76.7418343757627	-52.9849403485955	73.3535405874445	-0.946124256547915	-30.4366243532079	
20015000	-0.0922745803025275	-51.9007324626945	-52.8528598934031	73.1764910328971	-53.2093241702318	73.6298624797532	-0.959671277590258	-30.7740697540231	
20210000	-0.0927099507171105	-52.7856432923849	-52.6536902644427	70.4452479359288	-52.8902653715886	66.5468819477306	-0.97055493650472	-31.1128183995963	
20405000	-0.0995053129566131	-53.6946322180924	-52.8683942834384	68.9551192303343	-52.8281360383923	66.2987306096773	-0.984445996420716	-31.4604737379719	
20600000	-0.113650593037997	-54.5782130098501	-53.4021904425833	64.2892906550331	-52.8478604790006	66.3785764645339	-1.00323816170473	-31.79392502204	
20795000	-0.126577302449181	-55.5156233589267	-52.7963823701021	61.4364319746886	-53.0032013017537	58.5276802574752	-1.01753617521863	-32.123146069865	
20990000	-0.143702077914244	-56.5051232571119	-53.5645233390203	57.3617170484198	-53.0154615463189	58.3343579987991	-1.03149233437156	-32.4797908018901	
21185000	-0.160544067642747	-57.4503724857545	-53.1026639493993	53.2471685073363	-53.4412366347239	56.2065757173052	-1.0490912784174	-32.8238873955686	
21380000	-0.172529170910222	-58.462790666657	-53.2149968015385	56.9014332754584	-53.8572659676359	56.2122816858237	-1.06689914980098	-33.1843131137305	
21575000	-0.185968962438006	-59.502438939037	-54.1659178701081	49.4881171307352	-54.3569987607732	51.3232808802226	-1.08370505195481	-33.5668213248595	
21770000	-0.200612544866886	-60.5527463884392	-53.9762528542785	52.3163449250636	-53.9181104896663	49.3922934391155	-1.09964078485561	-33.9516978168254	
21965000	-0.209976890200896	-61.5905804430112	-53.3653948540431	51.9259336798172	-54.1565372539496	51.8852824642764	-1.11574205178822	-34.3742737459778	
22160000	-0.214569961021807	-62.6424657283208	-54.3632413607703	53.571687532147	-54.7082720856529	55.1628544704717	-1.13591477945868	-34.8319648895835	
22355000	-0.212754317370227	-63.7754404723176	-53.5929253326869	60.2284583407702	-53.7684257547355	51.1803300282434	-1.14825109534444	-35.2789458384602	
22550000	-0.213649516745381	-64.87771360683	-53.5184399939367	46.6320691039129	-54.846339063379	56.4167071273349	-1.16105224047279	-35.7631107155413	
22745000	-0.217219083695748	-65.966983506907	-53.0243203420654	45.3185328539295	-53.2838005556173	49.7995778064012	-1.17655717375531	-36.222310448978	
22940000	-0.223289748662735	-67.1687812538009	-54.3975538888853	50.8348785482811	-52.9746534719244	51.2908875255326	-1.19915551517846	-36.7282299697801	
23135000	-0.228244148776057	-68.3957943884307	-53.5861922390096	51.356654836216	-53.2158366098549	48.8034981622527	-1.21126535083707	-37.207020548545	
23330000	-0.235171636637883	-69.5966663790763	-52.9267840245278	41.9901353563772	-53.1762930285072	53.1314433850405	-1.22821107576345	-37.6774097763411	
23525000	-0.241358615954556	-70.8560157325707	-52.8834711360435	42.9390060217588	-52.085373457401	50.2786087872086	-1.24192411338862	-38.2004590811248	
23720000	-0.248056513921545	-72.1802769489121	-52.8224745237099	44.3832263197671	-52.4331766419734	49.0882403546421	-1.25710571721752	-38.6882630275808	
23915000	-0.268772392173374	-73.4148183983656	-52.7380843128524	45.2566186150429	-51.8607529673498	40.0988439662209	-1.27587746730871	-39.1766905670356	
24110000	-0.279963911700143	-74.7702314038748	-52.2745191615523	47.0075709090254	-52.0413943080953	36.6835348405027	-1.29928933857665	-39.6565292622943	
24305000	-0.300916807900091	-76.1558084707186	-51.8215585173033	44.2853495967148	-52.6616997609348	37.8422226206016	-1.32195080603952	-40.1595075473297	
24500000	-0.314953838767195	-77.5629619389267	-52.7211903408972	41.8905141571919	-52.2602564331497	39.8629420069501	-1.35075448875321	-40.6583426458833	
24695000	-0.337228145359381	-78.9927277363514	-52.22839726563	44.0091659817458	-51.9924803252787	38.0942464742534	-1.37978059586819	-41.1868808093216	
24890000	-0.354015136826554	-80.4995062591235	-52.4836608473674	37.5257318523035	-51.5073016441521	39.137710057187	-1.40299314077917	-41.7328639859948	
25085000	-0.372731258011845	-82.0158265570228	-51.6775510036396	39.9518120227141	-52.1239331735218	41.061789442865	-1.43342668818374	-42.3011114724034	
25280000	-0.397181993348434	-83.5578231342556	-51.5020305749031	36.378647607195	-51.5143878306946	40.2593907279745	-1.46714276336572	-42.8367212217239	
25475000	-0.420359025153695	-85.1717390730134	-50.5891360609235	39.0550187378424	-50.473115347666	30.5566011522559	-1.49117025009668	-43.3941251131918	
25670000	-0.443097239969595	-86.8237281125543	-51.2074330184031	38.2699667524264	-51.5167004098646	41.5446629522137	-1.52651641443718	-44.008216288111	
25865000	-0.477484015158516	-88.4550439485782	-50.4920072713578	35.4150190959079	-49.8725561995139	42.2972007692752	-1.55744855825081	-44.5845257519603	
26060000	-0.503634958204811	-90.1966861733263	-49.9828309948958	36.0218750392106	-50.1341913663514	38.2561010261253	-1.59360049692066	-45.1865056783823	
26255000	-0.533896988937289	-91.9493758829615	-49.8918322405381	35.469394993876	-50.2195772301839	45.1073526258706	-1.63063318139284	-45.7961596990547	
26450000	-0.563614970582148	-93.7109546765724	-49.1556414236878	32.815664872119	-48.5954791441004	37.7145894882824	-1.67323547528886	-46.3810336579023	
26645000	-0.593542737367672	-95.5470198622505	-48.944476396491	37.3534513539678	-48.6230650994856	34.0079964774678	-1.71854829136458	-47.0458850333175	
26840000	-0.621625092732829	-97.4321198281564	-48.0737082622957	34.0899360810997	-47.6454505820881	35.8078251742158	-1.7626456646957	-47.7041220066009	
27035000	-0.656496503492066	-99.3450154333075	-47.0509181334749	31.2239747453393	-47.7536827208573	36.3341114529417	-1.80691950713414	-48.3833114042469	
27230000	-0.680862675971134	-101.362034003871	-46.9433733735174	28.7420751356738	-46.8131596670583	29.6619493592043	-1.8476576203915	-49.050986805621	
27425000	-0.713919688693613	-103.406442262024	-46.1011654842846	26.8830409859111	-46.0707515206041	28.5922588550544	-1.89510034584671	-49.7992056239066	
27620000	-0.743445966805416	-105.47597614261	-45.6372848506432	25.416009846089	-45.6203208012257	23.8737342112483	-1.94372480593165	-50.5223390929174	
27815000	-0.770189970501312	-107.640184121118	-45.2986928837439	21.3927159855038	-44.8816283086965	20.5638994331275	-1.9925826290725	-51.2480770660676	
28010000	-0.799463027402268	-109.853106913842	-44.5547280977251	20.1881386444886	-44.8155447821279	17.3683106157638	-2.04094438731358	-52.0261341529958	
28205000	-0.83260879426708	-112.075723473781	-44.2911766602892	15.2291359025896	-44.3351244501361	14.950693183933	-2.10144471256278	-52.7517986105789	
28400000	-0.873315881377856	-114.415378095712	-43.8730128683559	13.3129633311817	-43.8665778865676	12.1741466281364	-2.15474894716577	-53.5455364330488	
28595000	-0.917428327290754	-116.744370895554	-43.3235062415426	8.21053438815698	-43.4752252822088	9.50841502172272	-2.22243372055428	-54.2487961379779	
28790000	-0.971476497320316	-119.119428288734	-42.8862872278391	5.28178010597795	-43.0477378225953	4.65594859581278	-2.27269923318486	-55.0699614600658	
28985000	-1.02166597053198	-121.589265770649	-42.8162427419628	2.14610100005269	-42.700563932131	2.57115579397884	-2.33256755676843	-55.853572805492	
29180000	-1.08137674763777	-124.105638703303	-42.2486099676427	-1.72866057956773	-42.2055118684883	-1.25200182759516	-2.39095592883031	-56.7050489639867	
29375000	-1.15231617479348	-126.707082303155	-41.7783606423955	-4.25188372126014	-41.7066779742623	-4.33320585345784	-2.46072228342948	-57.4620504674653	
