!Keysight Technologies N9917A: A.12.46
!Date: Thursday, 10 November 2022 22:49:01
!Timezone: (UTC) Coordinated Universal Time
!Model: N9917A
!Serial: MY56071016
!GPS Latitude: 
!GPS Longitude: 
!GPS TimeStamp: 0001-01-01 00:00:00Z
!GPS Seconds Since Last Read: 0
!CHECKSUM:1294326159
!Correction: S11(ON U)S21(ON U)S12(ON U)S22(ON U)
!S2P File: Measurements:S11,S21,S12,S22:
# Hz S DB R 50
5000000	-0.184558994441804	-8.02978259788043	-70.6618159915421	63.286003452158	-75.7782575823901	-136.537963524593	-0.209026275807196	-6.93820710272815	
5195000	-0.19566788502984	-8.52539737840489	-70.9553644076934	71.8358549506479	-85.9133213205281	-7.61670180063895	-0.221579230706517	-7.251425699562	
5390000	-0.199613548402851	-8.98213423130964	-70.4311277277329	90.3576873081006	-71.1855761058651	79.7157520470766	-0.242603211998632	-7.54430198183367	
5585000	-0.202296472867773	-9.44796643130574	-72.7825892669282	61.1826573626131	-67.8634436142149	37.4811716682274	-0.259320974935037	-7.79137181179715	
5780000	-0.203459056795038	-9.90568362125456	-68.8793788778651	61.1399969785844	-70.4244253802054	48.5897383341523	-0.264348258591236	-8.10768378536252	
5975000	-0.195150482270156	-10.3794048842946	-71.2266872440806	-8.14914307014375	-69.7171008823288	73.9818326065591	-0.284485833930468	-8.32723538150129	
6170000	-0.191344004148512	-10.8586413994055	-68.89180033416	-38.081976006113	-73.1905014280048	47.8933051928158	-0.286661066362312	-8.59227903197291	
6365000	-0.184015143064824	-11.2877948717188	-70.4433167236847	6.4965649682281	-73.9120328538533	70.4792452443814	-0.293364076367551	-8.86668379742551	
6560000	-0.180415742796212	-11.7701343710259	-83.2735553356777	30.4194697087593	-75.6848528802624	125.533469716615	-0.303340506968703	-9.13089119467378	
6755000	-0.167427127899297	-12.2373421555161	-69.7192459265322	71.538672802824	-74.1597287824234	-2.34068405817417	-0.308470435802846	-9.38528874690722	
6950000	-0.153895196072514	-12.703641093223	-67.9564437680567	87.918124539658	-65.9964004194257	-17.3701953123168	-0.313120692908989	-9.63274472887064	
7145000	-0.147110292496539	-13.1502083125666	-63.1151281651609	40.9758204559957	-70.5273641788372	33.233353633945	-0.318104519344514	-9.88020683682413	
7340000	-0.134856108627308	-13.6411682944301	-74.1993719195065	91.1551060197059	-77.8789117462085	-17.409932697312	-0.322935241321955	-10.1646923452579	
7535000	-0.124251298337729	-14.1056905029691	-68.9500555841641	21.8297099994515	-72.1120974917737	84.5043374682165	-0.329755873891453	-10.3902750686383	
7730000	-0.115530559777699	-14.5257764470602	-84.2276756837064	-150.916817720901	-71.2511906671778	72.5670569906907	-0.332624339848261	-10.6830144689156	
7925000	-0.10829869172679	-15.0022230197478	-76.5787779451224	15.711210886075	-72.2182079101546	62.3884879641978	-0.339762775450046	-10.9450894776766	
8120000	-0.0982447199594273	-15.4596436246252	-70.603172856745	64.5360397620368	-72.4104091258445	34.8553154886612	-0.343999014623412	-11.2039305326204	
8315000	-0.0892782131031818	-15.9259489720991	-69.1108153878864	22.5298604643715	-70.8514450526752	41.3897746157089	-0.353542233090007	-11.4690908868138	
8510000	-0.0784729931790164	-16.3722666806844	-77.4594848841271	100.63819084886	-78.0507014429413	154.065400178093	-0.361054633736538	-11.7406008680938	
8705000	-0.0742373016064085	-16.8200679043598	-76.0816363409432	16.1635094170581	-76.266281988183	14.7056869202891	-0.367313100077157	-12.0040564481646	
8900000	-0.0666814469158558	-17.2913580387467	-71.9908427443544	23.7938799938442	-69.3824144118762	69.9165491447499	-0.371750101590961	-12.2635969561462	
9095000	-0.0576767550193033	-17.7812441747663	-75.7941852942218	3.99915082515181	-69.2231117920918	85.1041585703637	-0.379299657300234	-12.583560049736	
9290000	-0.0535809249432023	-18.2095494443338	-71.712339725486	78.3289036965365	-71.0013069193764	77.8209222066906	-0.385073939020741	-12.8370801649502	
9485000	-0.0435817887310695	-18.6748022102614	-73.5463227243394	51.8657358614884	-67.9949569715521	49.1919844743069	-0.399553383839077	-13.1151072196439	
9680000	-0.0377011114758887	-19.1152101528063	-65.739366374824	48.9559369656958	-71.8846768772807	58.1485263792726	-0.410709886973687	-13.3985733153272	
9875000	-0.0376734277522036	-19.5928300734352	-68.3677426124919	42.6721584863199	-70.9732422874886	63.437350446543	-0.423851805397482	-13.6400949459898	
10070000	-0.0380151442032844	-20.0461737837842	-74.3401470761059	40.3313134652817	-67.9554466005827	58.7398749078078	-0.441499196253963	-13.9263864938455	
10265000	-0.0333562855189316	-20.5348417283435	-66.822890893107	58.0923198608044	-68.3188727270557	46.2136946523013	-0.460026877498949	-14.1674968285649	
10460000	-0.0343784203319453	-21.0073079962023	-69.5053184347576	30.9099693558931	-64.47613767332	29.0843991308479	-0.473542835801939	-14.4176702944087	
10655000	-0.0379537605830306	-21.469892054404	-66.1955316467239	35.9734107047608	-65.1797869782677	30.8120392489107	-0.497384161074822	-14.662275699822	
10850000	-0.0412351948396695	-21.9480465702586	-65.7020792029009	26.8188982492157	-65.7817521487426	22.9836867749811	-0.514644974603211	-14.9176913354474	
11045000	-0.0458636028539515	-22.4094341097104	-67.1364671820538	17.8626744681055	-66.7709778981394	41.2823448778882	-0.536326916402135	-15.1500160351785	
11240000	-0.0541300865144976	-22.877202728859	-64.8873908667379	8.06267395894183	-64.1809106702019	14.7465512292459	-0.554456303465819	-15.4117041594626	
11435000	-0.0558847862250328	-23.3193454056354	-66.3320849018874	9.39021526646452	-63.7333267884049	-6.64928830156879	-0.574114772390844	-15.6539103256546	
11630000	-0.0629518981440322	-23.8129800273413	-64.7930025050919	-0.475345417967087	-64.9577333756018	-5.67117193935178	-0.593099450333785	-15.8959196038438	
11825000	-0.0734903440815703	-24.2972424200014	-62.8843565932364	-1.43241142953901	-65.7423361553613	15.8459804597173	-0.611249086871987	-16.1453678583004	
12020000	-0.0801450575964641	-24.7963526653533	-64.0841751592302	-4.67865441337524	-66.7846454969493	-14.3559105123342	-0.634867478693251	-16.3979018427733	
12215000	-0.0809574401952837	-25.2874905259745	-62.0748631643902	0.884647484851044	-62.3183334488705	-7.35842319736723	-0.655863061673229	-16.6844321721773	
12410000	-0.0844042368268103	-25.8218111981096	-65.5820311977334	1.73229164761724	-63.6912163687492	-34.5285724369478	-0.678439193963597	-16.9421709231385	
12605000	-0.0894339149770227	-26.3304785844856	-62.8422469665271	-15.5416219209166	-63.9445066604192	-6.27753656029257	-0.698714681012675	-17.1613388002898	
12800000	-0.0843014041598867	-26.858798341038	-63.6160699848645	-23.1741107312097	-63.5581746863193	-46.742822428309	-0.717510732983054	-17.3993979795454	
12995000	-0.0842177912607749	-27.4053835872014	-65.4644743533384	-22.1240237769842	-67.8731484302326	-27.1378901322609	-0.741173190629238	-17.6573317573473	
13190000	-0.0801918826463562	-27.959083374066	-63.2291000356117	-31.6432023400841	-67.3929986281891	-66.7184939893554	-0.762612161999307	-17.9155558647325	
13385000	-0.0787862796075106	-28.4694344571128	-63.8782443835929	-29.1074324637572	-63.6782505540727	-64.107312741525	-0.787234810441665	-18.1453217642517	
13580000	-0.0773154041859958	-29.0391302304758	-60.3975162194695	-42.4996638148583	-63.210714910509	-34.7646522154574	-0.805301334917458	-18.3715316604295	
13775000	-0.0767168902447871	-29.5985915917909	-65.6365141702964	-44.0445181993129	-63.2230040058226	-42.5527419719015	-0.82267385016922	-18.5824829279574	
13970000	-0.0769550413827084	-30.1840547738118	-63.5666931122791	-48.2222588602252	-68.3325266375549	-22.8046496696628	-0.842872177859134	-18.8345183883568	
14165000	-0.0807103801464768	-30.7684190441733	-61.5515194659698	-21.2712497952186	-65.3857530476751	-58.9136892482521	-0.856118317500851	-19.0567595756755	
14360000	-0.084962994936713	-31.3207251350597	-64.1601550214074	-42.3299332558967	-69.0413879091039	-33.9756172741135	-0.879968654655907	-19.2920011372176	
14555000	-0.0866961005336076	-31.9115594632168	-68.1143609069028	-45.3518485995332	-66.5509279806087	-23.9120404770378	-0.904074102879192	-19.5463931124662	
14750000	-0.0958517939513462	-32.5162280315481	-72.6733168728516	-113.921886156759	-66.5021186572882	-59.4688589960384	-0.928146352269162	-19.7467537280888	
14945000	-0.108910869611564	-33.1155839284675	-67.9252186748162	-64.1914066659068	-61.8641327793776	-38.0092085015631	-0.96172819783455	-19.9595556847316	
15140000	-0.109225540053292	-33.6988436538775	-63.8985200736063	-35.7020741015119	-62.5246367410907	-37.1897344280447	-0.991954118050019	-20.1124187391899	
15335000	-0.123396775266374	-34.3418704571782	-61.3600106882417	-42.7116658232835	-60.9406114676362	-32.1445335279103	-1.02078525359461	-20.3195726672247	
15530000	-0.126925065984777	-34.946107554499	-57.2317542443064	-47.8389351052649	-58.8751159066038	-45.6225648956442	-1.05239080579021	-20.4644034213839	
15725000	-0.133658066162186	-35.5359642017351	-55.0439083858745	-67.8715585616881	-55.1072755893336	-54.5996582344502	-1.07678627687472	-20.5680161287116	
15920000	-0.144858680739742	-36.1951760554978	-54.4090206460803	-73.7524948893573	-56.5778135654121	-69.5071602975575	-1.08744579114493	-20.6915710907251	
16115000	-0.148172513615368	-36.8189765584397	-56.1715066092194	-90.3601226551813	-56.2695309367537	-95.4491472949061	-1.10300654781009	-20.8705793941207	
16310000	-0.152747595123054	-37.454846918337	-56.1515808990303	-91.9551639996109	-55.4234321044207	-98.4188534564131	-1.11985496630121	-21.0694520457516	
16505000	-0.159523042239957	-38.1604480132804	-56.6511912577466	-110.438096204361	-55.9356874596271	-110.938601026552	-1.13325213641832	-21.3093757371468	
16700000	-0.158489829241475	-38.8072431851478	-56.2943917156054	-124.154632453808	-56.5953691904345	-122.924525144893	-1.14819067273325	-21.5687020441724	
16895000	-0.151782456397167	-39.5292241132832	-56.1709977946918	-126.621877724262	-56.8555047466247	-122.706447234779	-1.1654069387011	-21.7931975517421	
17090000	-0.149936972749648	-40.2379157938972	-58.1179603471207	-135.748124737561	-57.9185577096503	-143.49740831531	-1.17237050995189	-21.9984823290814	
17285000	-0.146800752924283	-40.9398698120397	-57.9407713172016	-134.500731595493	-58.7933468335269	-135.728559451018	-1.1894988846291	-22.1664114093149	
17480000	-0.14101700962415	-41.6533062345064	-57.6189117902437	-158.855593513531	-56.9161235563897	-136.392702505807	-1.18598892250405	-22.4214566827307	
17675000	-0.138904815002643	-42.3857946048805	-57.0993183219469	-140.240924062872	-57.6895451083388	-144.042016923564	-1.18771528462864	-22.6408532984672	
17870000	-0.130491494908072	-43.1690690260797	-56.6013743981798	-151.705914642042	-56.403966283334	-149.862544933078	-1.1966619785604	-22.8990185710213	
18065000	-0.122744977977181	-43.8790445863946	-56.9489608224129	-150.074978508642	-57.8662613196218	-142.947257325476	-1.19900786318798	-23.1541261114135	
18260000	-0.119379997848283	-44.6381563311123	-55.9266439882841	-154.416684801898	-57.2626436269919	-149.300702638442	-1.20770976234846	-23.4604532032066	
18455000	-0.111484964016825	-45.4205845498215	-56.3006768214865	-165.561270244986	-57.2177867058099	-154.663132327976	-1.21651662504489	-23.6841691373554	
18650000	-0.106227056464724	-46.1643245849576	-55.6719901935004	-160.636299263378	-56.596995541839	-162.392696675427	-1.22843567652906	-23.98304583481	
18845000	-0.0947746192338002	-46.949292782462	-56.3596079433417	-163.965762390153	-55.6946355237513	-161.170599278426	-1.23933828887242	-24.2696562884836	
19040000	-0.0931993277306122	-47.7232738250537	-55.0363640045651	-168.208030077446	-56.9735785536397	-166.872635537847	-1.25112325714129	-24.5769916263296	
19235000	-0.0863067590222966	-48.5503125506209	-55.7971195348546	-166.24753127022	-55.7953554088724	-170.569786479559	-1.26218830323175	-24.8622695004198	
19430000	-0.0782968589438586	-49.3320289100662	-54.9839892511052	-178.997164197593	-55.436738484315	-177.460774630283	-1.27666246010715	-25.1741583520584	
19625000	-0.0716373843845727	-50.1686860413997	-55.2710507558715	178.758351447914	-55.4000024021859	175.213323730206	-1.28468821131283	-25.4269314272927	
19820000	-0.0772875849116887	-51.0251401535251	-54.2991474616678	175.664709750742	-54.1223897837331	175.692385916355	-1.29643038047279	-25.7202200860069	
20015000	-0.0808219209855486	-51.839459535925	-54.4014794442049	172.659045551335	-54.374756255901	169.724508990142	-1.3105322881723	-26.0062275005691	
20210000	-0.0848871360119044	-52.7371744604565	-54.5268089395561	165.333616323864	-54.216106779305	167.886511091502	-1.32736306345946	-26.2803743605337	
20405000	-0.0928949612587723	-53.6511632704902	-54.0161145028312	159.353938593007	-53.7659772581834	165.530597663947	-1.34243086364844	-26.5695129524506	
20600000	-0.10720823396383	-54.5440562990853	-53.4032934173463	159.497521378807	-53.0762928333944	159.25654035085	-1.36397822508791	-26.8511573128616	
20795000	-0.120387081334038	-55.4735918982706	-53.1979393408689	155.651088423543	-52.8016110932292	159.502840857747	-1.38394002975722	-27.1113523308693	
20990000	-0.136314447170865	-56.4627858200213	-52.2807402483011	148.441336281796	-52.8072994440411	148.862161811522	-1.40458147021848	-27.4184368624484	
21185000	-0.153046275821533	-57.4101785299065	-52.5369539278216	145.222400050662	-52.4046635694857	146.970173250905	-1.43050614254291	-27.7199104079971	
21380000	-0.163261755922316	-58.4334519959095	-51.7505629952093	142.544959320363	-52.3218605517904	141.054656341165	-1.45482218799845	-28.0273786762789	
21575000	-0.181133195718982	-59.4626565747101	-51.9404662506547	138.550438268793	-52.4797262765556	135.069940008325	-1.48599183842493	-28.3395844778111	
21770000	-0.192393107118591	-60.5125114268326	-52.302087523348	134.088417896812	-52.0747733270807	132.849457935679	-1.51380271646213	-28.6545809882409	
21965000	-0.204704735574036	-61.5750079005766	-51.9628299543763	131.083919060878	-52.0400184488026	131.060782976144	-1.54635737569628	-28.9652380146702	
22160000	-0.206998887371396	-62.6204678499902	-52.53637227799	130.622343999603	-52.0260710878241	126.968713404378	-1.57913520384687	-29.3223187408634	
22355000	-0.207221887158683	-63.7583110691088	-51.1867625937641	128.538496307581	-51.9154167511803	122.589470991933	-1.60938871913976	-29.6565222070292	
22550000	-0.210241690697028	-64.8319371453257	-51.0126528963986	123.21891060589	-51.5595458631626	124.297494350548	-1.64359256613099	-30.0032840200728	
22745000	-0.213865927651007	-65.9642420407164	-51.6265381887844	120.956889811877	-51.0769418796501	119.228935832421	-1.6755053856347	-30.3134425408613	
22940000	-0.219599773790425	-67.1717902071099	-50.6926607567706	118.873824025864	-50.5616074923743	119.66946518051	-1.70979309572317	-30.6637347825844	
23135000	-0.222166441195455	-68.3856044129517	-50.3146309923471	117.62483985275	-50.4868718861346	118.157403693461	-1.74012375395725	-30.9711936368753	
23330000	-0.232228041311499	-69.5721701256839	-49.9713751068808	112.020021423167	-51.1305999122676	119.549252461915	-1.76979794080728	-31.2997547337389	
23525000	-0.237773692915902	-70.8441302045923	-49.3588833391557	109.230013745421	-49.8333785152803	103.642768759885	-1.80153715459069	-31.6169996553466	
23720000	-0.243392236795149	-72.164369994817	-48.8301883565599	109.811839311338	-48.961336295063	110.360405525186	-1.8325856234627	-31.9134619835347	
23915000	-0.261545047065076	-73.3998640914205	-49.1474299093531	103.334689360796	-48.9811410333689	103.100173721863	-1.86201150826335	-32.2380964032793	
24110000	-0.27576446792336	-74.773682397421	-48.6104371940338	100.635066706319	-48.2726090180804	99.1082277734818	-1.8988432773041	-32.542581272053	
24305000	-0.296346873361056	-76.1705369678095	-48.6206148188044	103.147987784245	-48.5153736542653	100.759693200364	-1.9332938523479	-32.852179537063	
24500000	-0.309099419477549	-77.5286040281053	-48.3023400033903	94.2576928315577	-47.5800536743679	95.0673073774992	-1.97431296341887	-33.1891146179421	
24695000	-0.332953351368079	-78.9727606541735	-47.4344169321572	91.6484109470487	-48.0257054119413	95.04159209789	-2.01337162158382	-33.5392024780084	
24890000	-0.348421895057811	-80.4732354785963	-47.4575688325415	87.8270716184081	-47.3992188196286	87.6595666738832	-2.05276858818719	-33.896075306572	
25085000	-0.368270919697299	-81.9965264054948	-46.6897285271838	81.7565069310409	-47.0993590141732	85.2875687854699	-2.09829455367194	-34.2698348501223	
25280000	-0.392767466268732	-83.5368858519956	-46.4925550675468	76.7026148251331	-46.6848665333483	80.3081451903121	-2.14565711737456	-34.6227682164614	
25475000	-0.411997183229871	-85.1423903359395	-46.2898246395151	79.4844546008095	-46.8824263316957	78.2044987784247	-2.1905048615505	-34.9606108537451	
25670000	-0.432449460296398	-86.8060624246618	-46.3451998003001	74.0674847443501	-46.4737305276953	76.6743870377213	-2.23841323793263	-35.3548063160614	
25865000	-0.470980493644168	-88.4226563099716	-45.9775727099321	69.6856146591223	-46.8798975355012	70.8693119909002	-2.29029594079839	-35.6565517647215	
26060000	-0.495480054123805	-90.1439221549048	-45.9984763810502	68.1026208335655	-46.3235947140397	67.8184882442374	-2.34063794959894	-35.9900002051123	
26255000	-0.525235559324265	-91.8977314367026	-46.2699115595064	63.617069552627	-45.3059349968519	68.5890204506236	-2.39832633072315	-36.3499571522116	
26450000	-0.55657511385007	-93.6991327628762	-45.9537441484816	63.8264975892653	-45.4503899177906	61.2693789460072	-2.45374972717337	-36.6620959768354	
26645000	-0.588378021656734	-95.5057885193701	-45.7091880538335	60.4380266898515	-45.1658457891332	57.8485704536902	-2.5144026685114	-37.0408334409803	
26840000	-0.614840952476722	-97.4006275765864	-45.5946788876712	55.6115887007768	-45.0583961441597	55.8395139774994	-2.57809818458869	-37.3679760121591	
27035000	-0.64320746377781	-99.3146353971114	-45.5052368151063	55.0386329736163	-44.9581901592414	57.5452762237775	-2.6323711512021	-37.7380071315787	
27230000	-0.674248735409238	-101.30411972683	-45.073056131835	54.1974822087402	-44.6907150239191	50.8170768762751	-2.69807606600037	-38.0674838726262	
27425000	-0.708342899353749	-103.376503776527	-44.9006731951209	50.7303125733188	-45.031714274238	49.6110736234946	-2.75945017378094	-38.3822782605299	
27620000	-0.735884146450788	-105.409873001267	-44.4134218715152	45.2453024567487	-44.8408644028421	45.6102009842543	-2.82468384929426	-38.7759714871073	
27815000	-0.766656776710642	-107.607422102879	-44.404077103683	43.9775791701527	-44.2743894998149	44.194416935879	-2.88909189405529	-39.1297475601137	
28010000	-0.792175431753371	-109.816647864507	-43.9968486074955	43.3212177501277	-43.9932084452746	41.5507694129061	-2.95654952865426	-39.5006941550918	
28205000	-0.828024291105948	-112.032043376022	-43.9021740128779	38.0539411123271	-43.7862641463008	38.9318359351228	-3.01894440594857	-39.8241864414767	
28400000	-0.867255723596608	-114.374625160958	-43.4547441399924	36.4851410072189	-43.6212271077021	36.1091724229915	-3.08695418542827	-40.1839601686545	
28595000	-0.910707388351309	-116.703353833516	-43.4611824401461	34.3804892505614	-43.3716231290955	34.1854869955882	-3.16063247368859	-40.4586548534899	
28790000	-0.968265542429099	-119.087412566734	-42.9306094894876	31.8005329156955	-43.0667895756941	31.3609027298798	-3.22244207477558	-40.790202296563	
28985000	-1.01637017550095	-121.550636284543	-42.7634477459128	27.355310603141	-42.8420844694316	26.5984930175085	-3.29864516967526	-41.0700748135928	
29180000	-1.07884508571714	-124.085682129425	-42.4030565663321	24.9795750616025	-42.6971905882832	26.4930726946713	-3.36036072131215	-41.3948535347052	
29375000	-1.15082569905646	-126.668502735333	-42.2646815314348	21.8388493482053	-42.3384331626154	22.395713168088	-3.43838923920238	-41.6222264145971	
