!Keysight Technologies N9917A: A.12.46
!Date: Friday, 11 November 2022 20:00:22
!Timezone: (UTC) Coordinated Universal Time
!Model: N9917A
!Serial: MY56071016
!GPS Latitude: 
!GPS Longitude: 
!GPS TimeStamp: 0001-01-01 00:00:00Z
!GPS Seconds Since Last Read: 0
!CHECKSUM:1163544065
!Correction: S11(ON U)S21(ON U)S12(ON U)S22(ON U)
!S2P File: Measurements:S11,S21,S12,S22:
# Hz S DB R 50
5000000	-0.234107067595525	-9.17597993228112	-70.7399772694615	101.491836786026	-72.5054475380527	-125.060861677866	-0.139727877822837	-9.9951720076472	
5195000	-0.24681472242394	-9.63819732183487	-69.3920991029274	-85.6708528709368	-70.1989816371962	-54.1041758762098	-0.15226704794247	-10.4429994791614	
5390000	-0.257002866778867	-10.0799036818859	-81.6055576276342	-42.6480318829265	-75.2696277323265	169.869135308846	-0.170708511883666	-10.8465514006429	
5585000	-0.266590212184869	-10.5374068532397	-77.6177140422556	109.739222662648	-64.2846022368759	-64.8332140974336	-0.168781514007845	-11.2602785507401	
5780000	-0.266133532868338	-11.0217477753932	-71.8493232379573	-135.986488827528	-69.7444636886916	-141.624756505022	-0.168241501871133	-11.6789943690973	
5975000	-0.260155286264657	-11.4940827058451	-67.3410394948548	-116.096910628032	-79.7178852597341	-106.649817166849	-0.173847355258327	-12.1057605104481	
6170000	-0.251910411378347	-11.9481509259294	-71.4261552037574	-119.578061198479	-72.7461757730091	-168.261284822088	-0.168628436406336	-12.555655099795	
6365000	-0.250881975898894	-12.4119538621893	-76.3076953790855	-147.909694646715	-68.7559555373373	165.181276589319	-0.164057155814488	-12.965910031403	
6560000	-0.240510241557753	-12.8551289691501	-75.0282246290662	166.300014588528	-75.6344022118092	132.761303939122	-0.166271871390215	-13.4022772930951	
6755000	-0.236593986228642	-13.3122098990762	-72.9501068482114	-29.9883037739372	-67.0731421920666	-162.234947594937	-0.163094223376452	-13.8233268301409	
6950000	-0.221900543127671	-13.7711192273951	-90.6234789312956	94.7819004217002	-73.658156499494	-157.082688109847	-0.161591206465089	-14.215391864388	
7145000	-0.207921941262062	-14.232893578366	-73.2413526914737	175.115768325723	-69.6082481062606	-117.497967842983	-0.15107744548081	-14.6611561893778	
7340000	-0.193609144296726	-14.6534004973533	-69.8271658527823	-123.56430971755	-78.0350951555617	151.598694767666	-0.142947300587272	-15.0649676641474	
7535000	-0.176742542713635	-15.0993130067469	-79.2154304017461	-146.067652347691	-76.9769504725494	-90.0800398395853	-0.133753154477198	-15.5014385881928	
7730000	-0.169713922882221	-15.5603230966758	-73.3487232404284	-92.5063343678352	-74.409469734424	-117.128760722366	-0.12613502937137	-15.9034466111879	
7925000	-0.156306812002047	-16.0016748657875	-76.8309757742547	-28.0296660191297	-77.3675529710123	-73.9520829417703	-0.121436683795261	-16.3623313501872	
8120000	-0.145122641539278	-16.448922290516	-80.3028360215677	-19.8221425500263	-67.4723963141667	-114.22557240267	-0.114233908512403	-16.7674386486389	
8315000	-0.131781460599287	-16.864237334759	-69.8932796249929	-99.5167238209132	-74.2490028183186	-158.129894378979	-0.109809675377145	-17.1982001519164	
8510000	-0.114220459818838	-17.316398891098	-81.4375478670045	-4.38572556685716	-68.5466529449718	-137.95278963785	-0.10331070926981	-17.6070808422444	
8705000	-0.105169193632395	-17.7337326043014	-73.4874640999592	-126.328490129611	-70.0501679869546	-132.208343684257	-0.0936023109309582	-18.065751595481	
8900000	-0.0996363431477442	-18.175921540161	-74.1188457413143	-95.5473213834843	-84.5189914029483	-29.4966951148411	-0.086017407353937	-18.4733536735695	
9095000	-0.0884092974863859	-18.6157423505232	-74.8520364743485	-110.055688940743	-70.6532651815019	-127.403779284886	-0.0780013156532612	-18.9261355967298	
9290000	-0.0785818569546286	-19.0329823517069	-71.427519305257	-124.396341626253	-72.3613670417231	-108.796146453991	-0.0723836840243318	-19.338350495453	
9485000	-0.0711338497000325	-19.4629340077287	-71.8289492790089	-118.708729579114	-73.10401013258	-104.073222891728	-0.0696108137553203	-19.7865348776115	
9680000	-0.0624878268481148	-19.8770923718493	-72.3218333639291	-105.595156171209	-72.5097773159216	-124.599443039676	-0.059761220391082	-20.1973703590221	
9875000	-0.058190468109019	-20.2661540406196	-68.8864522123943	-123.768260063549	-70.6519869928516	-113.955836900026	-0.0611532793191721	-20.6074018490677	
10070000	-0.053177556655245	-20.7158869764012	-70.8293384741157	-138.832143376908	-74.2611510001414	-118.131356837396	-0.0577424934202156	-21.0521634703949	
10265000	-0.0573604413147608	-21.1226572906511	-73.0652192888718	-148.808828868728	-73.7200683876318	-131.846711124714	-0.056316993729774	-21.4782041529067	
10460000	-0.0608225504922654	-21.5731069351924	-69.6907403039607	-140.400721029725	-68.8561784845137	-132.736808891003	-0.0580382827533531	-21.9053073578354	
10655000	-0.0638490231694509	-22.0074090788317	-71.4081402701642	-140.611274870897	-71.7296692947233	-145.361259187251	-0.0626879349578537	-22.3254034762736	
10850000	-0.0705853880595497	-22.4504864211871	-66.3550740416499	-124.956643530562	-67.0786962472326	-125.506002492692	-0.0645993887199799	-22.7582810746156	
11045000	-0.077528430359003	-22.89154842153	-68.2622222736363	-127.460475384103	-69.2274239979182	-128.730974495707	-0.0707318761464726	-23.1969884057587	
11240000	-0.0867142796777818	-23.2976911653732	-67.9649282293776	-126.70082645635	-68.3098753509848	-124.71154804865	-0.0720592550099028	-23.6173096132929	
11435000	-0.0967665117542941	-23.7290634490077	-68.0916698531543	-142.738713978269	-68.6637110939547	-140.654116796694	-0.0804913402635503	-24.0566529467222	
11630000	-0.110500146635238	-24.1851655966399	-66.1086940780999	-143.336374975179	-69.8470829032913	-140.607615048305	-0.0920691166760639	-24.5102293167891	
11825000	-0.118123555299495	-24.6201176805313	-70.1910106134699	-132.101901675444	-71.7262675720489	-146.260614979215	-0.100402998713285	-24.9305263803029	
12020000	-0.133172544397073	-25.0901257823779	-66.8142477813853	-149.043465215629	-68.1891024800325	-99.9576728066205	-0.10960097794102	-25.4142010378903	
12215000	-0.141168100121367	-25.5968974218445	-67.1086147340979	-131.131419330638	-66.6312624999635	-127.952178081702	-0.116054436771906	-25.8877705330783	
12410000	-0.150235581443584	-26.0620416262703	-64.9064475892463	-128.569986020744	-69.5512471795761	-178.576340737506	-0.118112351239531	-26.3702415619084	
12605000	-0.16084882535445	-26.5550346834621	-65.776650407517	-161.499997906117	-62.749097959239	-149.810727470247	-0.117208529246432	-26.8552336638426	
12800000	-0.168737342278482	-27.0914316286788	-66.6916025524881	-148.122047624272	-64.3111418042173	-140.663597846948	-0.117087457887324	-27.3512980049063	
12995000	-0.171497654435582	-27.5867275885392	-63.7964764149135	-153.36647786283	-67.5778131308578	-132.164291418114	-0.11811698575409	-27.8480474154127	
13190000	-0.180133085707577	-28.1218035013799	-65.7934206732675	-160.419485663939	-66.6982315792244	-137.0980964944	-0.118701706554527	-28.3341940023218	
13385000	-0.184028769903421	-28.675686348559	-70.2057540883423	-165.117831198225	-69.2826259015705	-119.586457725175	-0.117537973640545	-28.8601073687385	
13580000	-0.189010390695737	-29.2359420080995	-62.424391292251	-149.632670949768	-67.6270859406638	-130.683498658583	-0.112816989040994	-29.3581759740594	
13775000	-0.195626946629786	-29.7670394262238	-64.6806902704476	-156.882882536734	-67.9361151663134	-156.022075855396	-0.112077056975762	-29.8875404538375	
13970000	-0.197464407903174	-30.3298303767881	-66.1309502506807	178.061140820326	-66.4415175998109	-136.685227443271	-0.110516005074538	-30.4664178306261	
14165000	-0.205891853056324	-30.9344037499746	-61.3528794232393	-158.210081693831	-61.6471319421054	-143.579857564814	-0.118049057829623	-30.9883139507698	
14360000	-0.216525086677843	-31.5107198678273	-63.74963766667	179.879180836426	-63.6769634181002	-153.550849678901	-0.12194822742579	-31.5343917824122	
14555000	-0.223901224423712	-32.0956565510833	-62.2598524118238	-170.951987136104	-62.0911931902	-165.637322355029	-0.129649172065731	-32.0964023013933	
14750000	-0.2348806234001	-32.6986030279822	-63.1990739248141	-179.798770493855	-64.8655079076031	-168.677631595927	-0.139553419973979	-32.6853317773202	
14945000	-0.246592237215905	-33.2927477237068	-68.4936922651812	173.730490343396	-60.5061642933295	-159.360320286421	-0.154625065968844	-33.2362080295547	
15140000	-0.255150011071984	-33.9038865138983	-66.1291590551121	175.146652051511	-61.5901981954612	-159.311646776636	-0.162578663101186	-33.8032385550462	
15335000	-0.264661008744252	-34.546642306489	-63.549330745042	174.71446615062	-62.7477880347212	-171.569822496303	-0.168810801351978	-34.3880134210534	
15530000	-0.269186289319938	-35.1555217268429	-63.0700380043515	-168.898770866545	-61.4175834917401	-166.268520241513	-0.174799820730147	-35.0051181591087	
15725000	-0.273196051362356	-35.7902364322814	-61.7512534447783	-172.470493276315	-60.9811134774719	-143.533883721652	-0.183844450406202	-35.5813954033094	
15920000	-0.278594646181441	-36.4040647142679	-60.2667384206608	-157.253399220585	-62.4945204097142	-167.060894389788	-0.18976701573156	-36.1872875117498	
16115000	-0.286813834304356	-37.0780180140706	-61.4543023434465	177.99489470538	-61.9198192442592	-172.984053513514	-0.195022963274377	-36.8225225413919	
16310000	-0.292374534389175	-37.7077137380837	-60.7231042023947	173.637145874977	-61.0073551898137	-169.132695568556	-0.199719650000001	-37.4889607155934	
16505000	-0.292173731024405	-38.3992902384151	-61.8893779919925	-158.027714638991	-58.4398352029656	176.491343890849	-0.20210679964801	-38.1598168141557	
16700000	-0.293396118100943	-39.0778470981994	-58.69312784875	177.805629391832	-60.9054325234738	159.93690658724	-0.198586716713057	-38.8281617581746	
16895000	-0.290846937317886	-39.7726741288151	-59.2814844164257	-176.037961546078	-60.2534479972654	175.736794969009	-0.204608831517099	-39.5150666949144	
17090000	-0.287412051860889	-40.4668475294593	-59.016024136266	162.998775355284	-57.7280145421985	-178.417556677599	-0.209501088577777	-40.1817978060517	
17285000	-0.281545731995621	-41.1678933724709	-58.8464267634883	174.827402627629	-58.3453293882798	150.703348467673	-0.201892856831001	-40.8506943285062	
17480000	-0.26982015519009	-41.8527548758518	-57.0470024474143	169.227004274212	-58.3191210296348	-179.976719777606	-0.206961856021861	-41.5672829825298	
17675000	-0.264086101988802	-42.6084260238476	-57.2508869733898	173.475140589372	-58.2568444095323	161.482549275702	-0.210444539382185	-42.2601547422501	
17870000	-0.254625604578187	-43.3227435084444	-57.3508668128565	166.353867153323	-58.957976261157	159.621265835685	-0.208242099115094	-42.9798403091599	
18065000	-0.249088384891505	-44.0366059676386	-57.7359682421697	158.564848236676	-57.3666839367455	164.28558507826	-0.208741414832917	-43.6813746912274	
18260000	-0.23994088096754	-44.7901623875657	-57.2372821326167	151.311192138514	-59.4225758154887	160.195826968694	-0.20264254284297	-44.3971271552002	
18455000	-0.229357887777771	-45.5301222086885	-56.8453885088292	155.434735895986	-57.470992537757	153.424869935762	-0.197282418092981	-45.1532370596599	
18650000	-0.224479296966854	-46.2615522955172	-56.6923957755247	151.443624513163	-56.2467014689	154.093058530314	-0.192752816938332	-45.9360270546936	
18845000	-0.209905461894542	-47.0074556118615	-55.8828514871652	152.132581879263	-56.1346103070235	156.039354506879	-0.182253672792141	-46.6995013363552	
19040000	-0.205142690992351	-47.7656546575383	-55.4336090048956	153.324422636333	-56.1125479546914	150.292295091755	-0.183057750894467	-47.461462636877	
19235000	-0.202229075514473	-48.5488798976594	-55.661810440442	148.779201464672	-55.665639270833	149.070773992632	-0.17086798748609	-48.2456482761541	
19430000	-0.193892650394946	-49.2973200589184	-55.9277778401356	147.952118114562	-55.7004535160954	146.165836291572	-0.164583647326514	-49.0708785060263	
19625000	-0.194862825457991	-50.0411943791781	-55.033178873199	143.615530673063	-54.9417643510865	139.515320773525	-0.159566042648273	-49.8805717896298	
19820000	-0.191243900751813	-50.8664041809991	-55.021142631322	139.404094762525	-54.2865732086511	145.474582313354	-0.155378373794587	-50.6603173619333	
20015000	-0.194745693563087	-51.6689691025788	-53.8490056881767	137.865304370051	-53.5627181240934	135.769340475738	-0.152922362564238	-51.4900902956373	
20210000	-0.206438205479153	-52.5151588068668	-53.3829917869619	137.633380260421	-53.6880219121017	134.56403830612	-0.154419104757816	-52.3500425782231	
20405000	-0.220558469096294	-53.3670428177493	-53.4646717165236	133.952487840729	-54.0355599368631	135.757062561235	-0.166969894671048	-53.2019836681694	
20600000	-0.233850960848058	-54.2261146920922	-53.358302891907	126.008099080355	-52.7950372083021	130.465062365555	-0.17103310563429	-54.0747832819539	
20795000	-0.254537281287485	-55.1055608830353	-52.8528912887815	129.777167212343	-53.2028590126598	128.76691731831	-0.182123097135531	-54.981189333009	
20990000	-0.269849454569395	-56.0414007009629	-52.1893457812514	128.07764712248	-52.5672451677506	127.055613620166	-0.191630595747547	-55.8749256496433	
21185000	-0.300266624588896	-56.961570868442	-51.6368202090882	123.632979962291	-52.1723170480159	124.410081186934	-0.205224838475619	-56.832998975064	
21380000	-0.320616272252946	-57.9230499055392	-52.1197411737439	121.401451487702	-51.4944365380608	121.493942077575	-0.222750424406184	-57.7649018167059	
21575000	-0.34791318856889	-58.8933732440104	-51.1530385228317	119.066978453486	-51.5959796883377	118.94111996265	-0.24326216662328	-58.7119062366892	
21770000	-0.364212633088849	-59.86790037066	-51.237697355761	117.404627882317	-51.5654338613114	116.5943705525	-0.258484487647996	-59.7208902859556	
21965000	-0.386745296921575	-60.9054289824075	-50.6130910072699	112.62701566652	-50.8127290992	112.14575371445	-0.275974636609335	-60.759815538821	
22160000	-0.399233561567832	-61.9346172413515	-50.4931182962996	110.020993202904	-50.0360583927977	111.825270323019	-0.289303914582077	-61.825206502809	
22355000	-0.413416028457251	-62.9963092581977	-49.7431860981572	103.806680886735	-50.2637036487598	111.10088091871	-0.297812389104364	-62.896500625589	
22550000	-0.429022949191596	-64.0621581589461	-49.5048429217576	102.552367929963	-49.1288076496575	100.651699191795	-0.302708377210243	-64.000464540558	
22745000	-0.449483291727114	-65.202757420356	-49.4996358707852	101.244367871654	-49.0350295822813	101.153560250311	-0.301940012550234	-65.1206043286393	
22940000	-0.464180861803039	-66.355505337288	-48.8538159927331	98.0632194392994	-49.131825258089	94.7917658588682	-0.308486705647609	-66.2598337906198	
23135000	-0.484972716712713	-67.4929084673561	-48.3061294358222	91.7816526046055	-48.5574274661465	95.7144189359982	-0.311421864455602	-67.4192388750199	
23330000	-0.506920748888716	-68.6987711432609	-48.9341261356117	93.4974332926181	-48.5655441078769	92.9106341572603	-0.319553731745454	-68.5668897245128	
23525000	-0.523598815006037	-69.9328475784612	-48.0929991591912	88.8221845742193	-47.9907612120611	88.3442736875664	-0.320198701763666	-69.7726970806901	
23720000	-0.542721214794834	-71.2230309187104	-47.591227182537	87.1458357041964	-47.6863972495974	86.2982582631243	-0.33092666407262	-70.9882332452899	
23915000	-0.573160675091658	-72.4893469720811	-47.5287240726123	82.9055977885531	-47.660738914964	82.0342242380917	-0.348963734444219	-72.2857035835465	
24110000	-0.593573179327457	-73.7789205924055	-46.8162033720639	82.1166214038095	-47.2514924405582	80.8069148728757	-0.368481928731987	-73.592385355447	
24305000	-0.62289059498259	-75.1650173149198	-46.5146640735056	78.3672910748706	-47.1322306284481	78.7132439783652	-0.386600670500882	-74.9254688381547	
24500000	-0.65091402240449	-76.5687813503699	-45.7426757780845	74.2606994276281	-46.3063466532863	74.8885082265717	-0.407798298565924	-76.2857997152579	
24695000	-0.666708682927401	-77.9473715754151	-45.8586619826668	73.7373146119814	-45.7878859815537	70.4674351903576	-0.424449795174787	-77.6273750173418	
24890000	-0.701305798386426	-79.4174509953404	-45.2883955333489	71.9451106431233	-45.3865281394582	67.6894116744627	-0.44862734905991	-79.0615220451591	
25085000	-0.727921254151554	-80.9370208035977	-44.7074858647162	65.4543349664168	-45.2890751717263	67.8114393742988	-0.472919503974737	-80.512796278598	
25280000	-0.760518458970387	-82.502365135784	-44.6884328228276	64.1810667861358	-44.3943590201102	61.2553835423861	-0.498050870657946	-82.0308390232942	
25475000	-0.784121440460525	-84.0546191339831	-44.1152664944649	61.0689479460576	-44.1942772395461	61.3459963063176	-0.527084111614733	-83.5996528503331	
25670000	-0.820114451230669	-85.6485963623639	-43.8435388494485	57.1428792883692	-43.6709999770408	55.4646933827609	-0.548186711419474	-85.1718787802836	
25865000	-0.851491393377539	-87.2833853242033	-43.4304538486519	53.6047193305142	-43.4652768577479	54.0939121338848	-0.579382030544815	-86.8171586856291	
26060000	-0.892100258003548	-88.9648239849716	-43.1522932753382	47.3009079058485	-42.8243685975364	49.2344496382538	-0.602313848795632	-88.4823551782731	
26255000	-0.930450627496391	-90.7238063700127	-42.8490516174226	44.8044062606886	-42.6925064371221	46.1742887771304	-0.639768066977592	-90.1876922021132	
26450000	-0.960656886634273	-92.4206104921986	-42.1516897995778	41.8689373161311	-42.3381758685844	42.2171622604207	-0.672527944659719	-91.9481170435009	
26645000	-0.999936965282881	-94.24860360673	-42.1951089518356	38.4329427178912	-41.8528808490982	38.7107133406632	-0.700995061212951	-93.7516562588523	
26840000	-1.03245988778187	-96.0914405831833	-41.6432336713365	34.4590997577566	-41.6707635781056	34.5809712668462	-0.744551597157989	-95.6137259208973	
27035000	-1.07326619209876	-97.981408387859	-41.2052998173031	31.9669637651014	-41.2523223189865	30.8730479013161	-0.776861431482683	-97.5011941492331	
27230000	-1.11331577132147	-99.9145387529089	-41.0286391919994	27.0449829857536	-41.1717561781919	26.8119954153196	-0.814899123683876	-99.4181793780907	
27425000	-1.15144127590039	-101.918185336867	-40.6871449638598	23.6673158801688	-40.7178192826728	23.1927488305298	-0.854874006782847	-101.389975543132	
27620000	-1.19511243450253	-103.921065543228	-40.2024790265548	19.381060025853	-40.3660036567724	19.4353144621423	-0.899476851579405	-103.435164929455	
27815000	-1.23571980401024	-106.015159355306	-39.91080993159	15.5638810638064	-39.9402080381085	15.9934668546477	-0.934823673482291	-105.4934141312	
28010000	-1.28529035400464	-108.158046481818	-39.6881476299451	11.1851612233833	-39.6277272146479	10.9779247271219	-0.979187372380043	-107.672609042252	
28205000	-1.33048798223659	-110.327315678774	-39.3449488788656	6.94574686455958	-39.2966018140302	7.04934023545664	-1.02166394659582	-109.843601324802	
28400000	-1.37744869443071	-112.548355692762	-39.0194991524589	2.41090108857495	-39.0499951847471	2.83921652431861	-1.07076994716416	-112.074845427991	
28595000	-1.44259899532875	-114.801610623283	-38.7891308219224	-0.438617909414823	-38.7596839632532	-1.79045984016618	-1.11756370457395	-114.358176812221	
28790000	-1.50390557000258	-117.142639796202	-38.5334742472955	-4.90903686369914	-38.4895062003356	-5.38078649540223	-1.16962869272211	-116.703029795759	
28985000	-1.58436436656452	-119.556617859336	-38.1570007331685	-9.3827793665082	-38.2737853422734	-9.51604221937707	-1.22254528352859	-119.093131194928	
29180000	-1.66667712880234	-121.966903966565	-37.9419159710961	-12.5848943798305	-37.9373811734235	-12.615504104669	-1.28427668127217	-121.55245335829	
29375000	-1.75685341946364	-124.444736654318	-37.6626208662025	-16.7653762624105	-37.6781137855752	-16.7747105518292	-1.35879030352517	-124.076145085735	
