!Keysight Technologies N9917A: A.12.46
!Date: Friday, 11 November 2022 20:13:26
!Timezone: (UTC) Coordinated Universal Time
!Model: N9917A
!Serial: MY56071016
!GPS Latitude: 
!GPS Longitude: 
!GPS TimeStamp: 0001-01-01 00:00:00Z
!GPS Seconds Since Last Read: 0
!CHECKSUM:1402909269
!Correction: S11(ON U)S21(ON U)S12(ON U)S22(ON U)
!S2P File: Measurements:S11,S21,S12,S22:
# Hz S DB R 50
5000000	-0.348816045921526	-8.04591342084875	-72.2169667644708	-89.4748519247104	-76.4898336615091	49.340607526165	-0.212657554773437	-9.66802883402176	
5195000	-0.361720465984322	-8.53975427730932	-78.8960785295124	-32.7141646015167	-81.2437422066198	-72.6702706956042	-0.227536612321604	-10.1400890885795	
5390000	-0.366664977801285	-9.05807710703969	-78.1884617247419	12.2795686874937	-79.6635779801777	24.4149525760409	-0.236905890969378	-10.5740179509152	
5585000	-0.373445078282814	-9.55017346203739	-73.7296900634748	-156.871765111095	-70.8044699751334	-15.8697827590626	-0.2374769041511	-11.023343915527	
5780000	-0.371649772357754	-10.0667169394686	-73.9111319238603	-63.9671183583933	-76.6164019030605	-106.786030998662	-0.23615859323565	-11.4490952552441	
5975000	-0.359551673850229	-10.5299749123496	-71.5739807542971	-159.755166411886	-73.0655604808117	-87.0231096260349	-0.239579299484495	-11.8796852729543	
6170000	-0.350607180579539	-11.0612935362632	-73.6314768018324	-68.5619763098593	-68.3686565925812	102.359843586818	-0.231142616505867	-12.3487310393648	
6365000	-0.344260070052593	-11.5293016978523	-65.457273707823	-131.493987391999	-72.4465165300316	-9.2722551091888	-0.227628862758098	-12.7974730571834	
6560000	-0.327193146104908	-12.0278867308637	-68.8351190155591	0.491981901204237	-84.0498968944357	-102.84748411189	-0.222976353961782	-13.2527003492247	
6755000	-0.318612007964413	-12.5131459068346	-79.8517612374813	134.718223055757	-70.1508349487301	160.403665313632	-0.218996536849487	-13.6923257461307	
6950000	-0.297060062453946	-12.9984222913555	-79.987729068966	-138.68128958321	-74.832002634313	28.1532792006091	-0.212162507997125	-14.0960645936512	
7145000	-0.27740946449792	-13.462526113068	-84.8891851943514	55.6323826305007	-85.2921783008499	81.4595270547258	-0.198245173464528	-14.5629457839102	
7340000	-0.257114280434668	-13.9333851908858	-80.3703256997163	152.783536661256	-66.407892987972	-134.582090742693	-0.187359289061021	-15.0065427983693	
7535000	-0.231940380123705	-14.389452977756	-71.5917901495722	163.314925419024	-74.952075606449	-75.3570137732828	-0.1677956875131	-15.4187756054839	
7730000	-0.216391924344937	-14.8533576384349	-75.3774402373591	-90.5237418951398	-71.2583269765991	-81.6550373646488	-0.156492908951987	-15.8530084461773	
7925000	-0.196334831397635	-15.298181617294	-78.3155735698183	-97.1508713798904	-69.796350636405	-103.615177942277	-0.145412272598751	-16.2828493499874	
8120000	-0.180250633071771	-15.7663530735188	-79.690231461695	-57.4795698553117	-73.5481241183994	-121.165921131615	-0.135239986696881	-16.7153736058674	
8315000	-0.15947807120793	-16.1797126741254	-78.075699613209	114.260085025199	-74.6712037852341	-94.4627446140413	-0.121748959380955	-17.1505705584402	
8510000	-0.136952136555988	-16.6381376947045	-75.8108880319795	-90.5288713464933	-81.5386676202678	-130.744789067823	-0.110428571432278	-17.5556044915884	
8705000	-0.119645947431506	-17.0445768655074	-72.9702746983114	-56.0298624158387	-87.4471705051597	71.5907724018571	-0.0967176034898838	-17.9989348213633	
8900000	-0.10931504490763	-17.5069885484404	-74.6346932894231	-127.258135918762	-73.7932753651075	-3.39811276669816	-0.0833397113079283	-18.4130701090256	
9095000	-0.0938961940016407	-17.9451305208746	-83.710391524817	5.89338646756582	-83.3196414336676	-150.45851637456	-0.0747919199132014	-18.8650660729877	
9290000	-0.0779825929466815	-18.3690058696562	-75.6942959974449	-40.0892823882329	-77.9010109681695	-52.7911277854858	-0.0666210532472275	-19.2704928369921	
9485000	-0.0664292297215837	-18.7742949642011	-84.3688532776939	80.7022762787084	-71.1321708299745	-86.7593206263805	-0.0559924230707005	-19.7085638177191	
9680000	-0.0553153119015218	-19.1688798570711	-81.2828957306868	-106.387415242853	-76.940107444399	-139.37403188976	-0.0475877594286951	-20.0891060581114	
9875000	-0.0476858239362057	-19.5605620795476	-79.0123769331817	-69.0017333003381	-77.4776147676714	-96.4841771980125	-0.0455146949210761	-20.4892692888235	
10070000	-0.0376389421399144	-19.9888534100042	-78.9806585301157	-138.078922252088	-77.2877581370274	-174.122667080177	-0.0386057738053469	-20.9418694893045	
10265000	-0.0407056554907021	-20.3889003683606	-78.3570014789637	-69.9278192542682	-73.0353468165618	-95.8685872806613	-0.0369072133938522	-21.3405937607764	
10460000	-0.0397353420573755	-20.818608817978	-72.1620948645785	-111.92453690676	-76.7617191773641	-90.3250773467412	-0.0386384282434382	-21.7393219419391	
10655000	-0.0459063183238686	-21.2598936545459	-71.8079342166624	-128.09065146066	-73.8425041012005	-89.1412722297684	-0.0403368294118209	-22.1610388751162	
10850000	-0.0504561712281359	-21.6872901600039	-77.4037008666485	-94.1830471841683	-70.6211519013084	-77.2541024374265	-0.0464653600917655	-22.5918453012287	
11045000	-0.0562940601722741	-22.1211739159743	-77.8285595505013	-32.8172229206333	-75.0799244705885	-89.2721114080741	-0.0528079202167405	-22.9884515005764	
11240000	-0.0684076353959035	-22.5070729207354	-74.8185542681957	-85.7750449979172	-77.892675526521	-57.6915081210897	-0.0587759325289052	-23.4081159837399	
11435000	-0.0806827715408687	-22.9250126704409	-74.3043833662592	-84.1206767102275	-73.2840816943304	-120.515249746363	-0.0693975454927762	-23.827490971625	
11630000	-0.0962698801299219	-23.3735354846652	-69.2348771824117	-109.840069656462	-75.6641164411581	-129.213115275245	-0.0794636029326617	-24.2792363879222	
11825000	-0.10525956687057	-23.810979981585	-70.1906146479925	-97.7248037365138	-70.3968707730882	-41.4022927575636	-0.0942398403014975	-24.7004569728899	
12020000	-0.120642491692337	-24.2650210623421	-77.9854351272483	-84.1818007397062	-74.9447443940068	-59.6601412925245	-0.10992142218772	-25.1659775146529	
12215000	-0.135995649503665	-24.7554413590546	-74.4971598949598	-86.3912045831987	-75.7194041973313	-119.549809719009	-0.117901145905532	-25.6146064559115	
12410000	-0.147826792051912	-25.2463963922942	-85.7647662127584	-70.7310331973842	-75.9775536889209	-42.5493835440138	-0.126264505597496	-26.097961300434	
12605000	-0.163151640526551	-25.7441188288657	-79.8270898775509	-70.0401688802158	-70.9541939617016	-49.8272285124877	-0.127180774096425	-26.5690613768119	
12800000	-0.1747975728129	-26.2909949166052	-73.1863998458599	-82.6303441070226	-78.4964702074121	-84.5640218982172	-0.135543590410523	-27.0708221182166	
12995000	-0.180094134198097	-26.7762618519459	-67.8342161326705	-70.0185415503682	-69.9625633802686	-44.6338603235169	-0.138380477078146	-27.5858676327687	
13190000	-0.189572410154211	-27.3048306187315	-68.0030346677802	-76.8415856078082	-72.2897482461778	-49.9659500080191	-0.145105314227542	-28.0735470383904	
13385000	-0.201303686521352	-27.8682531968582	-72.3133145662912	50.9146576426716	-67.7375284493537	-65.4948655669652	-0.147712400422974	-28.5831615664383	
13580000	-0.207114058507671	-28.4417774382854	-69.3083871099874	-98.3403839237418	-75.6661030411253	-128.347480843006	-0.149352788748942	-29.1223434591314	
13775000	-0.215596488452267	-28.9679497776795	-67.8898734626435	-36.9550703238029	-66.4933835305416	-129.688674209208	-0.151369901256268	-29.6624447373392	
13970000	-0.225355689498547	-29.565174897487	-74.2428575476977	-45.3299824538383	-65.2271006487543	-119.701887127713	-0.160914590689687	-30.2071733365908	
14165000	-0.228508425911087	-30.1718048536557	-67.934340381461	-81.3612757066582	-69.3508152762048	-54.8048306603088	-0.163741668782397	-30.7766126637937	
14360000	-0.234704694813591	-30.7558482372495	-68.2588527280761	-90.5487329931876	-71.4865831902862	-173.989968061273	-0.175626742943696	-31.3442233478735	
14555000	-0.250923843373612	-31.3887064637376	-66.622370562851	-145.341308733663	-71.9431780724468	-39.6226929448604	-0.185097391513813	-31.9140736575658	
14750000	-0.257335275448596	-32.0192070254957	-64.7371727587189	-70.9074500111936	-80.8859199358195	-26.9581729960999	-0.198118451380261	-32.5168406686051	
14945000	-0.270403852684625	-32.6172561424226	-71.668653092989	-112.077021912845	-73.9301750575913	-151.043998290647	-0.215844282034622	-33.0852241953646	
15140000	-0.27993909106445	-33.2420358690814	-69.3614956422385	-75.2326787663497	-63.8010252793297	-105.494174623281	-0.2268055871058	-33.6737257246829	
15335000	-0.287650018715343	-33.9230019254159	-66.6183824919083	-80.3915605933127	-67.3179754563881	-106.311997613909	-0.233240050479562	-34.2612282316638	
15530000	-0.289422335446224	-34.5346320269431	-72.3867251352858	-119.605468765437	-65.6862743052893	-94.6130088664621	-0.235904968112692	-34.9031049928721	
15725000	-0.291848813715185	-35.1809135582053	-68.3490966480553	-105.269187903761	-66.3522883764486	-38.7407535879468	-0.245120600798086	-35.4941063132452	
15920000	-0.29450769015543	-35.8424596712625	-63.8419048645808	-103.027333655854	-68.7704808755731	-86.6594270322025	-0.250593847926193	-36.1295275992154	
16115000	-0.300573743931095	-36.5168634448522	-63.9571590376625	-81.5228296695354	-66.3364417253998	-104.596558435045	-0.253796085662301	-36.809499983688	
16310000	-0.296292375134769	-37.1955928315356	-66.8242360724703	-61.3072159638367	-66.9308509640042	-65.6854690442226	-0.255844716711909	-37.4437251821996	
16505000	-0.292883944562581	-37.8946495318236	-67.7519192722488	-103.989664797838	-67.326892755135	-72.4990007936325	-0.256116534343309	-38.149492267472	
16700000	-0.293059118650141	-38.5963317743909	-71.5260344767151	-120.404794225503	-68.0519456448629	-109.606745021338	-0.253595118245082	-38.8291954953157	
16895000	-0.283093989247688	-39.2989983718958	-67.6858667109836	-112.210881339306	-63.261677859105	-120.759594695491	-0.248563012226485	-39.5324187553287	
17090000	-0.276734625635965	-40.0059742780065	-67.8316028722371	-109.087865745701	-64.579840512384	-103.453862778296	-0.250911434474911	-40.2378962896898	
17285000	-0.258255473375819	-40.6972354327197	-63.6660843203743	-113.301781901966	-65.3537844265688	-127.386534976653	-0.242482192329692	-40.9030870833541	
17480000	-0.243631410464021	-41.3799575885475	-66.6683499476487	-85.9244132091065	-62.1316070892076	-100.96888357477	-0.24127852303762	-41.6288352463722	
17675000	-0.230570000801108	-42.1254010828839	-66.9389577936831	-121.636146823921	-68.2862842290403	-122.906804802438	-0.243983726328797	-42.3230947236497	
17870000	-0.210368496570267	-42.8573352414096	-63.4421959157718	-105.600786623662	-67.4417311391058	-145.173087017184	-0.23342351812932	-43.0405211352313	
18065000	-0.198878490490821	-43.5666683712556	-64.0653155296784	-125.442415028431	-67.1932267037535	-129.001783577795	-0.228701210393267	-43.7516115077754	
18260000	-0.182617776396404	-44.270745107743	-64.8064004033062	-99.9238699957028	-65.469657450724	-118.842338826841	-0.220085596353453	-44.4724267357401	
18455000	-0.163280075778499	-45.023225515428	-66.6745737440846	-129.173590994921	-63.525845905804	-93.889237237207	-0.208263064644401	-45.2264707023259	
18650000	-0.150441363255123	-45.740798089673	-66.0494950487151	-123.199253563601	-66.5984815500952	-120.135248380103	-0.196705035961061	-46.0133362145362	
18845000	-0.12742487435962	-46.471301567568	-65.421574509742	-97.3619777393555	-64.7511258693295	-108.850294947396	-0.184495822931272	-46.7590993704387	
19040000	-0.117568942699856	-47.2051246965546	-64.214142013894	-118.463914509469	-64.9122350197065	-113.876795750073	-0.178618231336017	-47.5276401762855	
19235000	-0.108119441799529	-47.9791240228026	-62.2955737842218	-119.097920923554	-63.8002344999391	-112.46786386098	-0.160973706824954	-48.2974328969299	
19430000	-0.0919280895470868	-48.7115651914615	-63.6165650740514	-114.499837042645	-63.3990233728372	-123.79398371435	-0.154175603259061	-49.1062389825439	
19625000	-0.0890700581643714	-49.454761143426	-63.6599592834562	-118.426756982171	-63.2646498031332	-107.84388958025	-0.145667019070307	-49.8754878492247	
19820000	-0.0792132677999143	-50.2469946291681	-64.8650039825753	-113.856272360289	-62.8560830158683	-114.141573784504	-0.137968431875891	-50.6530606895309	
20015000	-0.0806894502269761	-51.0334034493845	-61.7933372608732	-114.298269789877	-63.6326871505324	-104.434935759329	-0.137438497165969	-51.4548984009078	
20210000	-0.0872479892003995	-51.8227448088837	-62.9493989743804	-113.389973533856	-62.2127098333893	-118.76575685949	-0.13611138119464	-52.3007249284849	
20405000	-0.0966020738768334	-52.6520253274565	-61.131638953335	-109.2670449252	-61.9715170808291	-119.158571847769	-0.147499730319007	-53.1377195321072	
20600000	-0.106009663558237	-53.5015552014176	-61.9881457347055	-112.656121320083	-60.955992754283	-107.279437750896	-0.150868731390815	-53.9825213646974	
20795000	-0.127604919166779	-54.3711479800448	-61.7463589819933	-122.715079790882	-61.3735561545758	-118.198067677589	-0.163090274871296	-54.8875867114939	
20990000	-0.139859640720671	-55.2672042527344	-60.3102547298092	-113.349776457638	-60.7520965727372	-115.795678357702	-0.175808583986613	-55.7573323207198	
21185000	-0.169968159629791	-56.169602216694	-61.2042575634776	-119.113354940717	-58.8059849518411	-114.107724219347	-0.190214073639369	-56.6896814661428	
21380000	-0.190597681284291	-57.0967782543853	-59.986945628586	-113.076214348313	-59.1333954182413	-110.239393894994	-0.210525535542346	-57.6134678908107	
21575000	-0.21465840998158	-58.065554004107	-58.3954199255907	-120.906488111936	-58.9341636515987	-113.153533819911	-0.233366940751813	-58.557127961787	
21770000	-0.232419267663242	-58.9985748429686	-60.1744980709096	-113.626788823681	-59.4338200356983	-124.67197366244	-0.253469078980063	-59.522828957721	
21965000	-0.257029793236621	-60.0368828758793	-58.5550976597857	-118.007628753054	-59.2780552816788	-114.935687348416	-0.272968347152862	-60.5582587055795	
22160000	-0.271057376084705	-61.0568919758433	-58.129969252544	-120.166923672679	-58.9368749398423	-120.588081097694	-0.290888274986425	-61.6367187984576	
22355000	-0.285075718320067	-62.0941329417157	-57.3763311333681	-122.134912690081	-58.5069918521399	-120.457624906133	-0.30451268821086	-62.6694286850776	
22550000	-0.299639906696768	-63.1534537879243	-57.8304451332222	-125.710137162642	-56.710959154036	-124.843679122984	-0.315162954389858	-63.7684313439123	
22745000	-0.317562674042701	-64.2600817716374	-57.3394949387035	-121.533546680245	-57.6812133133772	-120.066875235005	-0.317062688736966	-64.9054710459241	
22940000	-0.332559171490332	-65.4067176724804	-54.6075196682398	-123.498249460321	-57.0961065234519	-117.616905113164	-0.327918464178024	-66.0235876889235	
23135000	-0.353096823268905	-66.5659924477161	-55.1617389375519	-122.018971240847	-57.1268607462975	-121.780885746994	-0.340159977540624	-67.1784435155821	
23330000	-0.375031781306562	-67.7523138213743	-55.8843610609879	-128.635558631057	-56.1060949634426	-122.560306673922	-0.351958055142382	-68.3480198844854	
23525000	-0.390328161346189	-68.9758894608536	-55.3114837980072	-130.972539244538	-54.2603855135754	-121.509980730593	-0.356401010806353	-69.546906786667	
23720000	-0.408717549990588	-70.2514655765541	-56.015863168312	-129.330963829056	-54.5158057257411	-117.984505905588	-0.371446693861382	-70.8072589585734	
23915000	-0.43686240384916	-71.5540402038795	-53.9992873451598	-128.620042153525	-55.0372897790679	-125.807555850754	-0.392575380212865	-72.0753423893129	
24110000	-0.452985105623436	-72.8839463982904	-53.9355142343928	-133.286141665973	-54.1098708172786	-129.472109882978	-0.415064174398879	-73.4032525634852	
24305000	-0.47998922825798	-74.2480115913843	-52.6337723963751	-128.672907344011	-54.7272657335895	-131.810898742939	-0.440308199751988	-74.7631095388147	
24500000	-0.505225476558036	-75.6539542249758	-54.0021547266044	-130.965726174453	-53.9230333339984	-132.248946944558	-0.459275707806928	-76.1233403681767	
24695000	-0.52020354605869	-77.0419771243286	-51.2730797298832	-129.041933096623	-52.7075840370799	-133.480947915119	-0.484077016042667	-77.4802062830974	
24890000	-0.545271508315363	-78.5444037659633	-51.6471279402947	-136.113436165899	-51.344708457795	-131.806667143064	-0.5071759725558	-78.9402338861128	
25085000	-0.56809984545165	-80.0928139468062	-51.3348470888793	-129.045474133762	-51.6880632757523	-135.877768717179	-0.529583067109424	-80.4108626547212	
25280000	-0.591869954801108	-81.5966870981045	-50.2376560912117	-134.890597751643	-50.5634932582188	-132.794606856005	-0.551989063169428	-81.9293545373592	
25475000	-0.607079753004131	-83.200216308969	-50.1758884511023	-133.297070003138	-50.3513018415145	-138.083659747667	-0.583251944204489	-83.5334809909163	
25670000	-0.637336481470802	-84.8057358433999	-50.1379076317511	-139.076198554147	-49.987532069341	-140.618905080542	-0.603765644566041	-85.1200311539964	
25865000	-0.657546263231976	-86.4499265179405	-48.8584514827407	-141.775227301885	-49.8444497577583	-138.120760930314	-0.627505464771334	-86.7999336850898	
26060000	-0.690420287902686	-88.1351797059001	-48.4131418491465	-142.891080252543	-49.4815149045501	-142.693442478371	-0.651915288452381	-88.4758151770069	
26255000	-0.716263833209189	-89.8824116554417	-48.4292334157792	-146.796980205034	-48.4280439373334	-144.906108080313	-0.687027253798352	-90.1832083344304	
26450000	-0.742982056397247	-91.6372099207994	-47.8175318561643	-145.962761862941	-47.9297981954935	-146.136864475753	-0.709627181248209	-91.9713453327262	
26645000	-0.769032934405116	-93.4288178249007	-47.2959326276663	-150.203763458991	-47.1206200563215	-152.033033647953	-0.736691382969985	-93.7914893387295	
26840000	-0.79551177623606	-95.2534571438346	-46.7472722025276	-153.041074739423	-46.6797895775499	-152.771343962548	-0.774889830126322	-95.663108646813	
27035000	-0.826839019783246	-97.1286924250193	-46.5795083418714	-154.061507351847	-46.3215380382692	-152.883698190725	-0.802535167106442	-97.5585369927437	
27230000	-0.85545594846741	-99.0252162945902	-45.8619221675317	-157.706806083617	-46.2374811843336	-156.557801033052	-0.835228234411583	-99.4984015541372	
27425000	-0.887056415646098	-101.017229752752	-45.2682334211101	-159.813315632984	-45.303567754731	-160.252153456981	-0.869145052762061	-101.459620501751	
27620000	-0.920012837157193	-102.996022821612	-44.6359548818682	-163.989935113046	-44.8479290139454	-162.578406203503	-0.908076950953857	-103.500373915749	
27815000	-0.952499964867277	-105.049731801535	-44.304217389672	-166.803350103438	-44.1708970683197	-168.115840715586	-0.93996175080183	-105.575189912651	
28010000	-0.994872807724332	-107.138159735163	-43.9404799017657	-169.246167624491	-43.7115916449015	-168.371567161022	-0.980655477811205	-107.734003650422	
28205000	-1.03423731055391	-109.271729210679	-43.1634224642391	-174.494911688338	-43.4032740425601	-173.985273793134	-1.01674063454448	-109.901020122576	
28400000	-1.07928994517745	-111.441519073739	-42.6952677288163	-177.220954488114	-42.8101377061965	-178.066558603433	-1.06356027114627	-112.119461896034	
28595000	-1.13805619894084	-113.623888990055	-42.2772407673551	178.141458339648	-42.4040662255025	177.556898904729	-1.10696485048924	-114.390884332297	
28790000	-1.199775082891	-115.89094574057	-41.8931315708171	173.461448078433	-41.9892407369832	173.982884503316	-1.15628612690346	-116.719812511444	
28985000	-1.27601322452094	-118.178647596603	-41.4723129245734	168.673362069456	-41.6017875076624	169.306215459837	-1.21059516591938	-119.09867052934	
29180000	-1.3544312494538	-120.505014593143	-41.1690225249183	164.556717078493	-41.2228096033835	164.5078431288	-1.27319794186859	-121.525459422532	
