!Keysight Technologies N9917A: A.12.46
!Date: Friday, 11 November 2022 20:09:11
!Timezone: (UTC) Coordinated Universal Time
!Model: N9917A
!Serial: MY56071016
!GPS Latitude: 
!GPS Longitude: 
!GPS TimeStamp: 0001-01-01 00:00:00Z
!GPS Seconds Since Last Read: 0
!CHECKSUM:1535077626
!Correction: S11(ON U)S21(ON U)S12(ON U)S22(ON U)
!S2P File: Measurements:S11,S21,S12,S22:
# Hz S DB R 50
5000000	-0.339514290403837	-8.02587611332088	-71.4132678058943	-1.03992995664443	-78.7521740775477	-120.063043316143	-0.316719686260463	-7.6652689798927	
5195000	-0.349006755691263	-8.51537142187198	-72.0269669244525	-159.543078707287	-72.6547719120092	-54.5513629967382	-0.321063203244272	-8.21321182620892	
5390000	-0.352795137216309	-9.01800085460423	-65.9511806533046	-40.5943321241456	-75.7599688756709	-24.7112325678885	-0.331479896075301	-8.67013486858293	
5585000	-0.361854615266305	-9.52319419094469	-72.9711070750642	-53.9172375337187	-73.6270444976308	123.196270321227	-0.327743705270366	-9.14508193299199	
5780000	-0.356278853916366	-10.0351359360313	-69.3381839735373	15.6470093953557	-74.242563667052	-154.774383322486	-0.322642201773427	-9.61571434413702	
5975000	-0.348340279612537	-10.5108258960589	-79.7462614961824	-137.707462709366	-72.2556537549667	-81.8193641142034	-0.317799396790824	-10.0980159483162	
6170000	-0.336626575312444	-10.9962545461368	-69.2180833100465	-109.073811288663	-67.0300185446445	-121.134307354674	-0.312055799484386	-10.6051202848046	
6365000	-0.33423268478012	-11.4979889158446	-75.3653238419416	-47.7206684792021	-80.6256757737736	-112.95917343972	-0.304332733704106	-11.0821405266844	
6560000	-0.315793139696839	-11.9670297917895	-71.8785046737332	-139.906174275254	-69.6581134624541	-154.360987534715	-0.293442303764893	-11.5675249287596	
6755000	-0.306512176247493	-12.4838287309894	-68.4597442612265	-76.0057787158675	-77.2638246746027	44.3022198656823	-0.287084055832948	-12.0424085876233	
6950000	-0.287108265719301	-12.9343568639894	-74.6759955548921	-167.231348109826	-73.3262951460037	158.606375066117	-0.277187147088634	-12.5040291180472	
7145000	-0.26375345509289	-13.3995985571687	-82.6889827223172	-124.383368736342	-71.9582220753165	-171.271616977223	-0.262088635168427	-12.9910920442765	
7340000	-0.249527482346417	-13.8764871685665	-70.4034366960686	-159.192318668787	-78.4614875694052	-77.1965230136312	-0.248250409891408	-13.4538728619134	
7535000	-0.228880548502195	-14.3292289444559	-73.5356828382752	-117.489275324523	-77.3995590706912	-158.461947763584	-0.226319050110151	-13.9048559567288	
7730000	-0.212549470732255	-14.79756103494	-77.7351126434212	-150.334654196465	-72.7137683757877	-146.629015866644	-0.213839610356764	-14.3717597450902	
7925000	-0.192744603241647	-15.235487471599	-74.4498975632847	72.627191564502	-72.6374290741115	-123.683007807415	-0.202452362922038	-14.8457991413679	
8120000	-0.173650183404617	-15.6833186575547	-71.0008698003086	-121.308624968869	-72.7376388786082	-39.2499380401367	-0.192608695620605	-15.3163691137881	
8315000	-0.15569221632668	-16.1489556603352	-80.2849248322573	126.551758148807	-82.5085791669589	161.782533415757	-0.17830210686459	-15.7640711332794	
8510000	-0.134423287841168	-16.5681944191958	-80.5724546726056	153.598571800883	-71.7331850391125	-100.409748849642	-0.166906994687977	-16.2084575545869	
8705000	-0.11870216350145	-16.9966271293783	-73.2253768178581	-159.376510733986	-80.7705845251638	-152.499973291701	-0.15013140811172	-16.6757312466853	
8900000	-0.10663539980245	-17.4438746216738	-81.3394378948321	153.2123249249	-77.7141717006645	170.075616661697	-0.135873843112073	-17.1019152711976	
9095000	-0.0935242040729949	-17.8758552856217	-81.5783612520743	153.57406360973	-81.6157251566961	-170.750460307826	-0.122729267763529	-17.5884989508804	
9290000	-0.078991224077964	-18.3063944092312	-74.429054174304	166.594839558274	-74.6333790201512	170.060667064112	-0.113275264728674	-18.0429647639059	
9485000	-0.0694342112378348	-18.7280469452284	-76.1163736013408	171.18060198722	-95.2103649056972	29.8847568826923	-0.102939522658997	-18.4880376501407	
9680000	-0.0575847098048036	-19.1347432087739	-78.7350174475281	170.491702649768	-76.062451194748	-137.896300322815	-0.0909320644747963	-18.9223481859051	
9875000	-0.0502248440278103	-19.5339538665582	-73.779556802224	176.925567204344	-76.2774843864803	171.737603662193	-0.0879959229902046	-19.3581233282938	
10070000	-0.0415120424434002	-19.9648354724936	-71.3583911572666	-154.204036661482	-77.6737980367859	137.451252888968	-0.0805973097044716	-19.8041100354579	
10265000	-0.0444185182698676	-20.3576023644139	-73.0828361535938	166.426364120108	-70.7530954216116	168.186479732369	-0.0779463293716258	-20.2521363994775	
10460000	-0.0422264328796985	-20.7904277145081	-78.1869126015989	-152.103243747798	-70.6022769860004	143.561088436068	-0.0774268149523447	-20.6773323938303	
10655000	-0.0475341632821935	-21.2060499961929	-70.876828966687	178.129442570481	-74.0136269785189	-177.791661795341	-0.0778752667282095	-21.1322565662005	
10850000	-0.0551777396232741	-21.6553185422044	-78.8592171143293	-163.736199060397	-70.4040862900203	-164.745205280895	-0.08117677712517	-21.5618652487458	
11045000	-0.0617751895486696	-22.086657850863	-75.6098165222733	-156.246886645178	-74.0795724189478	-174.517331342729	-0.0861022995415373	-22.010877803305	
11240000	-0.0702944301013532	-22.4917034104893	-71.1683917226874	175.659810154199	-69.0455716728538	-172.649112169964	-0.0924864251972427	-22.4489723589782	
11435000	-0.0806063650597097	-22.9085390306033	-71.1438219358453	-170.734311544831	-68.908698531864	-166.880499400104	-0.0978781764197782	-22.9039786194997	
11630000	-0.0944386460701026	-23.3682184641934	-71.2361069224054	136.995731657545	-68.0173184850099	-179.875696525182	-0.108098055729007	-23.3458803961311	
11825000	-0.104431861170806	-23.800845486139	-72.9720135906563	153.263865828363	-69.4147271053337	147.52442106084	-0.118192035119754	-23.8045696634076	
12020000	-0.12144444420905	-24.2562586696684	-69.853769977628	142.974180486446	-68.387091068248	132.391958679116	-0.132990907287636	-24.2910616875658	
12215000	-0.135269034197677	-24.7477483579075	-70.5542952767747	149.517682553736	-72.2254564329222	178.552147439207	-0.139105728307475	-24.7720019650566	
12410000	-0.146333996205325	-25.2181111767472	-68.6635126604633	156.168482850965	-66.4896839018467	143.991914208983	-0.143170310148496	-25.2715186913571	
12605000	-0.158677518119325	-25.730492433434	-70.6593983072326	175.809883285783	-68.9239707619835	145.929061761504	-0.147446603803599	-25.7633799507547	
12800000	-0.165856140133216	-26.2756781160988	-68.3424969176492	169.097388224023	-80.8091046386459	147.708900143132	-0.150411544856383	-26.2914915947426	
12995000	-0.175402095126322	-26.7837699368189	-79.1255189813942	-170.465558515082	-69.5967165101629	133.385240759251	-0.154009716200901	-26.795553496502	
13190000	-0.183171237155455	-27.2906802529363	-70.6561133124909	-176.938086623317	-64.0956842088418	178.048664239297	-0.157216834462852	-27.3204481568651	
13385000	-0.189127078552325	-27.8693912883304	-66.443043671793	146.621640177646	-63.207403383364	151.683108896542	-0.156101534369957	-27.8713492235538	
13580000	-0.198808268826003	-28.4237326826449	-70.6155882056756	97.1415890440314	-66.7836633144424	-165.926864273471	-0.151972957258212	-28.4012153504593	
13775000	-0.210395192667785	-28.9634334914792	-63.5290421980886	149.906582322152	-68.116576894093	172.538658628322	-0.155821392541263	-28.9505800962098	
13970000	-0.211974607296248	-29.5671666329473	-68.2988754390457	138.12785395375	-67.1851351324236	-169.684139426783	-0.161927389556628	-29.5333264733601	
14165000	-0.218181520725975	-30.1643818511468	-65.9547599420321	142.937501679959	-64.7663016169764	169.590889292609	-0.167461360804044	-30.1017662353297	
14360000	-0.227182072221603	-30.7416563527245	-62.7425537775926	158.231530162102	-73.4044110667756	156.518725166941	-0.174479057915277	-30.6846956004393	
14555000	-0.233748788828271	-31.3769091357222	-67.7601681889245	150.373637805549	-62.5414326504918	157.552589765858	-0.185986345939247	-31.2793566664935	
14750000	-0.247501603770896	-31.9885510962444	-68.6911989773255	155.494388299531	-64.5609271610335	159.499337741332	-0.194723415383729	-31.8704890315874	
14945000	-0.260117910276993	-32.5668871943715	-62.4308829169357	151.037200237604	-64.0684827406467	143.183715766153	-0.211716932854007	-32.4538198885783	
15140000	-0.264286530071016	-33.2135798441062	-63.4286656035879	139.126511926112	-62.7881762718795	125.797929910499	-0.225940786579927	-33.0441188513211	
15335000	-0.272825850725742	-33.8775483870896	-60.4306240120856	133.800525267559	-62.4086227601656	144.412665159441	-0.229839532936343	-33.6628068344791	
15530000	-0.274418025981687	-34.5446579182378	-60.6313856324103	156.249171729785	-60.2626741257691	155.733795284846	-0.233964244192652	-34.305756718673	
15725000	-0.278102663342835	-35.1670074952969	-63.7529128023796	130.677945026512	-59.1867789892693	127.419868696734	-0.244244427530967	-34.9133256518554	
15920000	-0.280179184911205	-35.7904945104557	-60.4198263449452	134.292395890192	-63.8366634870412	123.320295110355	-0.247151630993831	-35.5387522869099	
16115000	-0.287214587800737	-36.4907126348823	-63.2945534506733	141.75531768142	-60.4347104925964	134.480115376503	-0.252790151327607	-36.207085368417	
16310000	-0.284843251003436	-37.1537992605561	-58.9695631590189	146.593709648768	-63.8533846574818	128.847674630929	-0.253011957708477	-36.9002974506615	
16505000	-0.280643097621668	-37.827939842899	-60.0316962416002	144.401485640465	-58.8183829687338	146.090454522431	-0.250621494840181	-37.5958176258988	
16700000	-0.278929865243173	-38.547133785506	-62.5506752128037	127.387560085015	-59.6627613001983	138.03268241648	-0.249996383042225	-38.2621137165638	
16895000	-0.270679022011591	-39.2753422844845	-60.985292874656	131.131717369096	-59.4436353048785	113.880256590963	-0.248293553048596	-38.9843650090111	
17090000	-0.265349730075367	-39.9538122499227	-61.7962405318152	118.211849140478	-57.7024516155091	131.565991194555	-0.248630503615897	-39.691986822308	
17285000	-0.251941904946277	-40.6461774604612	-59.7383556648871	130.331596540582	-63.2695898244695	122.386012064104	-0.242999041167782	-40.3689643282245	
17480000	-0.235964604066171	-41.3407085755919	-59.1051432441613	132.530392176134	-58.2996484693231	132.752785066869	-0.242504518207346	-41.0952725086078	
17675000	-0.223363679689616	-42.0836978920652	-58.033096331705	121.419557568666	-58.2210878381989	140.554557062119	-0.240560115407174	-41.7933059911344	
17870000	-0.208331656252131	-42.7926753685805	-58.345286647957	125.343487043874	-58.1423731166987	138.124825938688	-0.233883341627081	-42.5195600132948	
18065000	-0.195452958328253	-43.5260695853615	-57.6104088907804	131.164782993039	-57.2905323068861	131.039369787757	-0.227446451822773	-43.2554520824294	
18260000	-0.177380342507595	-44.2460131898562	-56.0178807031839	128.508509189773	-56.7556523363209	134.480778701466	-0.219950888382626	-43.9737292647009	
18455000	-0.163861951656383	-44.9748060243505	-55.54034720733	127.171541497533	-55.4322665877986	127.96636872327	-0.213862956659921	-44.7247460056501	
18650000	-0.146682234012582	-45.7023415223915	-55.6854037886337	124.098402909032	-55.227437952761	126.809284792702	-0.199470622018848	-45.5253885975214	
18845000	-0.127394047927123	-46.4375824073023	-55.0352769382128	122.011431955597	-55.253032030417	130.121314786877	-0.187146635865537	-46.2867236641229	
19040000	-0.115317020713	-47.1830029652531	-54.7057455259346	121.814727334433	-55.1481113127948	120.963735100169	-0.182245626887916	-47.057155069376	
19235000	-0.110615954159509	-47.9327221376368	-54.543974289223	114.387397212929	-54.0983104678452	115.913297012804	-0.168040412652228	-47.8283527660723	
19430000	-0.0953831514309837	-48.6837779834761	-53.7203428242372	118.366935544236	-53.5757748131861	117.216509220202	-0.159227801535544	-48.64228321865	
19625000	-0.090388334572329	-49.4021804503467	-52.92021508268	115.580605370343	-53.318636391625	114.062600239361	-0.150383842155516	-49.4179019234674	
19820000	-0.0834616811202198	-50.2275031532235	-52.7366872886676	112.639905650819	-52.4865420941685	113.623360660759	-0.145833671103677	-50.2120094216947	
20015000	-0.0827043694375805	-51.0185927995223	-51.6956900658856	111.795516085226	-52.4311932309194	108.127821150255	-0.141269506037663	-51.0200466279892	
20210000	-0.0891039426495279	-51.8161908263313	-51.5154084118443	109.411601083211	-51.8737446532203	111.418276745285	-0.140870827946614	-51.865442644298	
20405000	-0.0970558761279103	-52.6511594190313	-51.621553427224	106.698630677537	-51.2386765809892	107.931530859855	-0.151356351504502	-52.7002100968002	
20600000	-0.108766878111221	-53.4999953469358	-50.7788192520661	105.765040733682	-50.9533222702089	104.444207612489	-0.155392258387836	-53.5667347382893	
20795000	-0.128636700380648	-54.3812186080304	-50.7852941259876	101.612757228651	-50.1099049806468	103.089118851905	-0.168336773457653	-54.4570118946445	
20990000	-0.143266743586765	-55.2726875034433	-49.880376512972	100.88044606042	-49.8257298016997	101.66345621845	-0.177014164607478	-55.3360336758411	
21185000	-0.169536443378701	-56.1915846323622	-49.5661961453395	97.6791967809549	-49.4318777615739	95.7096068908592	-0.190436710244591	-56.2679968322748	
21380000	-0.189897799191966	-57.1062785483935	-48.7660458430842	97.1113375147701	-48.9087359449353	96.3121385653064	-0.208975327017767	-57.1865723397634	
21575000	-0.214155886431615	-58.0771643184578	-48.7144031426112	94.8789060395356	-48.482443607554	94.3650772914529	-0.230509146469231	-58.1256848690965	
21770000	-0.231653460852304	-59.0255500270202	-48.2535777999378	91.6256958131083	-48.3363563426751	90.4812704962301	-0.25175622019254	-59.1017730595717	
21965000	-0.250985493215726	-60.0447614509527	-47.9364364247406	89.4760066464032	-47.9778708435357	92.3862381837423	-0.270228804540573	-60.1442280848973	
22160000	-0.268335165052067	-61.0708713741228	-47.2932725268493	88.7397038788408	-47.4945764268298	86.1215815404953	-0.283419392556452	-61.1929995666818	
22355000	-0.279756886740491	-62.1238327121095	-47.2075803913102	85.2390315495781	-47.0375505426592	84.9915361157623	-0.296838522884364	-62.2378248806792	
22550000	-0.296222994249088	-63.1725061110572	-46.6451061921674	84.5921450247887	-46.5081464054732	83.6344401312364	-0.304858274736779	-63.3283718111418	
22745000	-0.309925778076037	-64.2955228026626	-46.5236829400282	82.050435903405	-46.0103726688691	84.5610821057561	-0.306260390367868	-64.4404780252705	
22940000	-0.324304964340645	-65.4336912948017	-45.5713307537529	79.8162684970963	-45.9063515710204	79.0037390949614	-0.316866411716878	-65.5714563093479	
23135000	-0.345535437418797	-66.5825078048181	-45.1187853520809	78.2808873836834	-45.2995036283333	77.2608964587589	-0.323374514799624	-66.6973636356911	
23330000	-0.364053652603969	-67.7807584301695	-44.9912644355841	75.0973037022232	-45.0539198805301	73.0896310072899	-0.331881973403214	-67.8590931269959	
23525000	-0.380949251144981	-68.9803053260571	-44.0599095288685	71.9326069542563	-44.3486057436155	72.3419925365486	-0.337095292769095	-69.0801927516187	
23720000	-0.395507427550153	-70.2856847121136	-43.8095286081337	71.4930403861113	-44.2122565150875	70.9039364625083	-0.351738356715602	-70.3102002346134	
23915000	-0.419960706345187	-71.5680139031833	-43.1935554826218	68.6724230930521	-43.1248815137271	68.0252011877874	-0.367933057352493	-71.5899902420313	
24110000	-0.43823460478261	-72.8649241181858	-42.971408393278	64.0137052158187	-43.0399640804646	65.7296492940343	-0.391569639137106	-72.8893174429158	
24305000	-0.468111539875351	-74.2600410144055	-42.5838233073471	62.4891241411809	-42.561983293976	61.9535946978254	-0.412181371336664	-74.2321676421013	
24500000	-0.490664140740695	-75.6817700438323	-41.9847850675473	60.381992935352	-42.0099708294956	59.614892129762	-0.435707633237445	-75.5900022043771	
24695000	-0.504627310473273	-77.0538281450543	-41.9673429393366	59.3102629395632	-41.6474774297048	58.434803996397	-0.45181892698855	-76.9171390769186	
24890000	-0.535586685739866	-78.5470794961785	-41.1113124375035	52.8830084129328	-41.4433114541315	56.692764855382	-0.479329983254546	-78.3749503143238	
25085000	-0.553346933412476	-80.0857407814879	-40.8912209714823	52.4166624078613	-40.9953058521227	51.016057451455	-0.498834141258505	-79.8015410850876	
25280000	-0.579084696751034	-81.6276488832084	-40.4170926826446	48.5290463125856	-40.5011872932848	49.582018094369	-0.521562378520273	-81.3176043601004	
25475000	-0.59681136647681	-83.206019783664	-39.9856468596099	47.2807685155076	-40.0412661205163	44.7316564107842	-0.553383252351613	-82.8847471713895	
25670000	-0.62264838913573	-84.8082248880896	-39.6532451698386	42.9090872177246	-39.704197705819	42.0818698583784	-0.572294216503793	-84.434784414131	
25865000	-0.647939575396131	-86.4339442174572	-39.3780100446187	39.8764097665279	-39.3990468725999	39.3810026841656	-0.602556495059569	-86.0925536865166	
26060000	-0.677313332853711	-88.1234623859925	-38.8695072377836	36.9058191905787	-38.9679896245574	37.800804294579	-0.622883766551864	-87.7438240075017	
26255000	-0.709969958057385	-89.881327855388	-38.5019465283776	33.7714840482259	-38.7776390909921	33.4613439025999	-0.659135288169173	-89.4130593479349	
26450000	-0.732453179270492	-91.620643647696	-38.1801310520864	31.6222671267493	-38.1505325272854	30.2437756333888	-0.682856593859084	-91.1729163967535	
26645000	-0.761504867314611	-93.4139816065293	-37.8911994042572	27.6234758409113	-37.7663266296081	28.2411672069947	-0.712045573974663	-92.9468679403034	
26840000	-0.790350920808636	-95.2389181816306	-37.4776645778861	24.0265369323455	-37.3993617520738	24.5181016269408	-0.749167919680493	-94.7959297100882	
27035000	-0.821153746201036	-97.1230245457321	-36.9787335447743	21.6345077438885	-37.0625568078626	21.0626204545339	-0.781444327390062	-96.6596363626953	
27230000	-0.851504585637824	-99.0464204172527	-36.753962521906	18.0556575530999	-36.7362185538111	18.6719561354155	-0.811994533681453	-98.5381022376257	
27425000	-0.883234611804851	-101.006068343343	-36.3736757243988	15.0742454836882	-36.3760854498982	15.1369355950631	-0.850839333327157	-100.45343714345	
27620000	-0.91929937477098	-103.00471116854	-36.0668375994818	11.8810229370987	-35.9367574426951	12.2150883480701	-0.88994014317612	-102.453028118865	
27815000	-0.954321080864967	-105.05582887345	-35.6105142568997	8.24956418576361	-35.6337333642572	7.79254271204582	-0.920300316940889	-104.48096380449	
28010000	-0.996989325667217	-107.158749895941	-35.291618351488	5.14938877761836	-35.2664513727331	4.798880541489	-0.962171294008327	-106.600185218302	
28205000	-1.03611700780144	-109.290602690244	-34.9398963359934	1.45739040619292	-35.0426007417123	1.39865278555178	-0.99897790679747	-108.70548070648	
28400000	-1.08084168059218	-111.457347297628	-34.6593566250342	-2.32020938694751	-34.6369824913146	-2.19828329483663	-1.04506523288007	-110.859539787532	
28595000	-1.14096975193048	-113.659278628659	-34.2294875937641	-5.20266112256268	-34.2706973174235	-5.86979919018162	-1.08567345490835	-113.08713306427	
28790000	-1.20045401357168	-115.908318357853	-33.8968020558637	-9.3715279974102	-33.9409793057466	-9.35236339066767	-1.13653858816625	-115.334884881418	
28985000	-1.27691196923183	-118.217410928885	-33.6133869148177	-12.8850590404322	-33.6218266244077	-12.9315689554839	-1.1869609505525	-117.654115879767	
29180000	-1.35692034182849	-120.527487602464	-33.2270303328456	-16.8570592040003	-33.2868788551524	-16.478516099327	-1.2456990251613	-120.014808376759	
29375000	-1.44247430351239	-122.891572127614	-32.9823766158996	-20.3752390508422	-32.974105914094	-20.1457109084472	-1.31749151670151	-122.449988258085	
