!Keysight Technologies N9917A: A.12.46
!Date: Thursday, 10 November 2022 21:25:36
!Timezone: (UTC) Coordinated Universal Time
!Model: N9917A
!Serial: MY56071016
!GPS Latitude: 
!GPS Longitude: 
!GPS TimeStamp: 0001-01-01 00:00:00Z
!GPS Seconds Since Last Read: 0
!CHECKSUM:0081505172
!Correction: S11(ON U)S21(ON U)S12(ON U)S22(ON U)
!S2P File: Measurements:S11,S21,S12,S22:
# Hz S DB R 50
5000000	-0.0377595600316664	-9.04803890165966	-69.8339617214037	-14.168708839188	-82.5796761952947	-39.7831563411394	0.00728953058313159	-9.27120535541597	
5195000	-0.043036147397909	-9.46349859170018	-66.716158997011	74.6821983551645	-67.9542789397943	122.021962760677	-0.00219660326248511	-9.67123864193774	
5390000	-0.0547520796118923	-9.86470702931769	-72.7713236958879	26.7143900117635	-69.65837599748	126.191348873933	-0.01627704668206	-10.1099607577203	
5585000	-0.0611736210436611	-10.3044762556524	-70.5460948466453	120.341123332407	-77.6102050842821	129.351631712074	-0.0144674016139649	-10.5229580215628	
5780000	-0.0616342874524854	-10.722716955345	-70.8494486353942	158.230877787317	-67.6761120272326	139.387551793213	-0.0222372203670903	-10.9689777148568	
5975000	-0.0563992484993945	-11.174457426977	-67.9070086177666	46.4931528307993	-65.5686690302712	99.3649391473659	-0.0192826632660885	-11.4035381625314	
6170000	-0.0536649533972976	-11.6053686270751	-69.8376243097347	80.5968064026561	-64.4902876280492	53.735458701936	-0.0145883286361909	-11.8233313893281	
6365000	-0.0472153501382748	-12.0481402244358	-70.2021164956856	84.1182416943802	-68.9783748696535	90.3162226949898	-0.0129830480869084	-12.2789474118	
6560000	-0.0503846004083579	-12.4729932176062	-72.9060579368111	82.0094489034077	-86.2109570431051	98.7024951304618	-0.0115292086698729	-12.6931086773502	
6755000	-0.052339479959773	-12.9030290557027	-70.7174703927123	95.9363662659746	-71.1286097876816	17.5452059057214	-0.0156148887814402	-13.1465319892552	
6950000	-0.0442352299031634	-13.3356121454895	-80.8446084572622	136.20557323791	-66.0951586010869	56.6367743375649	-0.016763169527653	-13.55610431231	
7145000	-0.0431531736218344	-13.7723688393622	-81.9424891476929	86.0576016845576	-71.582565854688	105.913567848704	-0.0135045457265305	-14.0057391546209	
7340000	-0.0422726483284084	-14.2242598129342	-84.5112418453801	-9.92776453341662	-72.4443134826594	49.4001122743256	-0.0113338547905035	-14.4363053329428	
7535000	-0.0345894702014635	-14.6241027363051	-65.7103703438804	57.5245835502732	-73.7899000410866	96.6813050990858	-0.00727810283546396	-14.8824650253961	
7730000	-0.0352700360880698	-15.0674769455487	-70.8973433709596	54.7424292042515	-73.9423966080837	56.0049663935084	-0.00637782808431167	-15.3120382402666	
7925000	-0.0332110306782199	-15.5056667760565	-70.542377163341	62.0312551314769	-74.3759500880428	108.515512734309	-0.00890514687843732	-15.7250245310175	
8120000	-0.0340600529107049	-15.9673311404172	-68.4669722047508	69.4552682599978	-69.9299523187308	72.0780411828422	-0.00915449764297601	-16.1854894388485	
8315000	-0.0335694249661615	-16.4159532898455	-74.4601491432369	68.4201118809596	-67.6285626625583	70.7573231664913	-0.0133082526320111	-16.6184327331821	
8510000	-0.0333824812695774	-16.8344800828837	-80.3896469113614	67.1506220319986	-64.9116037269617	57.6442849078665	-0.00752977957037695	-17.0520837959142	
8705000	-0.0342383177086787	-17.2887893272263	-85.7733013426249	82.4988088853189	-70.7022410052061	83.3878634630997	-0.0163441412214215	-17.5635983427812	
8900000	-0.0310563140512748	-17.7550426039048	-69.3685183898918	79.7485325279743	-69.2034296336269	77.4988501262941	-0.00741181333770091	-18.0200524714068	
9095000	-0.0318398418378602	-18.2068818988329	-68.0204486055901	64.8266192687415	-66.8164494716594	67.5373963762158	-0.0113346219032965	-18.4889681236022	
9290000	-0.0288065107753626	-18.6881240438722	-68.651778348777	82.8082464211953	-70.446444212025	92.6007981848156	-0.0121464540186378	-18.9530922880127	
9485000	-0.0279273837117018	-19.1303300876561	-70.5111840081535	83.1693717627482	-68.9469664223871	66.4637833509842	-0.00798079429369921	-19.4193617328583	
9680000	-0.0274468767486538	-19.5851550767622	-67.5317202830086	68.3262494766371	-69.1996346802202	73.7036786511819	-0.00741570266377829	-19.898149491836	
9875000	-0.0303832952118421	-20.0565648854053	-69.2436474556263	73.9929556362909	-69.1043439605493	85.9545793882411	-0.0104696424617795	-20.3616664785145	
10070000	-0.0322338081615274	-20.5380546882845	-68.5914258694693	92.2652335274	-70.5849741476526	72.6664482046623	-0.0129322953907271	-20.8389329058035	
10265000	-0.0332050261176747	-20.9929409109891	-68.8536605128635	80.1092472304244	-69.9884435993546	82.4886356266249	-0.0129761462092513	-21.2868946718029	
10460000	-0.0374634328671825	-21.4614325202253	-67.6157490597334	68.1538260566345	-67.1785556782333	69.9593451005307	-0.0156963579046057	-21.7850540123075	
10655000	-0.0415223638010167	-21.9805648682845	-69.1919959649308	89.1651348008266	-69.6799207608772	92.630869259531	-0.0175896445494976	-22.2490254788912	
10850000	-0.042174141617825	-22.4521093106952	-73.8146286260027	77.7153379343362	-71.0165396549638	60.2879357946116	-0.0223041221289709	-22.7319561000577	
11045000	-0.0494036750460836	-22.8991655631151	-66.9277231935739	75.126228670803	-68.5563669482627	85.9057297200367	-0.0261696460943748	-23.2348254242965	
11240000	-0.0513337114103644	-23.4072604828582	-66.8696071664832	65.6530631563321	-65.6660185786435	77.4707391428789	-0.0299857574775138	-23.7127632224413	
11435000	-0.0504030724485423	-23.8977511760901	-66.7682315991388	69.8138218261904	-66.7473955166443	103.17624149391	-0.0348444086353965	-24.204100515696	
11630000	-0.0567473836829903	-24.3786067790617	-64.265826849507	74.032300164752	-68.2654094972181	71.3462562841805	-0.0419972112371341	-24.6721890950476	
11825000	-0.0649287778568583	-24.8737353360248	-67.4380281896449	51.0060679672724	-66.7063098030828	60.7129150081868	-0.0437217411056511	-25.1881783663027	
12020000	-0.0631978557646561	-25.3867077927731	-67.5544509516805	66.6103813093843	-66.3819627021556	89.2404767414808	-0.0452243679327849	-25.6870731117509	
12215000	-0.0625980857108806	-25.8833197626582	-66.149124745848	71.1132478239424	-67.8982111394135	68.2511236308281	-0.05113922129875	-26.1849520201354	
12410000	-0.0564139067151376	-26.4323138339656	-65.3582485022192	81.5413007735123	-64.9997267178669	75.411024356965	-0.0502181042222906	-26.7247513385363	
12605000	-0.0539299695819544	-26.9414427567035	-68.7477061724786	69.7551948743563	-69.0621063889571	76.9762938205137	-0.0411269641153729	-27.2426042442373	
12800000	-0.0486437010070381	-27.4860354251032	-64.1259775594126	76.3709296571857	-62.6717672454561	90.8809399381662	-0.0361492731960151	-27.7957690597517	
12995000	-0.0428839127149372	-28.0167090607129	-64.4499438957844	92.3924584023596	-62.7216453469298	74.805306156137	-0.0277817629959755	-28.297193979858	
13190000	-0.0291978462920624	-28.6174420431399	-61.6518199981643	71.7482438403173	-64.8352453607071	86.4230920191041	-0.0141699756048423	-28.8375778426508	
13385000	-0.0285549412813092	-29.15604622032	-63.9279634844519	49.400293641429	-62.7305979304458	69.2477194706333	-0.00350761435967205	-29.4117567641898	
13580000	-0.0170838238851727	-29.694945588025	-60.9166963671658	81.4501099496208	-66.293393053128	73.6035640022554	0.00702470045910171	-29.9249619330656	
13775000	-0.0107934570704397	-30.2671276184495	-62.5841558309688	61.0599065213676	-64.3420929798059	46.3883335558603	0.01402196056408	-30.4715821359894	
13970000	-0.00742424985960936	-30.8253423032041	-64.348366117712	70.0566863616694	-65.4284375086523	82.7665617903439	0.0196949436214861	-31.0627403927976	
14165000	-0.00573911357654877	-31.3960009049812	-63.2939765700293	65.4120282277106	-62.2654670069495	50.9068830558881	0.0277875567166886	-31.6159783611801	
14360000	-0.00185051715263015	-31.9293193779793	-59.4051934467705	72.1459525362336	-63.1976127836663	51.8685617017109	0.0269445752790856	-32.1825303024227	
14555000	-0.00406230492812084	-32.549771310785	-62.8228394182863	92.3493163910723	-60.0332573247255	73.4150952821204	0.0292382999586637	-32.7826839626427	
14750000	-0.00161006274809346	-33.1223568652461	-59.9661289268345	63.1091709931254	-61.3802235596299	68.3446443521291	0.0280675397547744	-33.3197744745266	
14945000	-0.0150496747635949	-33.697395468488	-59.2489304172454	58.9994093601724	-61.2258731709902	80.3886008550452	0.016393508135109	-33.9319329023402	
15140000	-0.0203859275773893	-34.3180246368525	-59.6769810524843	83.0781655505327	-62.366451674553	67.7580846616576	0.0110112502107655	-34.4963590789919	
15335000	-0.02229770782097	-34.8987688452285	-59.8947872272136	62.7057902675559	-63.139598576093	79.2081452533957	0.00479388766507397	-35.0690346728833	
15530000	-0.0301220895055221	-35.5312989682181	-58.7027933713731	65.4690062017429	-60.2626747370525	72.9851062074349	0.00360600885300946	-35.673872332074	
15725000	-0.0354257489235873	-36.1182857849037	-64.5069949745147	29.9721391095489	-62.5414927078101	39.7588086238133	-0.00893467102116556	-36.2776128371608	
15920000	-0.040262430234648	-36.7707330135067	-60.3750208982679	52.42471273078	-63.0941521304615	84.2660198636592	-0.0178410465631737	-36.891862241582	
16115000	-0.0531378259282988	-37.3773122443912	-59.5692151304839	64.5128897646883	-63.0609107696325	47.5149875307894	-0.0253674375679298	-37.4927157695824	
16310000	-0.053886792452577	-38.0142381223788	-60.4683318495965	53.9302934937255	-61.0112643489099	66.1017513472015	-0.0325844937856841	-38.1090180646573	
16505000	-0.0627631622795293	-38.6708515760216	-63.0265435344034	47.7393418314167	-59.3156180255554	61.2765304515488	-0.0349454995340161	-38.7702535018764	
16700000	-0.0691164487310446	-39.368161370606	-60.4414913068004	55.3975886807524	-61.8380080319567	50.807230884518	-0.0428664362469601	-39.4224079423014	
16895000	-0.0721730045394788	-40.0401164563854	-57.8704221813401	57.4727414445506	-58.9673887458552	46.6031777945521	-0.0449751056588128	-40.123137838302	
17090000	-0.0717912085858567	-40.731125564123	-58.9204199811302	48.9049710925952	-61.5671303664579	41.0080134506739	-0.0499861273511581	-40.8519707190699	
17285000	-0.0741495765289352	-41.4201804417991	-59.3384545479619	58.3091840958319	-58.3788783843349	41.1726477871094	-0.0548733535582058	-41.5181258478453	
17480000	-0.0751551463928684	-42.1787366263507	-60.3686210687831	46.2818484965545	-57.1229601398663	52.7455661132785	-0.0635333175483704	-42.2358574354574	
17675000	-0.078502327954894	-42.9040274542834	-56.9299314840501	52.4869264355068	-58.5943329000153	49.7297622678801	-0.0721788963165664	-42.9562351329142	
17870000	-0.0767390810062762	-43.598883474029	-57.219473074686	49.8577802520614	-58.0942431161319	37.8108064812175	-0.0771787621718767	-43.636558658148	
18065000	-0.0754937160660283	-44.339315854492	-57.2917828552812	40.7734383690384	-58.787236075437	47.980350114217	-0.0795427092841089	-44.3934111370937	
18260000	-0.0844663628765409	-45.0965508782756	-57.7591782874191	40.3028188513673	-58.0392107546872	44.8409161676876	-0.0837625121258153	-45.1049470389905	
18455000	-0.0815032713100752	-45.8595917471524	-57.130843749036	44.9010139182153	-57.269801357001	49.956590576587	-0.084335510824762	-45.8414946985195	
18650000	-0.0789736617070212	-46.6411780200405	-56.6256541348145	39.8511069444367	-58.1594714493667	44.4852154832841	-0.0899656309095457	-46.6224856450381	
18845000	-0.081487948688835	-47.4223621055685	-56.6005788360538	38.2057511396779	-56.1408207289496	40.162507748773	-0.0879624065381803	-47.3931372105351	
19040000	-0.0795345216644933	-48.2177592061186	-56.6861971426236	39.417464860231	-55.2865696227853	39.5787349471585	-0.0901233915523247	-48.226501414445	
19235000	-0.0762300543488132	-49.0157740869511	-55.6855575581631	31.8962602517936	-55.1101616106096	36.2626514321063	-0.0912264492936804	-49.0547377169867	
19430000	-0.0803550978459787	-49.8357821040882	-55.5801357166352	29.0588773460103	-56.7842009139864	37.8391993611837	-0.0872878902724726	-49.8722917474515	
19625000	-0.0790965974476888	-50.6313174397606	-55.5505388491792	39.9091271782517	-55.0611776571686	39.8692839970535	-0.0878388193770752	-50.6948977848764	
19820000	-0.0826661339815005	-51.5444891555739	-54.9477597788252	33.617638470411	-55.4995063446783	33.6812163225046	-0.0855719003834468	-51.5486467671063	
20015000	-0.0914872323123089	-52.3941020209635	-54.7749165984605	34.0618351437316	-54.7451367839631	31.1126781564031	-0.0900672843621141	-52.4296645786564	
20210000	-0.102185561376012	-53.2873326067139	-54.7293173234579	28.5718195128262	-54.442885960152	32.3768612671388	-0.0926272092296351	-53.2854252115963	
20405000	-0.113992706908196	-54.2025119532661	-53.8430634110461	23.3318414087795	-53.7439197250427	27.0293863062609	-0.10483605081773	-54.2118821713321	
20600000	-0.126861771981945	-55.1384880330857	-53.3848101569241	22.2657579252917	-53.4495626609483	18.0679627171426	-0.113654238484137	-55.0866545412132	
20795000	-0.142687542620119	-56.094795616805	-52.3330298650035	15.6304159655027	-52.2725721695398	13.8321415240467	-0.12414052588628	-56.0848274002818	
20990000	-0.159453248630355	-57.0809815601996	-52.763523962451	-2.15790184219872	-52.7283995126878	-0.631983673265766	-0.144590618158251	-56.9903288403451	
21185000	-0.173549874759619	-58.047158196705	-55.2558770745275	-6.09943990014524	-55.1487215138306	-5.91180804793296	-0.153455893621325	-57.9456515270045	
21380000	-0.186262197112324	-59.0682381779978	-56.7299080174795	3.97059157463585	-56.3145874720968	-3.12389096301019	-0.166422355550168	-58.9380611268558	
21575000	-0.201867490225337	-60.0949157291478	-55.10509849847	11.3527424872913	-55.8528609126874	7.52461386372003	-0.180237014575896	-59.9800158258226	
21770000	-0.210850013117358	-61.1930048208966	-55.394951651343	13.8369425077784	-54.7655753479963	11.7862957558686	-0.195733807898377	-61.0054847365995	
21965000	-0.21611362171135	-62.2548757200598	-53.8730629772329	13.3058609990487	-54.4385244141092	11.6110203438743	-0.210827117804958	-62.081514832777	
22160000	-0.217957276279964	-63.353406975035	-54.1715100625537	15.2559593035268	-52.8795983325585	16.2557433944334	-0.220921185444275	-63.1570203058259	
22355000	-0.215331085457603	-64.467701155322	-53.7194656153435	10.8098016241305	-53.5991680909741	12.1870781569213	-0.229781825321017	-64.3080227785163	
22550000	-0.216460779307382	-65.5967535546114	-53.0502730570187	5.82814036297788	-53.512716556263	11.3648039461613	-0.230880188603377	-65.4440606285965	
22745000	-0.215425219538534	-66.8001376408553	-53.6109692224606	9.53091171317428	-52.6792625218961	5.3807911198363	-0.228796264563834	-66.6164355092484	
22940000	-0.21745971953248	-67.9819925376283	-52.9601518432833	1.97182343012596	-52.4870428906234	8.38582134947013	-0.221537420236952	-67.7955354765196	
23135000	-0.217970879384821	-69.2249689447076	-51.7837264647022	2.59644683585796	-51.9543655775684	9.75169680885777	-0.21996360875837	-68.9641231569207	
23330000	-0.221912361064486	-70.4466122281917	-52.3938774726832	4.02149671939779	-51.815028212474	5.14779627389908	-0.216546150564989	-70.1673372407836	
23525000	-0.231075270394973	-71.7562479652833	-51.3930499136494	3.35813460957401	-50.838182849883	-1.0078984851301	-0.214660097195934	-71.3955519073401	
23720000	-0.240398919401031	-73.0392877906042	-51.1018337067643	4.78089173979812	-50.6348305057396	0.913229861400033	-0.209930376935981	-72.6509458393585	
23915000	-0.253026832356733	-74.3828389603553	-50.7380740381998	0.776851675403518	-50.7351520044211	1.61957229319322	-0.219031971338208	-73.9676482794526	
24110000	-0.266398183352406	-75.7374223471213	-50.3066370833986	-1.92356346431432	-49.8229292440847	-2.30887898069166	-0.226408982485963	-75.2843304718308	
24305000	-0.286177618309049	-77.154562041975	-49.5090551585398	-0.669379377348827	-49.3819821716767	-5.03644455022281	-0.23798800744884	-76.6216490732567	
24500000	-0.303346234723801	-78.5667346050058	-49.0783144620256	-5.86368394759245	-49.1446589066908	-5.60255466419791	-0.251936976343451	-78.0198599165898	
24695000	-0.325322869718142	-80.034205103039	-48.2427170176614	-6.46552723190791	-48.8774848842101	-9.37006684674357	-0.26408970067368	-79.3880017304019	
24890000	-0.340174631689375	-81.5316068381231	-48.7572629546331	-10.6284011547891	-48.480602093492	-8.12604001792299	-0.282815333957476	-80.8716545982928	
25085000	-0.36795691158876	-83.0412884322296	-48.4994880639123	-10.2536561007268	-48.9239551113832	-9.32987171165147	-0.302195748044091	-82.3595170259775	
25280000	-0.39285069629475	-84.6547994195623	-47.4819793657021	-13.245794009707	-48.3738899838963	-13.3813305998637	-0.326147617889301	-83.8771949623698	
25475000	-0.418880750724399	-86.2767335210051	-47.6390360815479	-16.9547446454235	-47.4451294334424	-14.4938591502113	-0.345172129753971	-85.4635497725464	
25670000	-0.44908574564459	-87.9561703100633	-47.3813907939411	-18.9832618814238	-47.3926287416639	-18.240605043539	-0.368275422159668	-87.0640603544067	
25865000	-0.490814419934478	-89.6246640724917	-46.4636923823713	-21.9544223826135	-46.8434422245737	-19.1746583767997	-0.395177130891953	-88.6754195523838	
26060000	-0.521547827969912	-91.3482813500125	-46.6657662092576	-19.62876167877	-46.4461088473304	-20.4632910809162	-0.422180453232532	-90.3623495411535	
26255000	-0.56422405969503	-93.1200939117508	-46.6970536435701	-21.9198131575471	-46.8925111448067	-24.2689131795332	-0.451629941746901	-92.1016299540078	
26450000	-0.60501766536643	-94.9971780275244	-45.7214901921351	-26.4451668657926	-45.9567702460736	-25.9306269098847	-0.491492009066422	-93.8488953611627	
26645000	-0.644207346113744	-96.834028784953	-45.2703313005066	-25.7941698837803	-45.0383912311774	-28.2929751811324	-0.519952116738078	-95.6791695106211	
26840000	-0.684612943181536	-98.7579451595844	-45.1524878468175	-28.4540441971433	-44.8938376497517	-29.0944539524426	-0.558911526194889	-97.5542402634252	
27035000	-0.724580192109535	-100.716965267098	-44.6834782940782	-31.2085337929459	-44.2971152759183	-30.8232841329536	-0.601738552994884	-99.5038164281963	
27230000	-0.764889039689003	-102.785644470293	-44.0631482006954	-32.5455856516633	-44.0922907458319	-32.5882585808839	-0.636590998806686	-101.463989703216	
27425000	-0.800608193678941	-104.863449203856	-43.8441024116038	-36.3431738514092	-43.8015623978643	-35.2411304623645	-0.679957696924713	-103.494313701823	
27620000	-0.839548113029131	-107.023111958076	-43.5544326255549	-36.9638307963149	-43.2742476336622	-36.8586826183254	-0.718718586453219	-105.562856286483	
27815000	-0.888865455947839	-109.206839771734	-42.7907636253792	-39.4003310583648	-42.8678730548221	-40.2979971387384	-0.758758209646395	-107.687042254843	
28010000	-0.935831362142525	-111.480487872586	-42.4616397130676	-41.1425524344281	-42.340802967926	-41.7528196939863	-0.803359853484662	-109.884085789927	
28205000	-0.976623210738713	-113.76666939282	-42.0561537498467	-43.4322070496877	-42.0404993997392	-44.1898852573829	-0.843861278444413	-112.107061095309	
28400000	-1.03188040104883	-116.115751520882	-41.3679049391393	-46.4701664592503	-41.6843165382744	-46.1142978667229	-0.88122461077387	-114.433565443331	
28595000	-1.08116164888139	-118.502274889826	-40.9431151167486	-48.1418547376843	-41.0300280655589	-49.0101583559932	-0.929534763251774	-116.79737426248	
28790000	-1.14507201771761	-121.016682798333	-40.5617512599321	-51.6432805292153	-40.5485308479576	-50.8029497258319	-0.971564477518491	-119.185396656321	
28985000	-1.21457666477832	-123.533470303395	-39.9454518429975	-53.8551006161682	-39.9561240552139	-52.6046263376749	-1.02019581929082	-121.676400473102	
29180000	-1.28328924174053	-126.120172120586	-39.4214743836327	-56.2554142402075	-39.6024656746017	-56.1601311055582	-1.07021259080957	-124.196080823885	
