# Hz S DB R 50
! CMT, M5045, 22160017, 22.3.3/2
! Date: 10/8/2022 18:21:36
! Data: Format (Calibration Info)
! Freq	S11:dB/Ang(F2)	S21:dB/Ang(F2)	S12:dB/Ang(F2)	S22:dB/Ang(F2)
5.00000000000E+06	-1.00503578359E+01	-9.16334150708E+01	3.63245977969E+01	-1.50242643282E+02	-4.84736312486E+01	-1.47438156191E+02	-1.42874865293E+01	6.46193439840E+01
5.19500000000E+06	-1.03885147482E+01	-9.31853726634E+01	3.63957355355E+01	-1.52513064379E+02	-4.84041354900E+01	-1.49675918302E+02	-1.48523009924E+01	6.32441606324E+01
5.39000000000E+06	-1.07108629047E+01	-9.45624383634E+01	3.64585052966E+01	-1.54619839660E+02	-4.83265791019E+01	-1.51879268478E+02	-1.54049737982E+01	6.19668342633E+01
5.58500000000E+06	-1.10139602636E+01	-9.59459931086E+01	3.65153573827E+01	-1.56672774790E+02	-4.82705164359E+01	-1.53955674915E+02	-1.59459377510E+01	6.07771910450E+01
5.78000000000E+06	-1.13196980573E+01	-9.72935586481E+01	3.65650842117E+01	-1.58630912886E+02	-4.82135987366E+01	-1.55898470167E+02	-1.64772149483E+01	5.96416903484E+01
5.97500000000E+06	-1.16011694562E+01	-9.85886322646E+01	3.66130095737E+01	-1.60512678954E+02	-4.81568897720E+01	-1.57733438869E+02	-1.70001354722E+01	5.85768099573E+01
6.17000000000E+06	-1.18841549749E+01	-9.98171370847E+01	3.66536310883E+01	-1.62287123056E+02	-4.81161027394E+01	-1.59541303504E+02	-1.75126858346E+01	5.75648186978E+01
6.36500000000E+06	-1.21571391468E+01	-1.00998847336E+02	3.66896726849E+01	-1.64001183987E+02	-4.80717375482E+01	-1.61216544709E+02	-1.80176457739E+01	5.66076093035E+01
6.56000000000E+06	-1.24184140810E+01	-1.02182382489E+02	3.67231989327E+01	-1.65627480055E+02	-4.80307151145E+01	-1.62876413642E+02	-1.85166765919E+01	5.56791793038E+01
6.75500000000E+06	-1.26728843831E+01	-1.03368330989E+02	3.67527719190E+01	-1.67247934492E+02	-4.79992498236E+01	-1.64431229000E+02	-1.90065738524E+01	5.47897677157E+01
6.95000000000E+06	-1.29202599117E+01	-1.04453762461E+02	3.67804101525E+01	-1.68754914273E+02	-4.79666361267E+01	-1.65982025638E+02	-1.94935192997E+01	5.39462627174E+01
7.14500000000E+06	-1.31587211412E+01	-1.05559821633E+02	3.68058939998E+01	-1.70228735522E+02	-4.79402118524E+01	-1.67469634971E+02	-1.99763854695E+01	5.31288974425E+01
7.34000000000E+06	-1.33989074018E+01	-1.06628431076E+02	3.68307376740E+01	-1.71670005705E+02	-4.79115175286E+01	-1.68902122629E+02	-2.04520478367E+01	5.23065914256E+01
7.53500000000E+06	-1.36264243579E+01	-1.07710042919E+02	3.68471313111E+01	-1.73052798165E+02	-4.78814313014E+01	-1.70251764004E+02	-2.09241437676E+01	5.15419330081E+01
7.73000000000E+06	-1.38472916592E+01	-1.08720786340E+02	3.68667675456E+01	-1.74385697305E+02	-4.78648851955E+01	-1.71624486498E+02	-2.13940080838E+01	5.07832808978E+01
7.92500000000E+06	-1.40779609337E+01	-1.09765558839E+02	3.68784412481E+01	-1.75705747394E+02	-4.78448575645E+01	-1.72957407777E+02	-2.18621102137E+01	5.00236774321E+01
8.12000000000E+06	-1.42835541846E+01	-1.10790679293E+02	3.68974533766E+01	-1.76982206298E+02	-4.78210694969E+01	-1.74206616086E+02	-2.23328383283E+01	4.93139665929E+01
8.31500000000E+06	-1.44901817859E+01	-1.11823787506E+02	3.69128463328E+01	-1.78236968647E+02	-4.78027870597E+01	-1.75445868109E+02	-2.27952562715E+01	4.85889505912E+01
8.51000000000E+06	-1.46995704282E+01	-1.12831015456E+02	3.69276298805E+01	-1.79452571710E+02	-4.77885245004E+01	-1.76682148127E+02	-2.32661148420E+01	4.78589840937E+01
8.70500000000E+06	-1.48985624044E+01	-1.13813928422E+02	3.69403296034E+01	1.79369586503E+02	-4.77736209472E+01	-1.77794499877E+02	-2.37362661220E+01	4.71286902150E+01
8.90000000000E+06	-1.50893975596E+01	-1.14807133960E+02	3.69500397123E+01	1.78214683160E+02	-4.77601936770E+01	-1.78959145520E+02	-2.42023455576E+01	4.64375517137E+01
9.09500000000E+06	-1.52887245217E+01	-1.15754227327E+02	3.69594375027E+01	1.77080828780E+02	-4.77457415957E+01	1.79876663255E+02	-2.46732830234E+01	4.57242306913E+01
9.29000000000E+06	-1.54696795839E+01	-1.16760190276E+02	3.69709238706E+01	1.75973148788E+02	-4.77320050223E+01	1.78787294895E+02	-2.51485516816E+01	4.50030956514E+01
9.48500000000E+06	-1.56603987929E+01	-1.17682949463E+02	3.69847757223E+01	1.74876852657E+02	-4.77216214475E+01	1.77690407790E+02	-2.56280012655E+01	4.42758689835E+01
9.68000000000E+06	-1.58459860230E+01	-1.18673203055E+02	3.69883249846E+01	1.73800565570E+02	-4.77145631497E+01	1.76637340451E+02	-2.61162526094E+01	4.35236591430E+01
9.87500000000E+06	-1.60240506825E+01	-1.19594225948E+02	3.69964721639E+01	1.72770702937E+02	-4.77031679086E+01	1.75567706549E+02	-2.66009699075E+01	4.27626253364E+01
1.00700000000E+07	-1.62027775003E+01	-1.20475044867E+02	3.70030616434E+01	1.71745220391E+02	-4.76945544045E+01	1.74544866013E+02	-2.71180940853E+01	4.18732480651E+01
1.02650000000E+07	-1.63783832391E+01	-1.21459935751E+02	3.70095663490E+01	1.70711451903E+02	-4.76847488796E+01	1.73546232151E+02	-2.76505586668E+01	4.11583887267E+01
1.04600000000E+07	-1.65542337862E+01	-1.22412404342E+02	3.70163101948E+01	1.69676353951E+02	-4.76751450824E+01	1.72574178882E+02	-2.81849470831E+01	4.04117812599E+01
1.06550000000E+07	-1.67285191535E+01	-1.23296670096E+02	3.70196534807E+01	1.68705126909E+02	-4.76682257837E+01	1.71576115287E+02	-2.87276802839E+01	3.96721733214E+01
1.08500000000E+07	-1.68891499110E+01	-1.24180154999E+02	3.70236572618E+01	1.67757131686E+02	-4.76624233399E+01	1.70594747061E+02	-2.92790713980E+01	3.89653484499E+01
1.10450000000E+07	-1.70528482686E+01	-1.25082853639E+02	3.70310120201E+01	1.66779057006E+02	-4.76522558762E+01	1.69591351440E+02	-2.98390452829E+01	3.82378364323E+01
1.12400000000E+07	-1.72170561755E+01	-1.25992255166E+02	3.70367323079E+01	1.65858234240E+02	-4.76468289838E+01	1.68677640512E+02	-3.04159108954E+01	3.75406595591E+01
1.14350000000E+07	-1.73772275329E+01	-1.26873737690E+02	3.70374665666E+01	1.64925953557E+02	-4.76405450207E+01	1.67713494751E+02	-3.09971203760E+01	3.67548373847E+01
1.16300000000E+07	-1.75252956582E+01	-1.27749969736E+02	3.70460922571E+01	1.64012567770E+02	-4.76364248403E+01	1.66732939103E+02	-3.16076098684E+01	3.58655277039E+01
1.18250000000E+07	-1.76772792107E+01	-1.28681457765E+02	3.70501967650E+01	1.63060109384E+02	-4.76217375712E+01	1.65784883601E+02	-3.22220194200E+01	3.49828414500E+01
1.20200000000E+07	-1.78371925422E+01	-1.29582131438E+02	3.70487552264E+01	1.62123064138E+02	-4.76182371535E+01	1.64871721749E+02	-3.28740219253E+01	3.39345338202E+01
1.22150000000E+07	-1.79732054461E+01	-1.30507147359E+02	3.70558789491E+01	1.61214996200E+02	-4.76152231134E+01	1.63949950773E+02	-3.35416541579E+01	3.29174934509E+01
1.24100000000E+07	-1.81256228033E+01	-1.31417276751E+02	3.70566513919E+01	1.60324247138E+02	-4.76155170588E+01	1.63027991240E+02	-3.42673207568E+01	3.17351914925E+01
1.26050000000E+07	-1.82676924824E+01	-1.32241251267E+02	3.70594516805E+01	1.59463201946E+02	-4.76032294775E+01	1.62161347103E+02	-3.50159550456E+01	3.04247799693E+01
1.28000000000E+07	-1.84142182976E+01	-1.33163686644E+02	3.70640822992E+01	1.58626261677E+02	-4.76015925357E+01	1.61253471041E+02	-3.58123685615E+01	2.91241239375E+01
1.29950000000E+07	-1.85553638568E+01	-1.33961212804E+02	3.70623314802E+01	1.57792622945E+02	-4.76036382163E+01	1.60399252909E+02	-3.66721559496E+01	2.76280932273E+01
1.31900000000E+07	-1.87030658253E+01	-1.34849217373E+02	3.70651070692E+01	1.56944707948E+02	-4.75979612102E+01	1.59549609310E+02	-3.75769634488E+01	2.58230479875E+01
1.33850000000E+07	-1.88469685018E+01	-1.35769450259E+02	3.70682649571E+01	1.56105754348E+02	-4.75974554057E+01	1.58647895356E+02	-3.85587371230E+01	2.38854188559E+01
1.35800000000E+07	-1.89819980455E+01	-1.36538247484E+02	3.70749693020E+01	1.55317055093E+02	-4.76024404655E+01	1.57848574259E+02	-3.96331411542E+01	2.15542101164E+01
1.37750000000E+07	-1.91159179538E+01	-1.37457905979E+02	3.70759337642E+01	1.54481360184E+02	-4.75971920361E+01	1.57028754642E+02	-4.07786750540E+01	1.86994381848E+01
1.39700000000E+07	-1.92523486396E+01	-1.38301100319E+02	3.70780604977E+01	1.53645802779E+02	-4.75953404512E+01	1.56242098580E+02	-4.20759415316E+01	1.52516758994E+01
1.41650000000E+07	-1.93905442774E+01	-1.39054514814E+02	3.70775301913E+01	1.52877587050E+02	-4.75903937117E+01	1.55412971752E+02	-4.35114287323E+01	1.06755041867E+01
1.43600000000E+07	-1.95375115875E+01	-1.39940534396E+02	3.70771782041E+01	1.52047638441E+02	-4.75851657481E+01	1.54614194876E+02	-4.50899494335E+01	4.63839763604E+00
1.45550000000E+07	-1.96518756183E+01	-1.40626344330E+02	3.70811071218E+01	1.51275544588E+02	-4.75838562721E+01	1.53848686331E+02	-4.68478943349E+01	-4.18561014201E+00
1.47500000000E+07	-1.97875774260E+01	-1.41433919043E+02	3.70821418603E+01	1.50491542199E+02	-4.75832386324E+01	1.53034808399E+02	-4.86365574101E+01	-1.64191019789E+01
1.49450000000E+07	-1.99096463910E+01	-1.42254677373E+02	3.70879073298E+01	1.49695107482E+02	-4.75793308938E+01	1.52253154983E+02	-5.01359928508E+01	-3.44441941447E+01
1.51400000000E+07	-2.00372457790E+01	-1.43046860448E+02	3.70887629057E+01	1.48947620764E+02	-4.75761830207E+01	1.51497954100E+02	-5.07191654825E+01	-5.63840230201E+01
1.53350000000E+07	-2.01619739678E+01	-1.43779469335E+02	3.70891159539E+01	1.48168319700E+02	-4.75811319625E+01	1.50695286541E+02	-5.00216583697E+01	-7.81802701594E+01
1.55300000000E+07	-2.02867134101E+01	-1.44566787333E+02	3.70904669632E+01	1.47402627189E+02	-4.75776451655E+01	1.49923921445E+02	-4.85832156125E+01	-9.45121973559E+01
1.57250000000E+07	-2.04283047168E+01	-1.45457451394E+02	3.70922345946E+01	1.46625921137E+02	-4.75741904156E+01	1.49194942244E+02	-4.70196843863E+01	-1.05852490473E+02
1.59200000000E+07	-2.05320794711E+01	-1.46118775929E+02	3.70959385501E+01	1.45860873317E+02	-4.75715603613E+01	1.48401817791E+02	-4.55078500905E+01	-1.13781157784E+02
1.61150000000E+07	-2.06615437869E+01	-1.46935419305E+02	3.70975155150E+01	1.45099428611E+02	-4.75701067109E+01	1.47698214223E+02	-4.41298620333E+01	-1.19641237941E+02
1.63100000000E+07	-2.07840297946E+01	-1.47751021516E+02	3.71001094202E+01	1.44332399687E+02	-4.75686443151E+01	1.46936528035E+02	-4.29438088564E+01	-1.23536184955E+02
1.65050000000E+07	-2.08973017984E+01	-1.48459661635E+02	3.71026532311E+01	1.43592118253E+02	-4.75674568882E+01	1.46184074386E+02	-4.18383015198E+01	-1.26935142960E+02
1.67000000000E+07	-2.10131326142E+01	-1.49269889570E+02	3.70990618978E+01	1.42837265791E+02	-4.75690636530E+01	1.45481370166E+02	-4.08909002945E+01	-1.29702034672E+02
1.68950000000E+07	-2.11383827258E+01	-1.49999418623E+02	3.70976854067E+01	1.42106502877E+02	-4.75701075255E+01	1.44746205750E+02	-4.00451670916E+01	-1.32074860330E+02
1.70900000000E+07	-2.12484790281E+01	-1.50712689023E+02	3.71021982488E+01	1.41366602787E+02	-4.75645467327E+01	1.44012600359E+02	-3.92772338015E+01	-1.33849183582E+02
1.72850000000E+07	-2.13612403392E+01	-1.51452442609E+02	3.71009995523E+01	1.40621478693E+02	-4.75647705459E+01	1.43311393913E+02	-3.85896243101E+01	-1.35615284271E+02
1.74800000000E+07	-2.14821546979E+01	-1.52232978266E+02	3.71066860544E+01	1.39888649485E+02	-4.75616301635E+01	1.42582557932E+02	-3.79657712523E+01	-1.36937324608E+02
1.76750000000E+07	-2.15797351494E+01	-1.52940180369E+02	3.71076083361E+01	1.39146415627E+02	-4.75628075296E+01	1.41853977974E+02	-3.73780032170E+01	-1.38300182740E+02
1.78700000000E+07	-2.16936394075E+01	-1.53647488097E+02	3.71070976729E+01	1.38448908486E+02	-4.75561779054E+01	1.41132241081E+02	-3.68469780470E+01	-1.39388571308E+02
1.80650000000E+07	-2.18099308653E+01	-1.54317476529E+02	3.71068131965E+01	1.37693197208E+02	-4.75597527055E+01	1.40425446592E+02	-3.63414260779E+01	-1.40444614289E+02
1.82600000000E+07	-2.19158249622E+01	-1.54997481722E+02	3.71085619402E+01	1.37009286337E+02	-4.75585315187E+01	1.39727908372E+02	-3.58615032335E+01	-1.41471715026E+02
1.84550000000E+07	-2.20264531055E+01	-1.55744906145E+02	3.71089772698E+01	1.36270978794E+02	-4.75565172218E+01	1.39043946191E+02	-3.54329563998E+01	-1.42346466436E+02
1.86500000000E+07	-2.21294403040E+01	-1.56491763692E+02	3.71104156321E+01	1.35565554860E+02	-4.75563471360E+01	1.38337741607E+02	-3.50219418626E+01	-1.43283446337E+02
1.88450000000E+07	-2.22311171814E+01	-1.57099509762E+02	3.71115571849E+01	1.34868236632E+02	-4.75533482652E+01	1.37643792174E+02	-3.46180182083E+01	-1.44041465364E+02
1.90400000000E+07	-2.23421415150E+01	-1.57897182335E+02	3.71141998613E+01	1.34144554967E+02	-4.75535928526E+01	1.36955467737E+02	-3.42595700943E+01	-1.44821820698E+02
1.92350000000E+07	-2.24413474259E+01	-1.58524115084E+02	3.71135387994E+01	1.33433176280E+02	-4.75525628413E+01	1.36250474102E+02	-3.39092719892E+01	-1.45614249802E+02
1.94300000000E+07	-2.25515557962E+01	-1.59226176199E+02	3.71131115913E+01	1.32706694345E+02	-4.75481299602E+01	1.35572746483E+02	-3.35797262013E+01	-1.46316229761E+02
1.96250000000E+07	-2.26424966100E+01	-1.59879932726E+02	3.71161451761E+01	1.32029080800E+02	-4.75529870629E+01	1.34855699531E+02	-3.32596796558E+01	-1.46942585275E+02
1.98200000000E+07	-2.27317185047E+01	-1.60591421968E+02	3.71188794288E+01	1.31312238869E+02	-4.75531694270E+01	1.34193044736E+02	-3.29610937397E+01	-1.47599871519E+02
2.00150000000E+07	-2.28527025304E+01	-1.61287932672E+02	3.71147004379E+01	1.30610506028E+02	-4.75556376296E+01	1.33514761151E+02	-3.26695994342E+01	-1.48295540104E+02
2.02100000000E+07	-2.29485889305E+01	-1.61878597581E+02	3.71177368575E+01	1.29910845604E+02	-4.75474888789E+01	1.32816111989E+02	-3.23976584196E+01	-1.48911052691E+02
2.04050000000E+07	-2.30276371648E+01	-1.62556097239E+02	3.71174485983E+01	1.29257585495E+02	-4.75499897248E+01	1.32155306325E+02	-3.21342310198E+01	-1.49560294108E+02
2.06000000000E+07	-2.31378561047E+01	-1.63292267009E+02	3.71191477413E+01	1.28504787108E+02	-4.75510967341E+01	1.31460941852E+02	-3.18794512266E+01	-1.50134552771E+02
2.07950000000E+07	-2.32508943930E+01	-1.63882263401E+02	3.71198686976E+01	1.27852546077E+02	-4.75465873553E+01	1.30817816793E+02	-3.16346789806E+01	-1.50732185113E+02
2.09900000000E+07	-2.33436345662E+01	-1.64605405553E+02	3.71207443635E+01	1.27141250691E+02	-4.75459972381E+01	1.30142374247E+02	-3.13971152932E+01	-1.51335877601E+02
2.11850000000E+07	-2.34376306487E+01	-1.65244563137E+02	3.71224244371E+01	1.26435643832E+02	-4.75482278049E+01	1.29456773866E+02	-3.11722808660E+01	-1.51893150589E+02
2.13800000000E+07	-2.35280071123E+01	-1.65871247426E+02	3.71216383345E+01	1.25770030602E+02	-4.75443148105E+01	1.28797688691E+02	-3.09555107160E+01	-1.52507697477E+02
2.15750000000E+07	-2.36220419025E+01	-1.66466372555E+02	3.71212651112E+01	1.25080490367E+02	-4.75435768273E+01	1.28121229491E+02	-3.07484641276E+01	-1.53053482727E+02
2.17700000000E+07	-2.37208989213E+01	-1.67146995084E+02	3.71224387698E+01	1.24394115698E+02	-4.75447708862E+01	1.27466494294E+02	-3.05483324279E+01	-1.53595174013E+02
2.19650000000E+07	-2.38036336118E+01	-1.67763655565E+02	3.71221891906E+01	1.23705338446E+02	-4.75436972844E+01	1.26788671445E+02	-3.03524698383E+01	-1.54156001379E+02
2.21600000000E+07	-2.39111469981E+01	-1.68443341195E+02	3.71215967855E+01	1.23038543805E+02	-4.75474920568E+01	1.26125746459E+02	-3.01672467889E+01	-1.54719151927E+02
2.23550000000E+07	-2.39937672998E+01	-1.69011247772E+02	3.71240271159E+01	1.22364304704E+02	-4.75483410837E+01	1.25482845634E+02	-2.99798295843E+01	-1.55279285598E+02
2.25500000000E+07	-2.40772508741E+01	-1.69655302041E+02	3.71255170177E+01	1.21675700874E+02	-4.75440696605E+01	1.24805021500E+02	-2.98020713321E+01	-1.55785593570E+02
2.27450000000E+07	-2.41704824670E+01	-1.70294561959E+02	3.71206523275E+01	1.21014139656E+02	-4.75437909998E+01	1.24152261333E+02	-2.96286176776E+01	-1.56318300674E+02
2.29400000000E+07	-2.42545379749E+01	-1.70908617012E+02	3.71287852783E+01	1.20301332994E+02	-4.75406698262E+01	1.23482677522E+02	-2.94671716660E+01	-1.56836543667E+02
2.31350000000E+07	-2.43430739920E+01	-1.71583762314E+02	3.71235052458E+01	1.19652379280E+02	-4.75458759500E+01	1.22857787261E+02	-2.93032403318E+01	-1.57311917312E+02
2.33300000000E+07	-2.44232780295E+01	-1.72156614316E+02	3.71247397674E+01	1.18980281365E+02	-4.75446210654E+01	1.22178883093E+02	-2.91459485387E+01	-1.57854917093E+02
2.35250000000E+07	-2.45134624065E+01	-1.72767999100E+02	3.71237448946E+01	1.18284301784E+02	-4.75430236701E+01	1.21547840165E+02	-2.89928974250E+01	-1.58352133908E+02
2.37200000000E+07	-2.46046595856E+01	-1.73383621427E+02	3.71274854508E+01	1.17625908483E+02	-4.75425610882E+01	1.20897673483E+02	-2.88498316349E+01	-1.58861595338E+02
2.39150000000E+07	-2.46885295777E+01	-1.73959400733E+02	3.71284532967E+01	1.16964626944E+02	-4.75420635921E+01	1.20273314118E+02	-2.86953799789E+01	-1.59383675021E+02
2.41100000000E+07	-2.47668577688E+01	-1.74569754993E+02	3.71272481436E+01	1.16285592035E+02	-4.75425307179E+01	1.19647584773E+02	-2.85569235699E+01	-1.59905232427E+02
2.43050000000E+07	-2.48605145412E+01	-1.75124756739E+02	3.71257336735E+01	1.15627087542E+02	-4.75451017069E+01	1.18991755208E+02	-2.84134088398E+01	-1.60383393679E+02
2.45000000000E+07	-2.49381478114E+01	-1.75835520629E+02	3.71222381349E+01	1.14951761730E+02	-4.75428716565E+01	1.18341371026E+02	-2.82788105182E+01	-1.60874577427E+02
2.46950000000E+07	-2.50186507260E+01	-1.76452319216E+02	3.71243339399E+01	1.14290641171E+02	-4.75472799996E+01	1.17713794571E+02	-2.81471743546E+01	-1.61363407242E+02
2.48900000000E+07	-2.50956455768E+01	-1.76871943267E+02	3.71286738663E+01	1.13601378410E+02	-4.75407324361E+01	1.17057559205E+02	-2.80173932491E+01	-1.61889080250E+02
2.50850000000E+07	-2.51836131042E+01	-1.77525358792E+02	3.71259668048E+01	1.12957393171E+02	-4.75424427376E+01	1.16393862608E+02	-2.78898174096E+01	-1.62339824912E+02
2.52800000000E+07	-2.52650796957E+01	-1.78091040692E+02	3.71268444592E+01	1.12331615237E+02	-4.75408562864E+01	1.15764854411E+02	-2.77638295503E+01	-1.62856622182E+02
2.54750000000E+07	-2.53414788180E+01	-1.78546872152E+02	3.71253416315E+01	1.11632393989E+02	-4.75438864407E+01	1.15148301533E+02	-2.76456675211E+01	-1.63345949728E+02
2.56700000000E+07	-2.54264811056E+01	-1.79204552742E+02	3.71299371564E+01	1.10998087246E+02	-4.75417057224E+01	1.14499101723E+02	-2.75239385463E+01	-1.63877272246E+02
2.58650000000E+07	-2.54970272300E+01	-1.79829666824E+02	3.71249293773E+01	1.10328362208E+02	-4.75420017161E+01	1.13875147098E+02	-2.74089993953E+01	-1.64386130642E+02
2.60600000000E+07	-2.55834300287E+01	1.79679394485E+02	3.71277146565E+01	1.09667937243E+02	-4.75385930760E+01	1.13234519371E+02	-2.72920282579E+01	-1.64871220453E+02
2.62550000000E+07	-2.56671285229E+01	1.79002825335E+02	3.71230780043E+01	1.09015903784E+02	-4.75409800452E+01	1.12599177363E+02	-2.71814476572E+01	-1.65362550523E+02
2.64500000000E+07	-2.57535328550E+01	1.78530927759E+02	3.71248769702E+01	1.08337996443E+02	-4.75384049098E+01	1.11949222871E+02	-2.70719383914E+01	-1.65865498594E+02
2.66450000000E+07	-2.58344559846E+01	1.77803173581E+02	3.71243502549E+01	1.07682613732E+02	-4.75444343709E+01	1.11338853420E+02	-2.69653379535E+01	-1.66375977042E+02
2.68400000000E+07	-2.59084314091E+01	1.77338869737E+02	3.71247967777E+01	1.07017978146E+02	-4.75401024507E+01	1.10713612788E+02	-2.68584214125E+01	-1.66891498856E+02
2.70350000000E+07	-2.59682128248E+01	1.76868662579E+02	3.71267938746E+01	1.06392167181E+02	-4.75418503271E+01	1.10071642956E+02	-2.67575455238E+01	-1.67388729891E+02
2.72300000000E+07	-2.60479408975E+01	1.76245457797E+02	3.71225144263E+01	1.05739116358E+02	-4.75419178737E+01	1.09444854646E+02	-2.66580812796E+01	-1.67879327212E+02
2.74250000000E+07	-2.61444982682E+01	1.75687777258E+02	3.71224253409E+01	1.05080286779E+02	-4.75385068875E+01	1.08833214830E+02	-2.65581370739E+01	-1.68384656849E+02
2.76200000000E+07	-2.62143356135E+01	1.75278405482E+02	3.71244835943E+01	1.04443404585E+02	-4.75407399344E+01	1.08184930020E+02	-2.64580443677E+01	-1.68888749879E+02
2.78150000000E+07	-2.62666047348E+01	1.74601895436E+02	3.71224742859E+01	1.03778171919E+02	-4.75407212968E+01	1.07577587675E+02	-2.63633215475E+01	-1.69380418337E+02
