# Hz S DB R 50
! CMT, M5045, 22160017, 22.3.3/2
! Date: 10/8/2022 17:27:05
! Data: Format (Calibration Info)
! Freq	S11:dB/Ang(F2)	S21:dB/Ang(F2)	S12:dB/Ang(F2)	S22:dB/Ang(F2)
5.00000000000E+06	-1.00478133309E+01	-9.09270668241E+01	3.64842588639E+01	-1.50847021030E+02	-4.84930707401E+01	-1.47933113249E+02	-1.48203950840E+01	6.35368433756E+01
5.19500000000E+06	-1.03768403032E+01	-9.23397520031E+01	3.65581325409E+01	-1.53072692970E+02	-4.84143025961E+01	-1.50155181596E+02	-1.54090897790E+01	6.22241667981E+01
5.39000000000E+06	-1.06969726994E+01	-9.37783815115E+01	3.66189168664E+01	-1.55217052234E+02	-4.83551232687E+01	-1.52315462287E+02	-1.59865260078E+01	6.10207247473E+01
5.58500000000E+06	-1.10077312935E+01	-9.51358113321E+01	3.66727128270E+01	-1.57224008328E+02	-4.82927697108E+01	-1.54389043592E+02	-1.65529777298E+01	5.99017670449E+01
5.78000000000E+06	-1.13029425947E+01	-9.64351027492E+01	3.67287888764E+01	-1.59167090404E+02	-4.82285650465E+01	-1.56324351899E+02	-1.71097342750E+01	5.88482502769E+01
5.97500000000E+06	-1.15911906962E+01	-9.76992454508E+01	3.67665564564E+01	-1.61044036742E+02	-4.81884690507E+01	-1.58189394475E+02	-1.76572870463E+01	5.78541297208E+01
6.17000000000E+06	-1.18661827516E+01	-9.88731763087E+01	3.68072654251E+01	-1.62779574463E+02	-4.81390185258E+01	-1.59985248841E+02	-1.81980838072E+01	5.69404994339E+01
6.36500000000E+06	-1.21395859641E+01	-1.00083564076E+02	3.68433654094E+01	-1.64495711533E+02	-4.81012249955E+01	-1.61656805753E+02	-1.87304128901E+01	5.60481036454E+01
6.56000000000E+06	-1.24009438984E+01	-1.01283226472E+02	3.68774164828E+01	-1.66158753341E+02	-4.80645842350E+01	-1.63311520329E+02	-1.92578755671E+01	5.52180048162E+01
6.75500000000E+06	-1.26490768401E+01	-1.02410209116E+02	3.69063324908E+01	-1.67741957242E+02	-4.80331478549E+01	-1.64880570560E+02	-1.97773943868E+01	5.44236743935E+01
6.95000000000E+06	-1.29020883840E+01	-1.03506787344E+02	3.69303521210E+01	-1.69251251687E+02	-4.79968762652E+01	-1.66411812652E+02	-2.02959989884E+01	5.36890158854E+01
7.14500000000E+06	-1.31411236845E+01	-1.04563788248E+02	3.69548197899E+01	-1.70718977333E+02	-4.79684935692E+01	-1.67898967253E+02	-2.08082055496E+01	5.29705751408E+01
7.34000000000E+06	-1.33767180031E+01	-1.05630463071E+02	3.69770828969E+01	-1.72150811152E+02	-4.79459447277E+01	-1.69284690081E+02	-2.13165440819E+01	5.22685741866E+01
7.53500000000E+06	-1.36045220432E+01	-1.06686388925E+02	3.69981215594E+01	-1.73521289965E+02	-4.79151438534E+01	-1.70674397772E+02	-2.18216521797E+01	5.16387984680E+01
7.73000000000E+06	-1.38317047696E+01	-1.07707239128E+02	3.70171230180E+01	-1.74874860035E+02	-4.78954150520E+01	-1.72035514987E+02	-2.23259068390E+01	5.09943721144E+01
7.92500000000E+06	-1.40439282497E+01	-1.08720138869E+02	3.70325461411E+01	-1.76188726110E+02	-4.78787056019E+01	-1.73339471931E+02	-2.28364657507E+01	5.03689121469E+01
8.12000000000E+06	-1.42611194367E+01	-1.09758442664E+02	3.70437295617E+01	-1.77475893833E+02	-4.78572070972E+01	-1.74602212000E+02	-2.33427400636E+01	4.97858393387E+01
8.31500000000E+06	-1.44675392975E+01	-1.10693100554E+02	3.70575219875E+01	-1.78673712459E+02	-4.78371294069E+01	-1.75809960030E+02	-2.38490090063E+01	4.92310428334E+01
8.51000000000E+06	-1.46752001804E+01	-1.11694341260E+02	3.70712960647E+01	-1.79898987600E+02	-4.78195956466E+01	-1.76993681944E+02	-2.43601795348E+01	4.86504713739E+01
8.70500000000E+06	-1.48779739256E+01	-1.12665042716E+02	3.70820143830E+01	1.78909191509E+02	-4.78053681671E+01	-1.78165370372E+02	-2.48733953795E+01	4.81202256926E+01
8.90000000000E+06	-1.50652008662E+01	-1.13569626706E+02	3.70963501617E+01	1.77765760366E+02	-4.77916942344E+01	-1.79290503054E+02	-2.53888774514E+01	4.76025136390E+01
9.09500000000E+06	-1.52573081258E+01	-1.14526132803E+02	3.71064843433E+01	1.76623683486E+02	-4.77821292384E+01	1.79502467733E+02	-2.59093304766E+01	4.70651834516E+01
9.29000000000E+06	-1.54448849657E+01	-1.15492727602E+02	3.71141553622E+01	1.75511096172E+02	-4.77651505035E+01	1.78441396090E+02	-2.64376579084E+01	4.65528217053E+01
9.48500000000E+06	-1.56368524990E+01	-1.16422218449E+02	3.71219145756E+01	1.74440651354E+02	-4.77624669241E+01	1.77373341224E+02	-2.69736006492E+01	4.60520338445E+01
9.68000000000E+06	-1.58091211018E+01	-1.17363195839E+02	3.71314736790E+01	1.73380108734E+02	-4.77503027785E+01	1.76312031848E+02	-2.75225392010E+01	4.55580847539E+01
9.87500000000E+06	-1.59893685478E+01	-1.18242700105E+02	3.71365414099E+01	1.72324014806E+02	-4.77359728706E+01	1.75230492633E+02	-2.80684318918E+01	4.50637559871E+01
1.00700000000E+07	-1.61724963408E+01	-1.19176184331E+02	3.71407794502E+01	1.71308768844E+02	-4.77293876365E+01	1.74255202213E+02	-2.86565570225E+01	4.43652871099E+01
1.02650000000E+07	-1.63448953729E+01	-1.20167982095E+02	3.71520425943E+01	1.70270142061E+02	-4.77241621056E+01	1.73233502824E+02	-2.92645645326E+01	4.39861296549E+01
1.04600000000E+07	-1.65121841186E+01	-1.20999686864E+02	3.71563829964E+01	1.69288314925E+02	-4.77187387881E+01	1.72210148610E+02	-2.98734704718E+01	4.35382072874E+01
1.06550000000E+07	-1.66812175584E+01	-1.21917301897E+02	3.71638063000E+01	1.68304064002E+02	-4.77117256861E+01	1.71258259452E+02	-3.05007458465E+01	4.30957483073E+01
1.08500000000E+07	-1.68527778386E+01	-1.22814818243E+02	3.71688312032E+01	1.67354279844E+02	-4.77010712025E+01	1.70265097337E+02	-3.11522126549E+01	4.26753130577E+01
1.10450000000E+07	-1.70103267471E+01	-1.23660659399E+02	3.71729366327E+01	1.66377247475E+02	-4.77017329523E+01	1.69282373532E+02	-3.18097731520E+01	4.23169390186E+01
1.12400000000E+07	-1.71676083192E+01	-1.24525684159E+02	3.71788099674E+01	1.65434160055E+02	-4.76897445303E+01	1.68326632237E+02	-3.25090277679E+01	4.19329189367E+01
1.14350000000E+07	-1.73279411318E+01	-1.25462134167E+02	3.71810224465E+01	1.64483217777E+02	-4.76772580260E+01	1.67382530523E+02	-3.32354827386E+01	4.16059521842E+01
1.16300000000E+07	-1.74766883237E+01	-1.26344117912E+02	3.71847451645E+01	1.63568167534E+02	-4.76760072514E+01	1.66455167356E+02	-3.39987001653E+01	4.11836539393E+01
1.18250000000E+07	-1.76372125790E+01	-1.27189867210E+02	3.71892410939E+01	1.62631424551E+02	-4.76711633562E+01	1.65512253456E+02	-3.47952748761E+01	4.08694502948E+01
1.20200000000E+07	-1.77882097110E+01	-1.28131552042E+02	3.71900030500E+01	1.61722158793E+02	-4.76725274561E+01	1.64540536586E+02	-3.56615030134E+01	4.04179588022E+01
1.22150000000E+07	-1.79383752921E+01	-1.29031113620E+02	3.71962047097E+01	1.60803659865E+02	-4.76584181818E+01	1.63653551454E+02	-3.65659457705E+01	4.00783533033E+01
1.24100000000E+07	-1.80816060543E+01	-1.29859179615E+02	3.71981910128E+01	1.59902692595E+02	-4.76560452439E+01	1.62738858580E+02	-3.75692414750E+01	3.97604102493E+01
1.26050000000E+07	-1.82400834236E+01	-1.30754001499E+02	3.71974133495E+01	1.59034041931E+02	-4.76543950975E+01	1.61837036995E+02	-3.86612834202E+01	3.94156278906E+01
1.28000000000E+07	-1.83800986082E+01	-1.31526746258E+02	3.72005237063E+01	1.58198401081E+02	-4.76487085273E+01	1.60969069385E+02	-3.98454168035E+01	3.90913919332E+01
1.29950000000E+07	-1.85239212534E+01	-1.32401385980E+02	3.72012938926E+01	1.57369228816E+02	-4.76526597401E+01	1.60117429866E+02	-4.12069528269E+01	3.90217329183E+01
1.31900000000E+07	-1.86649288065E+01	-1.33270941980E+02	3.72049666343E+01	1.56525627955E+02	-4.76464234207E+01	1.59254521828E+02	-4.27771644652E+01	3.88447633594E+01
1.33850000000E+07	-1.88010045750E+01	-1.34059635192E+02	3.72083499541E+01	1.55695265760E+02	-4.76437560048E+01	1.58395257735E+02	-4.45872741417E+01	3.89762461678E+01
1.35800000000E+07	-1.89327911986E+01	-1.34897520989E+02	3.72086784223E+01	1.54880644201E+02	-4.76424859068E+01	1.57585631029E+02	-4.68927084264E+01	3.94007996177E+01
1.37750000000E+07	-1.90857041331E+01	-1.35635883490E+02	3.72114529395E+01	1.54044235792E+02	-4.76412282727E+01	1.56767717209E+02	-4.98011598002E+01	3.99787572811E+01
1.39700000000E+07	-1.92197617488E+01	-1.36479444625E+02	3.72152396820E+01	1.53246021607E+02	-4.76327369719E+01	1.55938909854E+02	-5.41738817004E+01	4.31718805875E+01
1.41650000000E+07	-1.93474187800E+01	-1.37257314681E+02	3.72148185496E+01	1.52463927616E+02	-4.76326341773E+01	1.55129837248E+02	-6.24851165752E+01	5.62601529282E+01
1.43600000000E+07	-1.94761071299E+01	-1.38104785052E+02	3.72197165842E+01	1.51675593764E+02	-4.76327965480E+01	1.54342666292E+02	-6.49096810524E+01	-1.74167473226E+02
1.45550000000E+07	-1.96194337081E+01	-1.38809466614E+02	3.72174498973E+01	1.50858621084E+02	-4.76284316169E+01	1.53550943991E+02	-5.52824147193E+01	-1.54876130084E+02
1.47500000000E+07	-1.97390140675E+01	-1.39658797468E+02	3.72249744464E+01	1.50057107532E+02	-4.76268563375E+01	1.52785993963E+02	-5.08556576256E+01	-1.51846614773E+02
1.49450000000E+07	-1.98642779489E+01	-1.40460673964E+02	3.72211662909E+01	1.49267412710E+02	-4.76264099105E+01	1.51961766950E+02	-4.80007030266E+01	-1.50687915136E+02
1.51400000000E+07	-1.99982875221E+01	-1.41153122250E+02	3.72231617708E+01	1.48492276059E+02	-4.76263547961E+01	1.51211376199E+02	-4.58926220940E+01	-1.50185765619E+02
1.53350000000E+07	-2.01239194673E+01	-1.41864956393E+02	3.72265547273E+01	1.47747721742E+02	-4.76240693881E+01	1.50420318455E+02	-4.41888152331E+01	-1.50034426458E+02
1.55300000000E+07	-2.02493116010E+01	-1.42679048296E+02	3.72293842349E+01	1.46968013203E+02	-4.76202043336E+01	1.49670186933E+02	-4.28399848617E+01	-1.50105913320E+02
1.57250000000E+07	-2.03636259793E+01	-1.43422296466E+02	3.72267602157E+01	1.46189473678E+02	-4.76266823783E+01	1.48914476757E+02	-4.16764009718E+01	-1.50288343209E+02
1.59200000000E+07	-2.04900359208E+01	-1.44108730513E+02	3.72300975501E+01	1.45434076605E+02	-4.76253939829E+01	1.48163914909E+02	-4.06743435266E+01	-1.50346601762E+02
1.61150000000E+07	-2.06089222386E+01	-1.44912212674E+02	3.72324858987E+01	1.44663067048E+02	-4.76185200748E+01	1.47412272328E+02	-3.97878251081E+01	-1.50610826235E+02
1.63100000000E+07	-2.07249354867E+01	-1.45582771212E+02	3.72332558242E+01	1.43921512500E+02	-4.76151226673E+01	1.46673392822E+02	-3.90199070718E+01	-1.50739431552E+02
1.65050000000E+07	-2.08544214828E+01	-1.46321377417E+02	3.72333234417E+01	1.43172305402E+02	-4.76164855352E+01	1.45944408955E+02	-3.82738111817E+01	-1.51019343744E+02
1.67000000000E+07	-2.09583475595E+01	-1.47025216605E+02	3.72341178372E+01	1.42421658970E+02	-4.76168370374E+01	1.45203995063E+02	-3.76202595256E+01	-1.51380879498E+02
1.68950000000E+07	-2.10826277116E+01	-1.47857256195E+02	3.72360776224E+01	1.41668885933E+02	-4.76156399907E+01	1.44491414537E+02	-3.70245033740E+01	-1.51707310540E+02
1.70900000000E+07	-2.11833290410E+01	-1.48526165453E+02	3.72396212997E+01	1.40946845209E+02	-4.76111205207E+01	1.43763412822E+02	-3.64844395328E+01	-1.51973901381E+02
1.72850000000E+07	-2.13092543159E+01	-1.49226045411E+02	3.72375417619E+01	1.40188259240E+02	-4.76121870724E+01	1.43033804533E+02	-3.59735603372E+01	-1.52443179336E+02
1.74800000000E+07	-2.14152861816E+01	-1.49935942913E+02	3.72379097329E+01	1.39457169041E+02	-4.76106250393E+01	1.42336901539E+02	-3.55112829205E+01	-1.52742434996E+02
1.76750000000E+07	-2.15311063288E+01	-1.50641628452E+02	3.72400306842E+01	1.38717845096E+02	-4.76115220639E+01	1.41589654403E+02	-3.50820856324E+01	-1.53197715141E+02
1.78700000000E+07	-2.16348608755E+01	-1.51321509548E+02	3.72444764739E+01	1.38008526894E+02	-4.76090416816E+01	1.40861304835E+02	-3.46743682645E+01	-1.53462297017E+02
1.80650000000E+07	-2.17409954337E+01	-1.51962967983E+02	3.72395449307E+01	1.37294337116E+02	-4.76072096816E+01	1.40194527193E+02	-3.43044492803E+01	-1.53818855465E+02
1.82600000000E+07	-2.18637196715E+01	-1.52625385717E+02	3.72423634190E+01	1.36579646582E+02	-4.76074756163E+01	1.39453849453E+02	-3.39293289337E+01	-1.54210065043E+02
1.84550000000E+07	-2.19644089785E+01	-1.53396126091E+02	3.72423370507E+01	1.35852967725E+02	-4.76055694629E+01	1.38781979313E+02	-3.35969239320E+01	-1.54509175960E+02
1.86500000000E+07	-2.20763026890E+01	-1.53971586778E+02	3.72443304479E+01	1.35114239201E+02	-4.76081212420E+01	1.38076929705E+02	-3.32815007214E+01	-1.54956539886E+02
1.88450000000E+07	-2.21597454700E+01	-1.54742354598E+02	3.72466874584E+01	1.34394982167E+02	-4.76049057639E+01	1.37355815179E+02	-3.29589925265E+01	-1.55299319631E+02
1.90400000000E+07	-2.22720643175E+01	-1.55441005846E+02	3.72461057161E+01	1.33698899111E+02	-4.76036603772E+01	1.36661058850E+02	-3.26687893316E+01	-1.55645706192E+02
1.92350000000E+07	-2.23905927663E+01	-1.55989023328E+02	3.72488696778E+01	1.32999657432E+02	-4.76033743661E+01	1.36013041261E+02	-3.23822946727E+01	-1.56074473713E+02
1.94300000000E+07	-2.24849665773E+01	-1.56713956643E+02	3.72486897500E+01	1.32272839495E+02	-4.76031536554E+01	1.35315228628E+02	-3.21216802638E+01	-1.56398597889E+02
1.96250000000E+07	-2.25903965236E+01	-1.57346871601E+02	3.72466105093E+01	1.31575055204E+02	-4.76051864535E+01	1.34627879267E+02	-3.18527785703E+01	-1.56756233211E+02
1.98200000000E+07	-2.26840167009E+01	-1.58013162071E+02	3.72514751845E+01	1.30867000677E+02	-4.76040948212E+01	1.33937362761E+02	-3.16087282975E+01	-1.57106915913E+02
2.00150000000E+07	-2.27899541823E+01	-1.58584221079E+02	3.72491307828E+01	1.30165691154E+02	-4.76018262856E+01	1.33245785913E+02	-3.13677972284E+01	-1.57560254789E+02
2.02100000000E+07	-2.28775481264E+01	-1.59279933526E+02	3.72517473360E+01	1.29456737250E+02	-4.76037878076E+01	1.32581306415E+02	-3.11467293986E+01	-1.57907325491E+02
2.04050000000E+07	-2.29864874020E+01	-1.60006560675E+02	3.72520305680E+01	1.28767338410E+02	-4.76028917135E+01	1.31883638340E+02	-3.09263852187E+01	-1.58349063146E+02
2.06000000000E+07	-2.30900340799E+01	-1.60587308447E+02	3.72485890409E+01	1.28075535464E+02	-4.76014289027E+01	1.31230877540E+02	-3.07106455320E+01	-1.58670659420E+02
2.07950000000E+07	-2.31794575113E+01	-1.61204467569E+02	3.72522948335E+01	1.27375239800E+02	-4.75959316727E+01	1.30527879835E+02	-3.05053275048E+01	-1.59097878909E+02
2.09900000000E+07	-2.32611846760E+01	-1.61794673934E+02	3.72533301814E+01	1.26692678416E+02	-4.76005367150E+01	1.29862308678E+02	-3.03024201425E+01	-1.59536855329E+02
2.11850000000E+07	-2.33805159368E+01	-1.62436622015E+02	3.72521423945E+01	1.25990497830E+02	-4.75983852873E+01	1.29205946746E+02	-3.01167422003E+01	-1.59861572313E+02
2.13800000000E+07	-2.34559234347E+01	-1.63091545111E+02	3.72568317401E+01	1.25287210451E+02	-4.75992246976E+01	1.28524228560E+02	-2.99325499692E+01	-1.60335006836E+02
2.15750000000E+07	-2.35552567175E+01	-1.63636486093E+02	3.72517257105E+01	1.24606455550E+02	-4.76013943324E+01	1.27860847559E+02	-2.97547300213E+01	-1.60711356757E+02
2.17700000000E+07	-2.36300639979E+01	-1.64172320574E+02	3.72542578638E+01	1.23942792864E+02	-4.75963509926E+01	1.27257160669E+02	-2.95764826357E+01	-1.61091088106E+02
2.19650000000E+07	-2.37237411905E+01	-1.64926731802E+02	3.72518517929E+01	1.23228689661E+02	-4.76006813766E+01	1.26510820692E+02	-2.94155836792E+01	-1.61526385080E+02
2.21600000000E+07	-2.38073105960E+01	-1.65479807770E+02	3.72526847741E+01	1.22564777029E+02	-4.76024263833E+01	1.25844446693E+02	-2.92511034610E+01	-1.61937477199E+02
2.23550000000E+07	-2.39287296565E+01	-1.66076641868E+02	3.72531835289E+01	1.21889837864E+02	-4.75993477022E+01	1.25218858756E+02	-2.90919024222E+01	-1.62352847667E+02
2.25500000000E+07	-2.39975710960E+01	-1.66659819769E+02	3.72562995283E+01	1.21211112710E+02	-4.75970753836E+01	1.24549397794E+02	-2.89340293111E+01	-1.62756124932E+02
2.27450000000E+07	-2.40872510453E+01	-1.67237486239E+02	3.72553587518E+01	1.20512481032E+02	-4.76006680006E+01	1.23877154574E+02	-2.87876257056E+01	-1.63184117977E+02
2.29400000000E+07	-2.41747942564E+01	-1.67824646267E+02	3.72559464945E+01	1.19861450169E+02	-4.76005833710E+01	1.23256104139E+02	-2.86413095057E+01	-1.63615203494E+02
2.31350000000E+07	-2.42647509449E+01	-1.68438696541E+02	3.72538100222E+01	1.19183218163E+02	-4.76005316855E+01	1.22590067630E+02	-2.85014507015E+01	-1.63990835820E+02
2.33300000000E+07	-2.43564564293E+01	-1.69032804872E+02	3.72546881614E+01	1.18506193692E+02	-4.75988360456E+01	1.21967273103E+02	-2.83636957336E+01	-1.64419147659E+02
2.35250000000E+07	-2.44178187911E+01	-1.69634390279E+02	3.72576363258E+01	1.17816710017E+02	-4.75995705260E+01	1.21292998423E+02	-2.82297646070E+01	-1.64824662149E+02
2.37200000000E+07	-2.45152097815E+01	-1.70227475639E+02	3.72531214097E+01	1.17164267161E+02	-4.75984362606E+01	1.20677425220E+02	-2.81004726700E+01	-1.65252437970E+02
2.39150000000E+07	-2.45855965751E+01	-1.70808518147E+02	3.72572003638E+01	1.16495584072E+02	-4.76013774774E+01	1.19990212229E+02	-2.79691963619E+01	-1.65662492020E+02
2.41100000000E+07	-2.46851995971E+01	-1.71317797539E+02	3.72517480969E+01	1.15798938791E+02	-4.75964250036E+01	1.19336681194E+02	-2.78432951944E+01	-1.66111079029E+02
2.43050000000E+07	-2.47580006312E+01	-1.71879179041E+02	3.72541332010E+01	1.15126360102E+02	-4.75987343696E+01	1.18712227745E+02	-2.77217301464E+01	-1.66514319038E+02
2.45000000000E+07	-2.48433560500E+01	-1.72465983790E+02	3.72548110300E+01	1.14483358044E+02	-4.75955560033E+01	1.18048546913E+02	-2.76014450782E+01	-1.66948568598E+02
2.46950000000E+07	-2.49372908179E+01	-1.73035387063E+02	3.72585096770E+01	1.13819613438E+02	-4.76027028443E+01	1.17424647242E+02	-2.74827961712E+01	-1.67347071907E+02
2.48900000000E+07	-2.49955581289E+01	-1.73688452511E+02	3.72556749257E+01	1.13138594202E+02	-4.75966866047E+01	1.16773631752E+02	-2.73704333180E+01	-1.67769778550E+02
2.50850000000E+07	-2.50942905382E+01	-1.74207875013E+02	3.72521500656E+01	1.12455128391E+02	-4.76005545572E+01	1.16142383599E+02	-2.72556936416E+01	-1.68191146804E+02
2.52800000000E+07	-2.51726724699E+01	-1.74640064822E+02	3.72539762553E+01	1.11831808939E+02	-4.76005561529E+01	1.15496322798E+02	-2.71444242537E+01	-1.68600544888E+02
2.54750000000E+07	-2.52380225770E+01	-1.75246624589E+02	3.72496735290E+01	1.11151125960E+02	-4.75997545671E+01	1.14867007189E+02	-2.70370384517E+01	-1.69021045854E+02
2.56700000000E+07	-2.53239559645E+01	-1.75838581717E+02	3.72556772938E+01	1.10481472017E+02	-4.75976903305E+01	1.14247592825E+02	-2.69302248270E+01	-1.69503189423E+02
2.58650000000E+07	-2.54040644173E+01	-1.76418996104E+02	3.72514467068E+01	1.09835396754E+02	-4.76023420422E+01	1.13568691138E+02	-2.68262022400E+01	-1.69926115171E+02
2.60600000000E+07	-2.54928834518E+01	-1.76782581619E+02	3.72503196275E+01	1.09200008780E+02	-4.76044728244E+01	1.12938383209E+02	-2.67218645870E+01	-1.70376634955E+02
2.62550000000E+07	-2.55751374782E+01	-1.77460418389E+02	3.72552379213E+01	1.08517201859E+02	-4.75968704017E+01	1.12331717844E+02	-2.66244446044E+01	-1.70812925155E+02
2.64500000000E+07	-2.56383335826E+01	-1.77982887305E+02	3.72546193911E+01	1.07856904389E+02	-4.76035840128E+01	1.11676643288E+02	-2.65242252192E+01	-1.71253064831E+02
2.66450000000E+07	-2.57146395224E+01	-1.78402212181E+02	3.72553692941E+01	1.07201223186E+02	-4.76008282358E+01	1.11034248990E+02	-2.64259580613E+01	-1.71682682671E+02
2.68400000000E+07	-2.57904820774E+01	-1.79052407496E+02	3.72544820048E+01	1.06553430265E+02	-4.75989897782E+01	1.10444804078E+02	-2.63338196771E+01	-1.72161942296E+02
2.70350000000E+07	-2.58659345858E+01	-1.79537062150E+02	3.72520462536E+01	1.05896374351E+02	-4.76015408669E+01	1.09804403647E+02	-2.62406192808E+01	-1.72586380401E+02
2.72300000000E+07	-2.59343459749E+01	1.79873782357E+02	3.72517444897E+01	1.05257160646E+02	-4.76036340406E+01	1.09146349621E+02	-2.61478812637E+01	-1.73054461608E+02
2.74250000000E+07	-2.60212943991E+01	1.79423069653E+02	3.72540240804E+01	1.04586363150E+02	-4.75984548547E+01	1.08541240189E+02	-2.60581875832E+01	-1.73484812681E+02
2.76200000000E+07	-2.61056628529E+01	1.78949728683E+02	3.72521235396E+01	1.03931370168E+02	-4.76006016569E+01	1.07915938280E+02	-2.59714550489E+01	-1.73953782997E+02
2.78150000000E+07	-2.61666934994E+01	1.78272207140E+02	3.72504955665E+01	1.03269080476E+02	-4.75961782667E+01	1.07291111712E+02	-2.58803499372E+01	-1.74388379479E+02
