# Hz S DB R 50
! CMT, M5045, 22160017, 22.3.3/2
! Date: 10/8/2022 17:59:22
! Data: Format (Calibration Info)
! Freq	S11:dB/Ang(F2)	S21:dB/Ang(F2)	S12:dB/Ang(F2)	S22:dB/Ang(F2)
5.00000000000E+06	-1.00215904289E+01	-9.27249767728E+01	3.64334477840E+01	-1.49609797683E+02	-4.85321089155E+01	-1.46843195730E+02	-1.38947035556E+01	6.54276625134E+01
5.19500000000E+06	-1.03627101255E+01	-9.42879186359E+01	3.65103560198E+01	-1.51873763699E+02	-4.84625057211E+01	-1.49099450104E+02	-1.44457836589E+01	6.40432152682E+01
5.39000000000E+06	-1.06807121282E+01	-9.57127893330E+01	3.65785317597E+01	-1.54030595358E+02	-4.83871773054E+01	-1.51307564084E+02	-1.49851365291E+01	6.27501861958E+01
5.58500000000E+06	-1.09991684940E+01	-9.71360816925E+01	3.66324714535E+01	-1.56087891338E+02	-4.83164397416E+01	-1.53351400999E+02	-1.55118839195E+01	6.15364017389E+01
5.78000000000E+06	-1.12975816586E+01	-9.85186670992E+01	3.66877243666E+01	-1.58075532844E+02	-4.82746353160E+01	-1.55363437534E+02	-1.60298183747E+01	6.03912724997E+01
5.97500000000E+06	-1.15935403193E+01	-9.98195211871E+01	3.67333436475E+01	-1.59939035367E+02	-4.82238126506E+01	-1.57249897337E+02	-1.65367542930E+01	5.93100234544E+01
6.17000000000E+06	-1.18795660744E+01	-1.01099274126E+02	3.67718920046E+01	-1.61719139310E+02	-4.81704425834E+01	-1.59021715198E+02	-1.70335765359E+01	5.82900869755E+01
6.36500000000E+06	-1.21490110109E+01	-1.02307354757E+02	3.68147657349E+01	-1.63470129358E+02	-4.81239566991E+01	-1.60783782088E+02	-1.75226929396E+01	5.73039533837E+01
6.56000000000E+06	-1.24056841342E+01	-1.03567040225E+02	3.68499445884E+01	-1.65132579897E+02	-4.80950962301E+01	-1.62423835624E+02	-1.80040981446E+01	5.63649043118E+01
6.75500000000E+06	-1.26668072294E+01	-1.04688938492E+02	3.68768597915E+01	-1.66714499736E+02	-4.80546933389E+01	-1.64002878011E+02	-1.84763336138E+01	5.54642703391E+01
6.95000000000E+06	-1.29244476316E+01	-1.05862350778E+02	3.69066659871E+01	-1.68263657451E+02	-4.80183564343E+01	-1.65611590980E+02	-1.89465540089E+01	5.46150748086E+01
7.14500000000E+06	-1.31580671567E+01	-1.06999474272E+02	3.69332331219E+01	-1.69777856285E+02	-4.79967247670E+01	-1.67043746259E+02	-1.94096369498E+01	5.37777979772E+01
7.34000000000E+06	-1.34000662820E+01	-1.08122816736E+02	3.69555923776E+01	-1.71214764620E+02	-4.79613235880E+01	-1.68496569258E+02	-1.98684061713E+01	5.29376438535E+01
7.53500000000E+06	-1.36336253649E+01	-1.09228016875E+02	3.69758104246E+01	-1.72590455601E+02	-4.79392511270E+01	-1.69868338142E+02	-2.03203082344E+01	5.21693758654E+01
7.73000000000E+06	-1.38528752320E+01	-1.10258554623E+02	3.69938327020E+01	-1.73952218248E+02	-4.79144633752E+01	-1.71217726796E+02	-2.07684131880E+01	5.13854508971E+01
7.92500000000E+06	-1.40769720415E+01	-1.11346051898E+02	3.70119478096E+01	-1.75277377452E+02	-4.78936581939E+01	-1.72556794231E+02	-2.12156560923E+01	5.06354106793E+01
8.12000000000E+06	-1.42858526965E+01	-1.12382845072E+02	3.70273859853E+01	-1.76577957191E+02	-4.78742608947E+01	-1.73820951665E+02	-2.16612720426E+01	4.99093675644E+01
8.31500000000E+06	-1.45002059152E+01	-1.13451942118E+02	3.70412230091E+01	-1.77837245607E+02	-4.78557351352E+01	-1.75085601394E+02	-2.21018271236E+01	4.91853596069E+01
8.51000000000E+06	-1.47100640777E+01	-1.14427356503E+02	3.70558589765E+01	-1.79053922121E+02	-4.78443302951E+01	-1.76320351106E+02	-2.25484419734E+01	4.84552589437E+01
8.70500000000E+06	-1.49093974550E+01	-1.15463646689E+02	3.70674039685E+01	1.79762643920E+02	-4.78279930448E+01	-1.77485535844E+02	-2.29879240410E+01	4.77239617278E+01
8.90000000000E+06	-1.51024884536E+01	-1.16449110411E+02	3.70827745751E+01	1.78599442152E+02	-4.78058370650E+01	-1.78618177472E+02	-2.34305371902E+01	4.70003043004E+01
9.09500000000E+06	-1.53018055883E+01	-1.17475975470E+02	3.70904805586E+01	1.77424488172E+02	-4.77955628176E+01	-1.79757288845E+02	-2.38723481318E+01	4.62979922883E+01
9.29000000000E+06	-1.54852566900E+01	-1.18424105098E+02	3.71032292905E+01	1.76336485648E+02	-4.77809045007E+01	1.79130846409E+02	-2.43162038315E+01	4.55845939837E+01
9.48500000000E+06	-1.56787398331E+01	-1.19482159731E+02	3.71104057850E+01	1.75226851391E+02	-4.77778093407E+01	1.78025522542E+02	-2.47639439428E+01	4.48438750206E+01
9.68000000000E+06	-1.58719476385E+01	-1.20381831612E+02	3.71173211528E+01	1.74171443501E+02	-4.77648192702E+01	1.76973313717E+02	-2.52168021181E+01	4.41144307626E+01
9.87500000000E+06	-1.60428823721E+01	-1.21449759687E+02	3.71243430730E+01	1.73112144374E+02	-4.77540342336E+01	1.75958212850E+02	-2.56668382188E+01	4.33372562346E+01
1.00700000000E+07	-1.62239456646E+01	-1.22414688372E+02	3.71379580218E+01	1.72063020072E+02	-4.77515686839E+01	1.74911032161E+02	-2.61467507682E+01	4.24780057955E+01
1.02650000000E+07	-1.64075473815E+01	-1.23377026056E+02	3.71420403274E+01	1.71019686553E+02	-4.77329202523E+01	1.73901747012E+02	-2.66410919424E+01	4.17998580762E+01
1.04600000000E+07	-1.65840163187E+01	-1.24323622297E+02	3.71437817801E+01	1.70034289875E+02	-4.77280520195E+01	1.72898226416E+02	-2.71336352744E+01	4.11172686214E+01
1.06550000000E+07	-1.67625157285E+01	-1.25222499804E+02	3.71501380735E+01	1.69057176408E+02	-4.77189850170E+01	1.71910291864E+02	-2.76259679041E+01	4.04833118549E+01
1.08500000000E+07	-1.69165388403E+01	-1.26129627022E+02	3.71552259853E+01	1.68069080150E+02	-4.77097411100E+01	1.70907905627E+02	-2.81227269020E+01	3.98693475069E+01
1.10450000000E+07	-1.70865789157E+01	-1.27037821036E+02	3.71611052270E+01	1.67138849484E+02	-4.76997391058E+01	1.69958670556E+02	-2.86160466194E+01	3.92336072913E+01
1.12400000000E+07	-1.72503523291E+01	-1.27938885657E+02	3.71656397305E+01	1.66177468078E+02	-4.76935771404E+01	1.68972573270E+02	-2.91142321612E+01	3.85601695762E+01
1.14350000000E+07	-1.73967765346E+01	-1.28862162473E+02	3.71705267758E+01	1.65235306721E+02	-4.76857142921E+01	1.68015985996E+02	-2.96311022906E+01	3.78816920886E+01
1.16300000000E+07	-1.75573391694E+01	-1.29787404159E+02	3.71745360633E+01	1.64303061749E+02	-4.76761766120E+01	1.67013472833E+02	-3.01509635320E+01	3.70437261761E+01
1.18250000000E+07	-1.77150394967E+01	-1.30721175515E+02	3.71815402748E+01	1.63344632272E+02	-4.76763073200E+01	1.66102220479E+02	-3.06861869706E+01	3.63149045094E+01
1.20200000000E+07	-1.78657314354E+01	-1.31641316724E+02	3.71828627383E+01	1.62431215042E+02	-4.76673304925E+01	1.65150824862E+02	-3.12390416638E+01	3.54267738742E+01
1.22150000000E+07	-1.80231292340E+01	-1.32556577610E+02	3.71854462186E+01	1.61544853839E+02	-4.76639881772E+01	1.64215025603E+02	-3.18126524513E+01	3.45639489547E+01
1.24100000000E+07	-1.81643387806E+01	-1.33427233439E+02	3.71872264608E+01	1.60626624294E+02	-4.76619684594E+01	1.63277424347E+02	-3.24005092845E+01	3.35999441975E+01
1.26050000000E+07	-1.83125403878E+01	-1.34415895009E+02	3.71865176406E+01	1.59762420155E+02	-4.76551218405E+01	1.62385934241E+02	-3.30243510265E+01	3.26359972133E+01
1.28000000000E+07	-1.84680277739E+01	-1.35202429185E+02	3.71892346888E+01	1.58925785104E+02	-4.76538821609E+01	1.61509841860E+02	-3.36544114829E+01	3.15402803168E+01
1.29950000000E+07	-1.85977640176E+01	-1.36165001027E+02	3.71945611423E+01	1.58056137576E+02	-4.76498219360E+01	1.60658311995E+02	-3.43425807797E+01	3.04642808366E+01
1.31900000000E+07	-1.87479082755E+01	-1.37053478386E+02	3.71975385649E+01	1.57245527164E+02	-4.76523780804E+01	1.59780669057E+02	-3.50499091389E+01	2.91754881270E+01
1.33850000000E+07	-1.88853817630E+01	-1.37936348852E+02	3.71982482497E+01	1.56403039457E+02	-4.76430880437E+01	1.58962830718E+02	-3.57899580621E+01	2.79244562052E+01
1.35800000000E+07	-1.90227373094E+01	-1.38730946390E+02	3.72027616143E+01	1.55595016021E+02	-4.76422247073E+01	1.58130653053E+02	-3.65904567232E+01	2.64105535004E+01
1.37750000000E+07	-1.91647308801E+01	-1.39605638903E+02	3.72053586755E+01	1.54769599826E+02	-4.76409643064E+01	1.57299715124E+02	-3.74189543727E+01	2.47476747589E+01
1.39700000000E+07	-1.93034505302E+01	-1.40480014394E+02	3.72084458364E+01	1.53959000487E+02	-4.76384366067E+01	1.56502809860E+02	-3.83393131838E+01	2.29621057146E+01
1.41650000000E+07	-1.94352051247E+01	-1.41334177815E+02	3.72090713654E+01	1.53160789125E+02	-4.76341274507E+01	1.55646651198E+02	-3.93218148698E+01	2.09217290613E+01
1.43600000000E+07	-1.95623622626E+01	-1.42086952623E+02	3.72129311964E+01	1.52350339091E+02	-4.76309484243E+01	1.54840567596E+02	-4.03510447170E+01	1.84234764102E+01
1.45550000000E+07	-1.96995019410E+01	-1.42939247042E+02	3.72183244562E+01	1.51554278130E+02	-4.76352229201E+01	1.54047319173E+02	-4.15361551672E+01	1.52501593995E+01
1.47500000000E+07	-1.98197341525E+01	-1.43710809650E+02	3.72184821754E+01	1.50779286001E+02	-4.76343457234E+01	1.53251780606E+02	-4.27938108351E+01	1.16789168197E+01
1.49450000000E+07	-1.99679271595E+01	-1.44606840180E+02	3.72184323434E+01	1.49971093567E+02	-4.76284684654E+01	1.52487830515E+02	-4.42181184839E+01	6.66202019989E+00
1.51400000000E+07	-2.00927505667E+01	-1.45473423517E+02	3.72218377151E+01	1.49194656680E+02	-4.76269934485E+01	1.51728092945E+02	-4.57331961164E+01	-6.65484852175E-02
1.53350000000E+07	-2.02189456125E+01	-1.46241075733E+02	3.72222592602E+01	1.48426398482E+02	-4.76277656119E+01	1.50941277699E+02	-4.74444577126E+01	-9.39269332601E+00
1.55300000000E+07	-2.03489638452E+01	-1.47054135263E+02	3.72218347668E+01	1.47651409536E+02	-4.76211455765E+01	1.50160584645E+02	-4.90162804391E+01	-2.25132107024E+01
1.57250000000E+07	-2.04695616404E+01	-1.47830276303E+02	3.72225491964E+01	1.46896087677E+02	-4.76224609635E+01	1.49411232684E+02	-5.03111713098E+01	-4.01217848369E+01
1.59200000000E+07	-2.05908085284E+01	-1.48543717341E+02	3.72248190214E+01	1.46129119493E+02	-4.76182144360E+01	1.48654107317E+02	-5.06785045447E+01	-6.13562657721E+01
1.61150000000E+07	-2.07305707895E+01	-1.49375880737E+02	3.72256490604E+01	1.45372868510E+02	-4.76174572653E+01	1.47916017572E+02	-4.99279378349E+01	-8.11264790558E+01
1.63100000000E+07	-2.08352543501E+01	-1.50179885548E+02	3.72294701385E+01	1.44598075447E+02	-4.76157291670E+01	1.47163588776E+02	-4.85850155343E+01	-9.57891789177E+01
1.65050000000E+07	-2.09596234622E+01	-1.50855671790E+02	3.72325536682E+01	1.43885614889E+02	-4.76152547111E+01	1.46451123772E+02	-4.69978674399E+01	-1.06931112035E+02
1.67000000000E+07	-2.10791325617E+01	-1.51706149630E+02	3.72297867987E+01	1.43148394531E+02	-4.76167727477E+01	1.45682237510E+02	-4.55502516043E+01	-1.14823744703E+02
1.68950000000E+07	-2.11914150036E+01	-1.52427815256E+02	3.72326411288E+01	1.42359412243E+02	-4.76126214614E+01	1.44941338823E+02	-4.42667414539E+01	-1.20474526310E+02
1.70900000000E+07	-2.13113778406E+01	-1.53205645046E+02	3.72362687728E+01	1.41627992176E+02	-4.76076445383E+01	1.44240585015E+02	-4.31166654061E+01	-1.24816272011E+02
1.72850000000E+07	-2.14304833930E+01	-1.53935475660E+02	3.72346704679E+01	1.40903158640E+02	-4.76176225539E+01	1.43525179578E+02	-4.21090439044E+01	-1.28206951414E+02
1.74800000000E+07	-2.15620906974E+01	-1.54580981585E+02	3.72348472908E+01	1.40169884362E+02	-4.76123044204E+01	1.42783204629E+02	-4.11911838083E+01	-1.30759024992E+02
1.76750000000E+07	-2.16697977443E+01	-1.55350852576E+02	3.72386578921E+01	1.39445372053E+02	-4.76146065260E+01	1.42063800032E+02	-4.03866455876E+01	-1.33161800239E+02
1.78700000000E+07	-2.17768794337E+01	-1.56086754315E+02	3.72408519726E+01	1.38716887791E+02	-4.76098891293E+01	1.41362224871E+02	-3.96520284408E+01	-1.34992876652E+02
1.80650000000E+07	-2.18848829609E+01	-1.56831321408E+02	3.72398584640E+01	1.37990299029E+02	-4.76098575098E+01	1.40626874470E+02	-3.89657454661E+01	-1.36679669243E+02
1.82600000000E+07	-2.19845629782E+01	-1.57525760352E+02	3.72410596602E+01	1.37263394776E+02	-4.76050069349E+01	1.39943356707E+02	-3.83313679962E+01	-1.38293604476E+02
1.84550000000E+07	-2.21105761816E+01	-1.58284737245E+02	3.72428840142E+01	1.36539578303E+02	-4.76082971053E+01	1.39248789169E+02	-3.77646140679E+01	-1.39500606768E+02
1.86500000000E+07	-2.22060143361E+01	-1.58995306704E+02	3.72435038264E+01	1.35818465286E+02	-4.76022572461E+01	1.38544134816E+02	-3.72302966198E+01	-1.40818047880E+02
1.88450000000E+07	-2.23304213796E+01	-1.59674376201E+02	3.72440485606E+01	1.35119297733E+02	-4.76033865324E+01	1.37848519566E+02	-3.67084383848E+01	-1.41849959241E+02
1.90400000000E+07	-2.24304982637E+01	-1.60396586337E+02	3.72485643982E+01	1.34377336341E+02	-4.76027213717E+01	1.37138744336E+02	-3.62522930622E+01	-1.42927020433E+02
1.92350000000E+07	-2.25417411920E+01	-1.61185184762E+02	3.72489581087E+01	1.33662891650E+02	-4.76044583631E+01	1.36436330773E+02	-3.58116712637E+01	-1.43948992940E+02
1.94300000000E+07	-2.26418342777E+01	-1.61783458626E+02	3.72479522465E+01	1.32973362053E+02	-4.76017155836E+01	1.35776938930E+02	-3.54023215518E+01	-1.44718024836E+02
1.96250000000E+07	-2.27472584507E+01	-1.62495071418E+02	3.72462549663E+01	1.32284206179E+02	-4.76007767466E+01	1.35065349882E+02	-3.50039001458E+01	-1.45587735022E+02
1.98200000000E+07	-2.28499337506E+01	-1.63144447408E+02	3.72533122218E+01	1.31562434846E+02	-4.75994287412E+01	1.34403771100E+02	-3.46483791048E+01	-1.46415251911E+02
2.00150000000E+07	-2.29648174104E+01	-1.63838881102E+02	3.72504955008E+01	1.30893689670E+02	-4.75992102553E+01	1.33725301624E+02	-3.42873746565E+01	-1.47232687839E+02
2.02100000000E+07	-2.30636045856E+01	-1.64493339863E+02	3.72528567327E+01	1.30197995028E+02	-4.75967622829E+01	1.33038340096E+02	-3.39612918996E+01	-1.47943275061E+02
2.04050000000E+07	-2.31683919260E+01	-1.65346289772E+02	3.72493397075E+01	1.29473320420E+02	-4.75964933652E+01	1.32354485682E+02	-3.36418698815E+01	-1.48748173785E+02
2.06000000000E+07	-2.32545085246E+01	-1.65911650910E+02	3.72507500913E+01	1.28763726484E+02	-4.75956575275E+01	1.31687233990E+02	-3.33381029972E+01	-1.49385151506E+02
2.07950000000E+07	-2.33701051009E+01	-1.66470460460E+02	3.72529715259E+01	1.28098591640E+02	-4.76001370428E+01	1.30986111446E+02	-3.30480271614E+01	-1.50056467041E+02
2.09900000000E+07	-2.34711068027E+01	-1.67190602183E+02	3.72539528042E+01	1.27408261234E+02	-4.75949063493E+01	1.30342673145E+02	-3.27732737139E+01	-1.50730977314E+02
2.11850000000E+07	-2.35556545693E+01	-1.67807477773E+02	3.72549395804E+01	1.26729055593E+02	-4.75970159242E+01	1.29680815205E+02	-3.25019195850E+01	-1.51348914454E+02
2.13800000000E+07	-2.36627984934E+01	-1.68432715362E+02	3.72554719359E+01	1.26039889931E+02	-4.75974751069E+01	1.28980004923E+02	-3.22506217990E+01	-1.52087331108E+02
2.15750000000E+07	-2.37522879486E+01	-1.69140656168E+02	3.72575415968E+01	1.25331535121E+02	-4.75934561627E+01	1.28325363573E+02	-3.20096707073E+01	-1.52679979654E+02
2.17700000000E+07	-2.38472503447E+01	-1.69700469861E+02	3.72577596662E+01	1.24676201354E+02	-4.75974132755E+01	1.27640813058E+02	-3.17732562430E+01	-1.53307489801E+02
2.19650000000E+07	-2.39390344741E+01	-1.70380315697E+02	3.72593392216E+01	1.23964587974E+02	-4.75978411059E+01	1.27006985875E+02	-3.15588330454E+01	-1.53939894034E+02
2.21600000000E+07	-2.40330832168E+01	-1.71006445261E+02	3.72560762797E+01	1.23272858116E+02	-4.75939075246E+01	1.26360183278E+02	-3.13388872734E+01	-1.54507676599E+02
2.23550000000E+07	-2.41221179533E+01	-1.71631316897E+02	3.72537267197E+01	1.22581234329E+02	-4.75957897988E+01	1.25677554333E+02	-3.11247692444E+01	-1.55119430096E+02
2.25500000000E+07	-2.42357595506E+01	-1.72269227861E+02	3.72563850330E+01	1.21918626166E+02	-4.75919662337E+01	1.25011078427E+02	-3.09263883196E+01	-1.55698735245E+02
2.27450000000E+07	-2.43375249434E+01	-1.72880276709E+02	3.72566530579E+01	1.21252769056E+02	-4.75953792584E+01	1.24365021941E+02	-3.07226667742E+01	-1.56270930931E+02
2.29400000000E+07	-2.44161092360E+01	-1.73498468275E+02	3.72579124579E+01	1.20554886907E+02	-4.75912291496E+01	1.23707415577E+02	-3.05396207348E+01	-1.56854988519E+02
2.31350000000E+07	-2.44967389846E+01	-1.74057560438E+02	3.72588746833E+01	1.19912237339E+02	-4.75954324084E+01	1.23039254639E+02	-3.03560012097E+01	-1.57358271992E+02
2.33300000000E+07	-2.46004609060E+01	-1.74701672639E+02	3.72598550980E+01	1.19209868058E+02	-4.75906530262E+01	1.22403489828E+02	-3.01789404579E+01	-1.57923933702E+02
2.35250000000E+07	-2.46885721608E+01	-1.75272081026E+02	3.72588802275E+01	1.18550262053E+02	-4.75923147816E+01	1.21743409757E+02	-3.00108621141E+01	-1.58514332464E+02
2.37200000000E+07	-2.47729010689E+01	-1.75942722352E+02	3.72577996436E+01	1.17879376377E+02	-4.75941334700E+01	1.21094556187E+02	-2.98457039273E+01	-1.59052807334E+02
2.39150000000E+07	-2.48545638283E+01	-1.76492705954E+02	3.72626833441E+01	1.17203418333E+02	-4.75947327773E+01	1.20454349244E+02	-2.96718606184E+01	-1.59568064068E+02
2.41100000000E+07	-2.49605794920E+01	-1.77075410918E+02	3.72585089746E+01	1.16530179622E+02	-4.75921048501E+01	1.19814721489E+02	-2.95166944693E+01	-1.60159058975E+02
2.43050000000E+07	-2.50296298076E+01	-1.77643296470E+02	3.72615347402E+01	1.15865020807E+02	-4.75896172707E+01	1.19170551245E+02	-2.93600438210E+01	-1.60664415545E+02
2.45000000000E+07	-2.51237907869E+01	-1.78301644731E+02	3.72589706479E+01	1.15194218686E+02	-4.75922127727E+01	1.18540882635E+02	-2.92081921536E+01	-1.61172416232E+02
2.46950000000E+07	-2.52312702176E+01	-1.78863432305E+02	3.72598544066E+01	1.14529491212E+02	-4.75889882981E+01	1.17891085272E+02	-2.90619887974E+01	-1.61701304078E+02
2.48900000000E+07	-2.53057119743E+01	-1.79434274710E+02	3.72623414320E+01	1.13889732037E+02	-4.75910890285E+01	1.17250563925E+02	-2.89187530902E+01	-1.62243408979E+02
2.50850000000E+07	-2.53873637882E+01	-1.79890062261E+02	3.72585773967E+01	1.13254085475E+02	-4.75912463475E+01	1.16609155230E+02	-2.87788540029E+01	-1.62763414493E+02
2.52800000000E+07	-2.54848469859E+01	1.79398559625E+02	3.72607566512E+01	1.12551962516E+02	-4.75928664097E+01	1.15951089850E+02	-2.86416041227E+01	-1.63288272796E+02
2.54750000000E+07	-2.55764273130E+01	1.78929113306E+02	3.72563363944E+01	1.11896863568E+02	-4.75900096302E+01	1.15339320656E+02	-2.85088908066E+01	-1.63773479982E+02
2.56700000000E+07	-2.56441954663E+01	1.78457614550E+02	3.72603719745E+01	1.11249193486E+02	-4.75875961028E+01	1.14691662972E+02	-2.83772142818E+01	-1.64360809822E+02
2.58650000000E+07	-2.57402121335E+01	1.77820811949E+02	3.72610416161E+01	1.10593716439E+02	-4.75893372601E+01	1.14049461172E+02	-2.82478178622E+01	-1.64897037567E+02
2.60600000000E+07	-2.58142814495E+01	1.77178416760E+02	3.72580936852E+01	1.09923469063E+02	-4.75898453194E+01	1.13418518766E+02	-2.81189432013E+01	-1.65418778430E+02
2.62550000000E+07	-2.59084376851E+01	1.76601894691E+02	3.72604729506E+01	1.09267417675E+02	-4.75942719662E+01	1.12755753208E+02	-2.80032890470E+01	-1.65927064095E+02
2.64500000000E+07	-2.59658041107E+01	1.76102297941E+02	3.72622191747E+01	1.08609615874E+02	-4.75917244724E+01	1.12161205089E+02	-2.78827747383E+01	-1.66451223475E+02
2.66450000000E+07	-2.60797952571E+01	1.75598983893E+02	3.72575682479E+01	1.07926081713E+02	-4.75886053571E+01	1.11487273915E+02	-2.77623702978E+01	-1.66989952409E+02
2.68400000000E+07	-2.61321439451E+01	1.75027371868E+02	3.72589562451E+01	1.07294008982E+02	-4.75890171651E+01	1.10912062503E+02	-2.76496204023E+01	-1.67550192487E+02
2.70350000000E+07	-2.62321322251E+01	1.74578555194E+02	3.72578600207E+01	1.06639150196E+02	-4.75911818150E+01	1.10272655424E+02	-2.75368025455E+01	-1.68029565629E+02
2.72300000000E+07	-2.63160804664E+01	1.73977914341E+02	3.72604582840E+01	1.05975573212E+02	-4.75930406959E+01	1.09640881150E+02	-2.74272248637E+01	-1.68588442283E+02
2.74250000000E+07	-2.64072921644E+01	1.73535042817E+02	3.72604652852E+01	1.05332426092E+02	-4.75918045115E+01	1.09022094265E+02	-2.73208696877E+01	-1.69088132570E+02
2.76200000000E+07	-2.64727375210E+01	1.72857392627E+02	3.72577877458E+01	1.04689190960E+02	-4.75920937514E+01	1.08397352605E+02	-2.72195705651E+01	-1.69630705496E+02
2.78150000000E+07	-2.65473651632E+01	1.72450477808E+02	3.72618724284E+01	1.04012401171E+02	-4.75915525581E+01	1.07746568048E+02	-2.71135391423E+01	-1.70149443285E+02
