# Hz S DB R 50
! CMT, M5045, 22160017, 22.3.3/2
! Date: 10/8/2022 17:39:40
! Data: Format (Calibration Info)
! Freq	S11:dB/Ang(F2)	S21:dB/Ang(F2)	S12:dB/Ang(F2)	S22:dB/Ang(F2)
5.00000000000E+06	-9.96695021613E+00	-9.15160869982E+01	3.63917381715E+01	-1.50067566475E+02	-4.84941036293E+01	-1.47281474621E+02	-1.43868631375E+01	6.51245409549E+01
5.19500000000E+06	-1.03087356888E+01	-9.30254128686E+01	3.64650250763E+01	-1.52347593290E+02	-4.84216603157E+01	-1.49577123472E+02	-1.49657097226E+01	6.38215115463E+01
5.39000000000E+06	-1.06366693010E+01	-9.44968284337E+01	3.65280762715E+01	-1.54524012736E+02	-4.83536404962E+01	-1.51770999164E+02	-1.55322219477E+01	6.26184170384E+01
5.58500000000E+06	-1.09512589399E+01	-9.58788029403E+01	3.65859315560E+01	-1.56581130760E+02	-4.82856648889E+01	-1.53865108340E+02	-1.60853939282E+01	6.15100917459E+01
5.78000000000E+06	-1.12584942675E+01	-9.72300204988E+01	3.66399132152E+01	-1.58566854048E+02	-4.82295650935E+01	-1.55868631508E+02	-1.66305323598E+01	6.04731706063E+01
5.97500000000E+06	-1.15512153068E+01	-9.85168205523E+01	3.66857128256E+01	-1.60435922016E+02	-4.81786488659E+01	-1.57697167086E+02	-1.71652993520E+01	5.95011165174E+01
6.17000000000E+06	-1.18425625528E+01	-9.97922023985E+01	3.67271979463E+01	-1.62242886950E+02	-4.81301607841E+01	-1.59538966696E+02	-1.76921575732E+01	5.85904554233E+01
6.36500000000E+06	-1.21280049969E+01	-1.01021369122E+02	3.67602618244E+01	-1.63975007274E+02	-4.80831279986E+01	-1.61307859304E+02	-1.82101566349E+01	5.77306742930E+01
6.56000000000E+06	-1.23938021250E+01	-1.02206925328E+02	3.67959074857E+01	-1.65625180192E+02	-4.80433332157E+01	-1.62939731022E+02	-1.87224302880E+01	5.69176730851E+01
6.75500000000E+06	-1.26520755679E+01	-1.03341811797E+02	3.68284839365E+01	-1.67247128910E+02	-4.80108888172E+01	-1.64582598082E+02	-1.92276235477E+01	5.61546962279E+01
6.95000000000E+06	-1.29146808840E+01	-1.04513450207E+02	3.68512724668E+01	-1.68808184738E+02	-4.79859751427E+01	-1.66139851521E+02	-1.97327678325E+01	5.54435212116E+01
7.14500000000E+06	-1.31667302941E+01	-1.05615274367E+02	3.68750127132E+01	-1.70299782346E+02	-4.79499432371E+01	-1.67597328037E+02	-2.02308684975E+01	5.47540961496E+01
7.34000000000E+06	-1.34156933806E+01	-1.06733121011E+02	3.68958305799E+01	-1.71746765004E+02	-4.79234942297E+01	-1.69075623837E+02	-2.07203389149E+01	5.40887171351E+01
7.53500000000E+06	-1.36383166224E+01	-1.07771360376E+02	3.69201748582E+01	-1.73157453637E+02	-4.78927995186E+01	-1.70468217844E+02	-2.12108491193E+01	5.34878899113E+01
7.73000000000E+06	-1.38835938004E+01	-1.08828087176E+02	3.69343341426E+01	-1.74524230865E+02	-4.78660207522E+01	-1.71828379956E+02	-2.16972562746E+01	5.28840432523E+01
7.92500000000E+06	-1.41136459420E+01	-1.09907215721E+02	3.69545941710E+01	-1.75866195571E+02	-4.78464096597E+01	-1.73145116682E+02	-2.21823329376E+01	5.23238000114E+01
8.12000000000E+06	-1.43284861315E+01	-1.10915513106E+02	3.69704792962E+01	-1.77142188706E+02	-4.78273659868E+01	-1.74426767435E+02	-2.26725288083E+01	5.18021699294E+01
8.31500000000E+06	-1.45469573933E+01	-1.11984326764E+02	3.69799017919E+01	-1.78421830897E+02	-4.78068537136E+01	-1.75718794892E+02	-2.31559577481E+01	5.12925572807E+01
8.51000000000E+06	-1.47559506100E+01	-1.12962853119E+02	3.69956988879E+01	-1.79642011126E+02	-4.77869608716E+01	-1.76947889121E+02	-2.36467927583E+01	5.07749607004E+01
8.70500000000E+06	-1.49729352977E+01	-1.13941116284E+02	3.70066378181E+01	1.79162041488E+02	-4.77662046515E+01	-1.78114624607E+02	-2.41351712845E+01	5.03169188810E+01
8.90000000000E+06	-1.51761751107E+01	-1.14945141305E+02	3.70198167071E+01	1.77975249346E+02	-4.77570609046E+01	-1.79325659776E+02	-2.46261636720E+01	4.98863172757E+01
9.09500000000E+06	-1.53889390075E+01	-1.15900140263E+02	3.70260741818E+01	1.76822499376E+02	-4.77410886637E+01	1.79533317940E+02	-2.51176478010E+01	4.94451804371E+01
9.29000000000E+06	-1.55904323068E+01	-1.16849565237E+02	3.70384308071E+01	1.75709091567E+02	-4.77192986421E+01	1.78415630821E+02	-2.56145598273E+01	4.90614916899E+01
9.48500000000E+06	-1.57772273813E+01	-1.17817734066E+02	3.70451702549E+01	1.74593435905E+02	-4.77140869329E+01	1.77298101873E+02	-2.61189758808E+01	4.86782419101E+01
9.68000000000E+06	-1.59732958790E+01	-1.18801590397E+02	3.70502616188E+01	1.73531112738E+02	-4.76960353685E+01	1.76200867041E+02	-2.66269674048E+01	4.83553955100E+01
9.87500000000E+06	-1.61616363439E+01	-1.19658457866E+02	3.70647449464E+01	1.72467288039E+02	-4.76883751037E+01	1.75139326656E+02	-2.71286627064E+01	4.80243053876E+01
1.00700000000E+07	-1.63623939764E+01	-1.20635391596E+02	3.70598194576E+01	1.71398211422E+02	-4.76750888838E+01	1.74104103344E+02	-2.76658406743E+01	4.75887901630E+01
1.02650000000E+07	-1.65307701593E+01	-1.21629338003E+02	3.70742235418E+01	1.70395966963E+02	-4.76645618766E+01	1.73036798146E+02	-2.82011327416E+01	4.73609795984E+01
1.04600000000E+07	-1.67145226795E+01	-1.22554797079E+02	3.70759322253E+01	1.69370073208E+02	-4.76609604618E+01	1.72012769647E+02	-2.87328024959E+01	4.70928122519E+01
1.06550000000E+07	-1.68912640657E+01	-1.23482994701E+02	3.70838295251E+01	1.68383845581E+02	-4.76533193403E+01	1.70945272489E+02	-2.92795289120E+01	4.67583665966E+01
1.08500000000E+07	-1.70761489829E+01	-1.24453586086E+02	3.70855117046E+01	1.67386873530E+02	-4.76431172843E+01	1.70009037677E+02	-2.98444952841E+01	4.64315008586E+01
1.10450000000E+07	-1.72580840511E+01	-1.25399110129E+02	3.70935009574E+01	1.66421218113E+02	-4.76293026229E+01	1.69019578515E+02	-3.04268156440E+01	4.60876865425E+01
1.12400000000E+07	-1.74235129480E+01	-1.26354617614E+02	3.70928070800E+01	1.65476504097E+02	-4.76349780263E+01	1.68079855426E+02	-3.10308343728E+01	4.58317879967E+01
1.14350000000E+07	-1.75929744522E+01	-1.27306971752E+02	3.71018580239E+01	1.64497591299E+02	-4.76168609328E+01	1.67091598299E+02	-3.16649053336E+01	4.56399085698E+01
1.16300000000E+07	-1.77608558871E+01	-1.28212189626E+02	3.71062728962E+01	1.63576958407E+02	-4.76140312574E+01	1.66151598256E+02	-3.23172722802E+01	4.54143564152E+01
1.18250000000E+07	-1.79375108595E+01	-1.29165020142E+02	3.71069385514E+01	1.62582429132E+02	-4.76063624229E+01	1.65209374700E+02	-3.29867570087E+01	4.52783556423E+01
1.20200000000E+07	-1.81125050650E+01	-1.30057971557E+02	3.71106164333E+01	1.61684672852E+02	-4.75992300094E+01	1.64251733073E+02	-3.37045324588E+01	4.51423081199E+01
1.22150000000E+07	-1.82695912143E+01	-1.30957931944E+02	3.71099957365E+01	1.60767645129E+02	-4.75928180351E+01	1.63312044298E+02	-3.44532001505E+01	4.50651210032E+01
1.24100000000E+07	-1.84393313669E+01	-1.31897349030E+02	3.71114223383E+01	1.59849663522E+02	-4.75848662214E+01	1.62385987902E+02	-3.52478205325E+01	4.51202898753E+01
1.26050000000E+07	-1.85943134321E+01	-1.32826566995E+02	3.71143824179E+01	1.58970914647E+02	-4.75830035593E+01	1.61468973574E+02	-3.60950547430E+01	4.52037177768E+01
1.28000000000E+07	-1.87580453742E+01	-1.33723880272E+02	3.71155248023E+01	1.58108327541E+02	-4.75748597215E+01	1.60588203891E+02	-3.69783436682E+01	4.54772604747E+01
1.29950000000E+07	-1.89215559469E+01	-1.34584485238E+02	3.71166287417E+01	1.57251890950E+02	-4.75707616336E+01	1.59697176324E+02	-3.79576107614E+01	4.60266750090E+01
1.31900000000E+07	-1.90800347610E+01	-1.35442958403E+02	3.71180853667E+01	1.56406407261E+02	-4.75649465264E+01	1.58832687132E+02	-3.90213926221E+01	4.64187874012E+01
1.33850000000E+07	-1.92328642529E+01	-1.36381228834E+02	3.71183284104E+01	1.55576258517E+02	-4.75603810332E+01	1.57965650959E+02	-4.01807995657E+01	4.73931389078E+01
1.35800000000E+07	-1.93971546471E+01	-1.37150376747E+02	3.71199998949E+01	1.54763301414E+02	-4.75592982497E+01	1.57122016063E+02	-4.14847861431E+01	4.86693146006E+01
1.37750000000E+07	-1.95442595189E+01	-1.38044769036E+02	3.71233480851E+01	1.53904765979E+02	-4.75569531698E+01	1.56284744390E+02	-4.29261028449E+01	5.03447287341E+01
1.39700000000E+07	-1.97105931356E+01	-1.38874931722E+02	3.71238542300E+01	1.53077027032E+02	-4.75498205660E+01	1.55462500900E+02	-4.45945772472E+01	5.33256723005E+01
1.41650000000E+07	-1.98583318573E+01	-1.39726489092E+02	3.71258539123E+01	1.52258985226E+02	-4.75451551558E+01	1.54668221711E+02	-4.65573166539E+01	5.77840564875E+01
1.43600000000E+07	-1.99968670626E+01	-1.40566190848E+02	3.71281685397E+01	1.51452993052E+02	-4.75401692472E+01	1.53791686427E+02	-4.88929289724E+01	6.48113668386E+01
1.45550000000E+07	-2.01568412518E+01	-1.41451633816E+02	3.71269250756E+01	1.50636172253E+02	-4.75350235319E+01	1.53044428642E+02	-5.16807003724E+01	7.81761365051E+01
1.47500000000E+07	-2.03010153204E+01	-1.42233951703E+02	3.71289049699E+01	1.49844837246E+02	-4.75300108725E+01	1.52232018810E+02	-5.42362322461E+01	1.02479739099E+02
1.49450000000E+07	-2.04526539095E+01	-1.43009571744E+02	3.71254819865E+01	1.49031053878E+02	-4.75290760561E+01	1.51428810376E+02	-5.46835286672E+01	1.37000328896E+02
1.51400000000E+07	-2.06029722474E+01	-1.43859117233E+02	3.71292100463E+01	1.48261352249E+02	-4.75165497131E+01	1.50650013789E+02	-5.25912531136E+01	1.63844976267E+02
1.53350000000E+07	-2.07355595502E+01	-1.44612049846E+02	3.71298338749E+01	1.47465953224E+02	-4.75211967734E+01	1.49869757213E+02	-4.99026296252E+01	1.78792494743E+02
1.55300000000E+07	-2.08888486162E+01	-1.45422364155E+02	3.71296465140E+01	1.46697113331E+02	-4.75149383822E+01	1.49132051808E+02	-4.76965815627E+01	-1.73223918931E+02
1.57250000000E+07	-2.10323798854E+01	-1.46247512643E+02	3.71260669848E+01	1.45909696166E+02	-4.75123786134E+01	1.48338798475E+02	-4.58711341604E+01	-1.68746809409E+02
1.59200000000E+07	-2.11827834624E+01	-1.47098832371E+02	3.71303871056E+01	1.45140929271E+02	-4.75081819622E+01	1.47557539951E+02	-4.43430085001E+01	-1.65669234630E+02
1.61150000000E+07	-2.13283518909E+01	-1.47770826247E+02	3.71270343011E+01	1.44386029114E+02	-4.75019268879E+01	1.46785843684E+02	-4.30558377307E+01	-1.63746376241E+02
1.63100000000E+07	-2.14550035462E+01	-1.48591334234E+02	3.71276643986E+01	1.43616913536E+02	-4.75002893398E+01	1.46016991806E+02	-4.19993259057E+01	-1.62230429429E+02
1.65050000000E+07	-2.15955582475E+01	-1.49440834673E+02	3.71279102480E+01	1.42851486836E+02	-4.74961874299E+01	1.45282673888E+02	-4.09905692538E+01	-1.60973237165E+02
1.67000000000E+07	-2.17426478046E+01	-1.50196052865E+02	3.71263271287E+01	1.42110422430E+02	-4.74959510667E+01	1.44558987424E+02	-4.01139397276E+01	-1.60270655153E+02
1.68950000000E+07	-2.18921729636E+01	-1.50910921629E+02	3.71288997635E+01	1.41364783792E+02	-4.74912592067E+01	1.43770156386E+02	-3.93275830960E+01	-1.59823690244E+02
1.70900000000E+07	-2.20164293606E+01	-1.51665366664E+02	3.71295830577E+01	1.40601864619E+02	-4.74872650307E+01	1.43038178988E+02	-3.86336176830E+01	-1.59540034180E+02
1.72850000000E+07	-2.21650966894E+01	-1.52482660444E+02	3.71245476840E+01	1.39847432179E+02	-4.74860105452E+01	1.42341432117E+02	-3.79971643897E+01	-1.59445384832E+02
1.74800000000E+07	-2.22805350916E+01	-1.53142550908E+02	3.71280685084E+01	1.39121152174E+02	-4.74779665120E+01	1.41562087358E+02	-3.74227561811E+01	-1.59241802349E+02
1.76750000000E+07	-2.24252074189E+01	-1.54006605597E+02	3.71280405227E+01	1.38384332441E+02	-4.74753787037E+01	1.40874556997E+02	-3.68889934431E+01	-1.59230599546E+02
1.78700000000E+07	-2.25664834311E+01	-1.54741436435E+02	3.71288391695E+01	1.37633040292E+02	-4.74722179576E+01	1.40138510008E+02	-3.64042145034E+01	-1.59239030315E+02
1.80650000000E+07	-2.27039288024E+01	-1.55462708401E+02	3.71232542137E+01	1.36905314614E+02	-4.74666107851E+01	1.39427927580E+02	-3.59389154207E+01	-1.59326799313E+02
1.82600000000E+07	-2.28484393961E+01	-1.56276659343E+02	3.71211091802E+01	1.36184458177E+02	-4.74684757969E+01	1.38716785464E+02	-3.55002517239E+01	-1.59463829601E+02
1.84550000000E+07	-2.29698544660E+01	-1.56890454356E+02	3.71236926252E+01	1.35443057178E+02	-4.74652525463E+01	1.37974255389E+02	-3.50975714059E+01	-1.59513183075E+02
1.86500000000E+07	-2.31033028035E+01	-1.57739197473E+02	3.71199008212E+01	1.34734024284E+02	-4.74580674946E+01	1.37287205247E+02	-3.47206717503E+01	-1.59702434345E+02
1.88450000000E+07	-2.32378512291E+01	-1.58455582050E+02	3.71213765165E+01	1.34020598426E+02	-4.74565654511E+01	1.36572935352E+02	-3.43519335947E+01	-1.59895895865E+02
1.90400000000E+07	-2.33666163874E+01	-1.59164905120E+02	3.71189276587E+01	1.33271720465E+02	-4.74524201901E+01	1.35885958973E+02	-3.40206869023E+01	-1.60099239466E+02
1.92350000000E+07	-2.34927497446E+01	-1.59913583298E+02	3.71201417865E+01	1.32567271223E+02	-4.74478160310E+01	1.35170846219E+02	-3.36832467383E+01	-1.60319408324E+02
1.94300000000E+07	-2.36385099788E+01	-1.60550936251E+02	3.71183134573E+01	1.31867492959E+02	-4.74485269167E+01	1.34491571020E+02	-3.33848477136E+01	-1.60502107439E+02
1.96250000000E+07	-2.37734743177E+01	-1.61297627120E+02	3.71196236588E+01	1.31173143293E+02	-4.74439762023E+01	1.33766661814E+02	-3.30887834118E+01	-1.60735642382E+02
1.98200000000E+07	-2.38984327886E+01	-1.62115489038E+02	3.71148352922E+01	1.30434311816E+02	-4.74391259638E+01	1.33122053822E+02	-3.28102553707E+01	-1.60993163714E+02
2.00150000000E+07	-2.40309642127E+01	-1.62723255259E+02	3.71172418770E+01	1.29709832018E+02	-4.74392065340E+01	1.32395261974E+02	-3.25373192453E+01	-1.61358096703E+02
2.02100000000E+07	-2.41669112092E+01	-1.63435926522E+02	3.71134077393E+01	1.28982624589E+02	-4.74332881860E+01	1.31721272037E+02	-3.22911781894E+01	-1.61590694374E+02
2.04050000000E+07	-2.42952726566E+01	-1.64125137052E+02	3.71155451113E+01	1.28300788849E+02	-4.74306853189E+01	1.31034893423E+02	-3.20386473957E+01	-1.61936908443E+02
2.06000000000E+07	-2.44249206868E+01	-1.64828358123E+02	3.71129398118E+01	1.27623077312E+02	-4.74228154329E+01	1.30333175040E+02	-3.18069417437E+01	-1.62190587506E+02
2.07950000000E+07	-2.45630925434E+01	-1.65579699444E+02	3.71151292099E+01	1.26894497688E+02	-4.74280933081E+01	1.29640907627E+02	-3.15764382184E+01	-1.62539099004E+02
2.09900000000E+07	-2.46859376397E+01	-1.66157477426E+02	3.71133199423E+01	1.26251984544E+02	-4.74199768079E+01	1.28970198608E+02	-3.13529433895E+01	-1.62887365299E+02
2.11850000000E+07	-2.48071754228E+01	-1.66920431321E+02	3.71104301467E+01	1.25508659367E+02	-4.74202060052E+01	1.28315035489E+02	-3.11484607634E+01	-1.63207038247E+02
2.13800000000E+07	-2.49456068742E+01	-1.67557517576E+02	3.71067741076E+01	1.24816683804E+02	-4.74165049263E+01	1.27614999631E+02	-3.09454721317E+01	-1.63551126658E+02
2.15750000000E+07	-2.50679971090E+01	-1.68128800414E+02	3.71093217644E+01	1.24137263075E+02	-4.74115929881E+01	1.26945081928E+02	-3.07533246433E+01	-1.63876851729E+02
2.17700000000E+07	-2.51898413907E+01	-1.68988484052E+02	3.71035554678E+01	1.23441689517E+02	-4.74110248680E+01	1.26273331245E+02	-3.05631949443E+01	-1.64228657223E+02
2.19650000000E+07	-2.53366504850E+01	-1.69587077607E+02	3.71027307873E+01	1.22746540894E+02	-4.74064838260E+01	1.25605329792E+02	-3.03837576415E+01	-1.64611248914E+02
2.21600000000E+07	-2.54492677291E+01	-1.70201713520E+02	3.71044876651E+01	1.22062080061E+02	-4.74038404807E+01	1.24920990083E+02	-3.02091061408E+01	-1.65012504324E+02
2.23550000000E+07	-2.55620516383E+01	-1.70977659668E+02	3.71003031667E+01	1.21369575607E+02	-4.74020329751E+01	1.24270864951E+02	-3.00402555443E+01	-1.65369218872E+02
2.25500000000E+07	-2.57170724019E+01	-1.71492706988E+02	3.70998483376E+01	1.20707720847E+02	-4.73977791411E+01	1.23626726157E+02	-2.98716371276E+01	-1.65743380861E+02
2.27450000000E+07	-2.58493213017E+01	-1.72298887485E+02	3.70972289997E+01	1.20002248711E+02	-4.73972430386E+01	1.22955734029E+02	-2.97128230192E+01	-1.66094164665E+02
2.29400000000E+07	-2.59751525585E+01	-1.72909282433E+02	3.70963680140E+01	1.19332008319E+02	-4.73921085877E+01	1.22271798898E+02	-2.95591843969E+01	-1.66502784914E+02
2.31350000000E+07	-2.60926319460E+01	-1.73480440887E+02	3.70945285530E+01	1.18649789030E+02	-4.73869753859E+01	1.21634271272E+02	-2.94126704013E+01	-1.66845089326E+02
2.33300000000E+07	-2.62341647346E+01	-1.74203977133E+02	3.70913256617E+01	1.17955151363E+02	-4.73818881168E+01	1.20967549920E+02	-2.92716822038E+01	-1.67249568442E+02
2.35250000000E+07	-2.63474139043E+01	-1.74812676233E+02	3.70911273125E+01	1.17280797617E+02	-4.73818717540E+01	1.20267771820E+02	-2.91259665868E+01	-1.67631288014E+02
2.37200000000E+07	-2.64736578164E+01	-1.75485100225E+02	3.70847167930E+01	1.16608660627E+02	-4.73830822496E+01	1.19665091655E+02	-2.89935246587E+01	-1.68009100131E+02
2.39150000000E+07	-2.66063133528E+01	-1.76122525476E+02	3.70857056885E+01	1.15948185391E+02	-4.73773955028E+01	1.19001667229E+02	-2.88508805183E+01	-1.68379281919E+02
2.41100000000E+07	-2.67157629113E+01	-1.76772625422E+02	3.70846533720E+01	1.15282610428E+02	-4.73709729108E+01	1.18351514034E+02	-2.87221607847E+01	-1.68825218616E+02
2.43050000000E+07	-2.68569062150E+01	-1.77438791340E+02	3.70827709882E+01	1.14616578848E+02	-4.73695604954E+01	1.17698745416E+02	-2.85963413067E+01	-1.69195487574E+02
2.45000000000E+07	-2.69886494483E+01	-1.78019233906E+02	3.70803139333E+01	1.13944455816E+02	-4.73672345261E+01	1.17057258811E+02	-2.84712511228E+01	-1.69567963049E+02
2.46950000000E+07	-2.71459395106E+01	-1.78550309213E+02	3.70776648964E+01	1.13280732690E+02	-4.73659219517E+01	1.16404689909E+02	-2.83484755986E+01	-1.69940198881E+02
2.48900000000E+07	-2.72277818037E+01	-1.79265334239E+02	3.70748679415E+01	1.12606264309E+02	-4.73656846838E+01	1.15769857753E+02	-2.82308678334E+01	-1.70364637815E+02
2.50850000000E+07	-2.73818410487E+01	-1.79928174908E+02	3.70761621776E+01	1.11926390511E+02	-4.73590240840E+01	1.15123670722E+02	-2.81132487835E+01	-1.70744548899E+02
2.52800000000E+07	-2.75110976535E+01	1.79635541730E+02	3.70727979743E+01	1.11274955793E+02	-4.73554236814E+01	1.14469384543E+02	-2.80011863919E+01	-1.71172392725E+02
2.54750000000E+07	-2.76397312767E+01	1.78813428600E+02	3.70723781727E+01	1.10622088448E+02	-4.73494283249E+01	1.13837302364E+02	-2.78947390352E+01	-1.71575397499E+02
2.56700000000E+07	-2.77807878016E+01	1.78376186898E+02	3.70670097656E+01	1.09924165967E+02	-4.73470625472E+01	1.13200108221E+02	-2.77805807283E+01	-1.72011821819E+02
2.58650000000E+07	-2.79148587528E+01	1.77634647912E+02	3.70634315224E+01	1.09292573006E+02	-4.73499561641E+01	1.12556106407E+02	-2.76753843245E+01	-1.72412374845E+02
2.60600000000E+07	-2.80214622363E+01	1.77104468104E+02	3.70646565790E+01	1.08613100967E+02	-4.73436505945E+01	1.11919718473E+02	-2.75668214143E+01	-1.72816483727E+02
2.62550000000E+07	-2.81956923913E+01	1.76522248036E+02	3.70579335561E+01	1.07954028740E+02	-4.73398695116E+01	1.11265826368E+02	-2.74703448967E+01	-1.73241037691E+02
2.64500000000E+07	-2.83050453886E+01	1.76026377195E+02	3.70585510772E+01	1.07287530597E+02	-4.73355957827E+01	1.10662884081E+02	-2.73715418612E+01	-1.73661692672E+02
2.66450000000E+07	-2.84364948531E+01	1.75578489674E+02	3.70582414306E+01	1.06662514420E+02	-4.73340039390E+01	1.10023398618E+02	-2.72706608774E+01	-1.74094591926E+02
2.68400000000E+07	-2.85714449133E+01	1.74659479031E+02	3.70553554791E+01	1.05973301482E+02	-4.73285047612E+01	1.09368648749E+02	-2.71736335687E+01	-1.74555151758E+02
2.70350000000E+07	-2.87229919081E+01	1.74112568010E+02	3.70537655847E+01	1.05322114578E+02	-4.73262678229E+01	1.08760996889E+02	-2.70852627406E+01	-1.74944932170E+02
2.72300000000E+07	-2.88355788694E+01	1.73684445507E+02	3.70503492363E+01	1.04667781260E+02	-4.73264317330E+01	1.08123320341E+02	-2.69924217364E+01	-1.75392230514E+02
2.74250000000E+07	-2.90071180833E+01	1.73164182552E+02	3.70483685313E+01	1.04029918797E+02	-4.73223588630E+01	1.07485263155E+02	-2.69037127684E+01	-1.75841204874E+02
2.76200000000E+07	-2.91031783219E+01	1.72580798121E+02	3.70460089840E+01	1.03382871953E+02	-4.73198954517E+01	1.06844849151E+02	-2.68170400895E+01	-1.76276561894E+02
2.78150000000E+07	-2.92482076171E+01	1.72138003432E+02	3.70423376220E+01	1.02728504440E+02	-4.73166649995E+01	1.06233000691E+02	-2.67269719575E+01	-1.76710830851E+02
