# Hz S DB R 50
! CMT, M5045, 22160017, 22.3.3/2
! Date: 10/8/2022 19:00:37
! Data: Format (Calibration Info)
! Freq	S11:dB/Ang(F2)	S21:dB/Ang(F2)	S12:dB/Ang(F2)	S22:dB/Ang(F2)
5.00000000000E+06	-1.02109624725E+01	-9.04796103374E+01	3.64872616571E+01	-1.50653024299E+02	-4.85126883366E+01	-1.47796882317E+02	-1.47476624909E+01	6.70164222638E+01
5.19500000000E+06	-1.05566689805E+01	-9.18496767486E+01	3.65587832261E+01	-1.52905854248E+02	-4.84269655799E+01	-1.50072900871E+02	-1.53435216605E+01	6.59014516427E+01
5.39000000000E+06	-1.08880765310E+01	-9.32601364985E+01	3.66220548892E+01	-1.55084770423E+02	-4.83740345207E+01	-1.52222958769E+02	-1.59274305822E+01	6.49101616101E+01
5.58500000000E+06	-1.12112594390E+01	-9.45617708944E+01	3.66770348046E+01	-1.57125580278E+02	-4.83024225183E+01	-1.54345348328E+02	-1.64995047682E+01	6.40166319261E+01
5.78000000000E+06	-1.15169013773E+01	-9.58142519867E+01	3.67283639884E+01	-1.59088355377E+02	-4.82498450421E+01	-1.56284394240E+02	-1.70634911720E+01	6.32079300876E+01
5.97500000000E+06	-1.18252934738E+01	-9.70335466584E+01	3.67710028512E+01	-1.60972912290E+02	-4.81960401087E+01	-1.58197496762E+02	-1.76161169562E+01	6.24640820728E+01
6.17000000000E+06	-1.21108889362E+01	-9.82410416098E+01	3.68097635043E+01	-1.62791276523E+02	-4.81545611441E+01	-1.60013761176E+02	-1.81624040996E+01	6.18084152519E+01
6.36500000000E+06	-1.23915899078E+01	-9.93417235054E+01	3.68475838106E+01	-1.64471420528E+02	-4.81084349364E+01	-1.61717324520E+02	-1.87002799641E+01	6.12115192973E+01
6.56000000000E+06	-1.26749223616E+01	-1.00486897625E+02	3.68746691205E+01	-1.66139716044E+02	-4.80711486490E+01	-1.63376165007E+02	-1.92316381264E+01	6.06773221962E+01
6.75500000000E+06	-1.29444191809E+01	-1.01542254840E+02	3.69048106829E+01	-1.67737284023E+02	-4.80389436285E+01	-1.64980840071E+02	-1.97574651473E+01	6.01827279309E+01
6.95000000000E+06	-1.32069948352E+01	-1.02622665069E+02	3.69269547901E+01	-1.69290455000E+02	-4.79990130117E+01	-1.66524521557E+02	-2.02773398424E+01	5.97738739504E+01
7.14500000000E+06	-1.34573628165E+01	-1.03677859549E+02	3.69540920927E+01	-1.70798436831E+02	-4.79794763720E+01	-1.68026082427E+02	-2.07957169748E+01	5.94147952247E+01
7.34000000000E+06	-1.37164911333E+01	-1.04694844530E+02	3.69699992482E+01	-1.72214323934E+02	-4.79449205582E+01	-1.69489771731E+02	-2.13067058154E+01	5.90819817426E+01
7.53500000000E+06	-1.39545786974E+01	-1.05674347722E+02	3.69978407540E+01	-1.73607662447E+02	-4.79227126570E+01	-1.70850857219E+02	-2.18163167013E+01	5.88386526658E+01
7.73000000000E+06	-1.41846345738E+01	-1.06615763411E+02	3.70146637464E+01	-1.74968572649E+02	-4.78987958795E+01	-1.72206199232E+02	-2.23225280865E+01	5.86105705706E+01
7.92500000000E+06	-1.44296588315E+01	-1.07648167018E+02	3.70239344113E+01	-1.76317287028E+02	-4.78828212088E+01	-1.73528299519E+02	-2.28308350871E+01	5.84204082855E+01
8.12000000000E+06	-1.46513668226E+01	-1.08545516123E+02	3.70434059558E+01	-1.77569823362E+02	-4.78591672370E+01	-1.74834744727E+02	-2.33398018062E+01	5.83338993703E+01
8.31500000000E+06	-1.48714310958E+01	-1.09547444047E+02	3.70589987706E+01	-1.78843583879E+02	-4.78370839638E+01	-1.76022278292E+02	-2.38440110954E+01	5.82540138330E+01
8.51000000000E+06	-1.50995761080E+01	-1.10465844818E+02	3.70663215360E+01	1.79942709214E+02	-4.78201667376E+01	-1.77296508796E+02	-2.43527374740E+01	5.82271539435E+01
8.70500000000E+06	-1.53212457161E+01	-1.11361852925E+02	3.70795246511E+01	1.78753276926E+02	-4.78035873774E+01	-1.78442996235E+02	-2.48638326816E+01	5.82582686204E+01
8.90000000000E+06	-1.55332518133E+01	-1.12288130984E+02	3.70891456498E+01	1.77595473401E+02	-4.77915243514E+01	-1.79639378954E+02	-2.53738014421E+01	5.83548265054E+01
9.09500000000E+06	-1.57305320151E+01	-1.13204800420E+02	3.70976665464E+01	1.76452000367E+02	-4.77782218481E+01	1.79212784961E+02	-2.58829385408E+01	5.84916238058E+01
9.29000000000E+06	-1.59426100585E+01	-1.14077761870E+02	3.71078073994E+01	1.75316172169E+02	-4.77655271162E+01	1.78143415437E+02	-2.64003733332E+01	5.87265842195E+01
9.48500000000E+06	-1.61453810155E+01	-1.15005193960E+02	3.71140642194E+01	1.74200806921E+02	-4.77469402529E+01	1.76972871104E+02	-2.69260865713E+01	5.89807582874E+01
9.68000000000E+06	-1.63457379790E+01	-1.15902229299E+02	3.71223460115E+01	1.73140486621E+02	-4.77345914319E+01	1.75909502730E+02	-2.74537585412E+01	5.93286863255E+01
9.87500000000E+06	-1.65421469436E+01	-1.16787008722E+02	3.71259674924E+01	1.72051366468E+02	-4.77259692374E+01	1.74857501671E+02	-2.79703330677E+01	5.97548251006E+01
1.00700000000E+07	-1.67410781856E+01	-1.17565382504E+02	3.71277604891E+01	1.71042017461E+02	-4.77095168212E+01	1.73784555062E+02	-2.85277477053E+01	6.01288090739E+01
1.02650000000E+07	-1.69234325693E+01	-1.18469471016E+02	3.71427117953E+01	1.70022823873E+02	-4.77010350312E+01	1.72738073937E+02	-2.90739548380E+01	6.08057548798E+01
1.04600000000E+07	-1.71154539384E+01	-1.19327197450E+02	3.71401943397E+01	1.69015262758E+02	-4.77025260525E+01	1.71723210910E+02	-2.96246681540E+01	6.14829302078E+01
1.06550000000E+07	-1.73050189987E+01	-1.20229085174E+02	3.71466895204E+01	1.68027156356E+02	-4.76921091567E+01	1.70747274338E+02	-3.01850466452E+01	6.21907569072E+01
1.08500000000E+07	-1.74858901582E+01	-1.21094666020E+02	3.71527377238E+01	1.67072022606E+02	-4.76919190595E+01	1.69761194473E+02	-3.07553416372E+01	6.30226921405E+01
1.10450000000E+07	-1.76715956198E+01	-1.21978104366E+02	3.71581937901E+01	1.66081600448E+02	-4.76775007704E+01	1.68794165483E+02	-3.13403215310E+01	6.39935318569E+01
1.12400000000E+07	-1.78517762952E+01	-1.22906602927E+02	3.71607370970E+01	1.65117011725E+02	-4.76769869583E+01	1.67801405429E+02	-3.19372267404E+01	6.51653233001E+01
1.14350000000E+07	-1.80317895448E+01	-1.23709252295E+02	3.71650565127E+01	1.64152788072E+02	-4.76646548791E+01	1.66861762150E+02	-3.25524640847E+01	6.64692802538E+01
1.16300000000E+07	-1.82111157569E+01	-1.24598595695E+02	3.71682486558E+01	1.63207838620E+02	-4.76539630634E+01	1.65875192380E+02	-3.31871423391E+01	6.79700100769E+01
1.18250000000E+07	-1.83862458326E+01	-1.25476277549E+02	3.71709430620E+01	1.62292957055E+02	-4.76446843951E+01	1.64945751203E+02	-3.38104880311E+01	6.97624886735E+01
1.20200000000E+07	-1.85586712267E+01	-1.26348095278E+02	3.71733010792E+01	1.61356676912E+02	-4.76403127877E+01	1.63960350222E+02	-3.44597187818E+01	7.18010147525E+01
1.22150000000E+07	-1.87372327079E+01	-1.27231867163E+02	3.71748742976E+01	1.60411061960E+02	-4.76379048767E+01	1.63039737188E+02	-3.51071144669E+01	7.40966546909E+01
1.24100000000E+07	-1.89112639040E+01	-1.28043467957E+02	3.71763615284E+01	1.59523061015E+02	-4.76338434869E+01	1.62114301400E+02	-3.57688898114E+01	7.68151225852E+01
1.26050000000E+07	-1.90708037232E+01	-1.28851216379E+02	3.71779562843E+01	1.58649683612E+02	-4.76276887138E+01	1.61232121893E+02	-3.64337374125E+01	7.99417217528E+01
1.28000000000E+07	-1.92599680032E+01	-1.29717683901E+02	3.71754778201E+01	1.57786490096E+02	-4.76193585692E+01	1.60338749050E+02	-3.70732844815E+01	8.34813857196E+01
1.29950000000E+07	-1.94143103338E+01	-1.30526016174E+02	3.71764840877E+01	1.56926727892E+02	-4.76188327255E+01	1.59455596312E+02	-3.76946607487E+01	8.75794849621E+01
1.31900000000E+07	-1.95822015521E+01	-1.31335825511E+02	3.71790249617E+01	1.56073705389E+02	-4.76144426994E+01	1.58590270360E+02	-3.83056231277E+01	9.21874403570E+01
1.33850000000E+07	-1.97547028620E+01	-1.32117115003E+02	3.71820141179E+01	1.55260854327E+02	-4.76073091955E+01	1.57736178217E+02	-3.88272788921E+01	9.72539044126E+01
1.35800000000E+07	-1.99270775242E+01	-1.32896653549E+02	3.71794401596E+01	1.54455603812E+02	-4.76045550514E+01	1.56883643985E+02	-3.92979203823E+01	1.03005969167E+02
1.37750000000E+07	-2.00888006853E+01	-1.33596760520E+02	3.71819048879E+01	1.53609871254E+02	-4.75979257544E+01	1.56059287578E+02	-3.96556743784E+01	1.09001803289E+02
1.39700000000E+07	-2.02546821621E+01	-1.34521823345E+02	3.71843188034E+01	1.52791262862E+02	-4.75965852722E+01	1.55242923794E+02	-3.99078578537E+01	1.15348349427E+02
1.41650000000E+07	-2.04038533854E+01	-1.35295911372E+02	3.71856883464E+01	1.51965204725E+02	-4.75921985348E+01	1.54441910434E+02	-4.00285331834E+01	1.21837742468E+02
1.43600000000E+07	-2.05649009261E+01	-1.36029414202E+02	3.71854303199E+01	1.51150974140E+02	-4.75901776981E+01	1.53663176106E+02	-4.00296968296E+01	1.28074455365E+02
1.45550000000E+07	-2.07257443731E+01	-1.36843984104E+02	3.71844789386E+01	1.50343840809E+02	-4.75838246793E+01	1.52810846344E+02	-3.99267176109E+01	1.34368047167E+02
1.47500000000E+07	-2.08848570081E+01	-1.37626791609E+02	3.71834708305E+01	1.49570352746E+02	-4.75807252483E+01	1.52041471926E+02	-3.97075744332E+01	1.40018818849E+02
1.49450000000E+07	-2.10488586351E+01	-1.38250866989E+02	3.71856756779E+01	1.48747259923E+02	-4.75800227843E+01	1.51259915257E+02	-3.94243542132E+01	1.45087419380E+02
1.51400000000E+07	-2.12123190222E+01	-1.39025117021E+02	3.71828784180E+01	1.47990983937E+02	-4.75718044160E+01	1.50445811787E+02	-3.90880594692E+01	1.49861860515E+02
1.53350000000E+07	-2.13608424872E+01	-1.39751308625E+02	3.71855136714E+01	1.47210980845E+02	-4.75663301069E+01	1.49672620679E+02	-3.86968417586E+01	1.54200564199E+02
1.55300000000E+07	-2.15183895574E+01	-1.40475297612E+02	3.71828761597E+01	1.46422768295E+02	-4.75636408012E+01	1.48901010649E+02	-3.82900566335E+01	1.57915648416E+02
1.57250000000E+07	-2.16705313136E+01	-1.41277589926E+02	3.71853502474E+01	1.45664156020E+02	-4.75631215207E+01	1.48132904229E+02	-3.78704111482E+01	1.61032153610E+02
1.59200000000E+07	-2.18385265907E+01	-1.41950317334E+02	3.71852757164E+01	1.44880986113E+02	-4.75562186599E+01	1.47365469544E+02	-3.74536697534E+01	1.63940562705E+02
1.61150000000E+07	-2.19709100561E+01	-1.42766379457E+02	3.71865400959E+01	1.44091828181E+02	-4.75539251511E+01	1.46611019263E+02	-3.70265828344E+01	1.66360083233E+02
1.63100000000E+07	-2.21225138275E+01	-1.43392391840E+02	3.71884036193E+01	1.43345258390E+02	-4.75506241583E+01	1.45853662418E+02	-3.66531848607E+01	1.68573158539E+02
1.65050000000E+07	-2.22796999582E+01	-1.44149006455E+02	3.71840843391E+01	1.42574310136E+02	-4.75450305249E+01	1.45119154951E+02	-3.62343431441E+01	1.70547372763E+02
1.67000000000E+07	-2.24245564842E+01	-1.44838198361E+02	3.71817758165E+01	1.41842920913E+02	-4.75436025345E+01	1.44375803491E+02	-3.58538076965E+01	1.72277247721E+02
1.68950000000E+07	-2.25742623222E+01	-1.45594983794E+02	3.71873194982E+01	1.41070324750E+02	-4.75422177116E+01	1.43636568113E+02	-3.54715307339E+01	1.73757328374E+02
1.70900000000E+07	-2.27388253503E+01	-1.46272133581E+02	3.71815571806E+01	1.40324854506E+02	-4.75387201820E+01	1.42898270944E+02	-3.51170523277E+01	1.75040553930E+02
1.72850000000E+07	-2.28706535653E+01	-1.46909351805E+02	3.71838173286E+01	1.39601001406E+02	-4.75395047343E+01	1.42162514498E+02	-3.47629918242E+01	1.76123965862E+02
1.74800000000E+07	-2.30177205153E+01	-1.47551762803E+02	3.71868736114E+01	1.38876509403E+02	-4.75347001306E+01	1.41453991260E+02	-3.44480875597E+01	1.77134617720E+02
1.76750000000E+07	-2.31845219863E+01	-1.48421690896E+02	3.71818707166E+01	1.38103196606E+02	-4.75313910861E+01	1.40733284899E+02	-3.41386289289E+01	1.77908823896E+02
1.78700000000E+07	-2.33291849723E+01	-1.49121139255E+02	3.71800353222E+01	1.37374801132E+02	-4.75312001002E+01	1.39998376763E+02	-3.38442671394E+01	1.78665102382E+02
1.80650000000E+07	-2.34728237893E+01	-1.49705228982E+02	3.71818188894E+01	1.36642649656E+02	-4.75217158927E+01	1.39295187773E+02	-3.35506683078E+01	1.79350170466E+02
1.82600000000E+07	-2.36040993239E+01	-1.50305086735E+02	3.71753618279E+01	1.35942178659E+02	-4.75202428300E+01	1.38577617524E+02	-3.32621165665E+01	1.79921579783E+02
1.84550000000E+07	-2.37710266961E+01	-1.50986208048E+02	3.71797288022E+01	1.35189430892E+02	-4.75172800213E+01	1.37842751475E+02	-3.30064153072E+01	-1.79527520632E+02
1.86500000000E+07	-2.39244546298E+01	-1.51681411480E+02	3.71778312929E+01	1.34486625923E+02	-4.75114934807E+01	1.37142765971E+02	-3.27499219391E+01	-1.79135057489E+02
1.88450000000E+07	-2.40648409076E+01	-1.52335637046E+02	3.71748306190E+01	1.33754716755E+02	-4.75095722460E+01	1.36439497776E+02	-3.24949957248E+01	-1.78715549718E+02
1.90400000000E+07	-2.42229791676E+01	-1.53058172886E+02	3.71735051399E+01	1.33042576592E+02	-4.75081130074E+01	1.35735166317E+02	-3.22655085527E+01	-1.78418285664E+02
1.92350000000E+07	-2.43458343895E+01	-1.53713224145E+02	3.71741427961E+01	1.32300318071E+02	-4.75016736804E+01	1.35039097613E+02	-3.20248258194E+01	-1.78156195423E+02
1.94300000000E+07	-2.45068228357E+01	-1.54317984986E+02	3.71735072511E+01	1.31604764909E+02	-4.75001238686E+01	1.34324061635E+02	-3.18108439336E+01	-1.77954143682E+02
1.96250000000E+07	-2.46490195849E+01	-1.55001879620E+02	3.71733753624E+01	1.30864134231E+02	-4.75025753243E+01	1.33664202900E+02	-3.15892084496E+01	-1.77665877331E+02
1.98200000000E+07	-2.47921736279E+01	-1.55673539338E+02	3.71715773254E+01	1.30177343125E+02	-4.74969930234E+01	1.32958453060E+02	-3.13868823279E+01	-1.77518785433E+02
2.00150000000E+07	-2.49422201497E+01	-1.56359607671E+02	3.71707224154E+01	1.29492810976E+02	-4.74964361701E+01	1.32281444018E+02	-3.11805429415E+01	-1.77409106635E+02
2.02100000000E+07	-2.50967100408E+01	-1.56940961151E+02	3.71698719877E+01	1.28772582366E+02	-4.74859786810E+01	1.31562677303E+02	-3.09885655886E+01	-1.77340397175E+02
2.04050000000E+07	-2.52336431600E+01	-1.57563185588E+02	3.71674241030E+01	1.28078154938E+02	-4.74865806009E+01	1.30884680594E+02	-3.08014633075E+01	-1.77261975118E+02
2.06000000000E+07	-2.53585999290E+01	-1.58260211333E+02	3.71658329638E+01	1.27393307265E+02	-4.74833441191E+01	1.30228782462E+02	-3.06219167746E+01	-1.77195669261E+02
2.07950000000E+07	-2.55297688374E+01	-1.58870041527E+02	3.71649813435E+01	1.26661068770E+02	-4.74852510340E+01	1.29527725213E+02	-3.04427212126E+01	-1.77166595882E+02
2.09900000000E+07	-2.56767562747E+01	-1.59481411106E+02	3.71636744938E+01	1.25989151599E+02	-4.74820403202E+01	1.28864139402E+02	-3.02673985783E+01	-1.77142939825E+02
2.11850000000E+07	-2.58164552669E+01	-1.60057436147E+02	3.71643569582E+01	1.25267482695E+02	-4.74761134760E+01	1.28168012866E+02	-3.01039412638E+01	-1.77213382907E+02
2.13800000000E+07	-2.59558938259E+01	-1.60786038983E+02	3.71606820615E+01	1.24611022580E+02	-4.74731204785E+01	1.27518432755E+02	-2.99379501583E+01	-1.77254911634E+02
2.15750000000E+07	-2.60955879233E+01	-1.61281512867E+02	3.71626671093E+01	1.23887335327E+02	-4.74709110651E+01	1.26851404843E+02	-2.97866589958E+01	-1.77322495502E+02
2.17700000000E+07	-2.62562664565E+01	-1.61896557295E+02	3.71541424323E+01	1.23187191507E+02	-4.74671523961E+01	1.26159307274E+02	-2.96304545451E+01	-1.77423251861E+02
2.19650000000E+07	-2.63837984608E+01	-1.62674183258E+02	3.71562715576E+01	1.22518701849E+02	-4.74678048544E+01	1.25520949410E+02	-2.94913167906E+01	-1.77536799566E+02
2.21600000000E+07	-2.65344360345E+01	-1.63171980034E+02	3.71591510550E+01	1.21817676880E+02	-4.74608352812E+01	1.24823254245E+02	-2.93455217345E+01	-1.77659583286E+02
2.23550000000E+07	-2.66681166644E+01	-1.63799847326E+02	3.71531790591E+01	1.21138223590E+02	-4.74610162941E+01	1.24159875733E+02	-2.92037332711E+01	-1.77814691917E+02
2.25500000000E+07	-2.68047750286E+01	-1.64305571768E+02	3.71522830535E+01	1.20472141293E+02	-4.74560907633E+01	1.23515205138E+02	-2.90658086149E+01	-1.77948990030E+02
2.27450000000E+07	-2.69734789824E+01	-1.64902408576E+02	3.71497265269E+01	1.19773944058E+02	-4.74516355827E+01	1.22846345917E+02	-2.89342603193E+01	-1.78085456339E+02
2.29400000000E+07	-2.70836499530E+01	-1.65656425769E+02	3.71462505315E+01	1.19117050804E+02	-4.74512837098E+01	1.22182283412E+02	-2.88097161478E+01	-1.78242242780E+02
2.31350000000E+07	-2.72507745769E+01	-1.66093032137E+02	3.71441138136E+01	1.18420977921E+02	-4.74466836361E+01	1.21534486737E+02	-2.86860992498E+01	-1.78381033619E+02
2.33300000000E+07	-2.73962727002E+01	-1.66650509516E+02	3.71470135174E+01	1.17747736463E+02	-4.74413293596E+01	1.20847998798E+02	-2.85624069772E+01	-1.78612484185E+02
2.35250000000E+07	-2.75340692636E+01	-1.67160553534E+02	3.71385306056E+01	1.17077688520E+02	-4.74455609315E+01	1.20208978144E+02	-2.84472563937E+01	-1.78791504186E+02
2.37200000000E+07	-2.76944222583E+01	-1.67884053227E+02	3.71387312853E+01	1.16408539769E+02	-4.74375590311E+01	1.19584846914E+02	-2.83294235389E+01	-1.78986615490E+02
2.39150000000E+07	-2.78723709041E+01	-1.68372256580E+02	3.71350026496E+01	1.15729709737E+02	-4.74402496421E+01	1.18949395111E+02	-2.82130370108E+01	-1.79180075463E+02
2.41100000000E+07	-2.79816491080E+01	-1.68845743867E+02	3.71382113594E+01	1.15054375967E+02	-4.74346818300E+01	1.18298259308E+02	-2.80975060583E+01	-1.79420127010E+02
2.43050000000E+07	-2.81420759895E+01	-1.69605264254E+02	3.71321658796E+01	1.14391646465E+02	-4.74354068488E+01	1.17626595850E+02	-2.79921442099E+01	-1.79651939356E+02
2.45000000000E+07	-2.82886597784E+01	-1.69959597436E+02	3.71304124162E+01	1.13701147591E+02	-4.74314269869E+01	1.16974845626E+02	-2.78861882403E+01	-1.79828007123E+02
2.46950000000E+07	-2.84446119693E+01	-1.70509726376E+02	3.71293093108E+01	1.13078591025E+02	-4.74282035425E+01	1.16343343259E+02	-2.77779520515E+01	1.79917770222E+02
2.48900000000E+07	-2.85556558485E+01	-1.71179510351E+02	3.71272523186E+01	1.12393337433E+02	-4.74271532752E+01	1.15706359008E+02	-2.76772868683E+01	1.79697207920E+02
2.50850000000E+07	-2.87410693533E+01	-1.71808279322E+02	3.71240391232E+01	1.11726683653E+02	-4.74221500827E+01	1.15050450344E+02	-2.75758188266E+01	1.79454440101E+02
2.52800000000E+07	-2.88992451723E+01	-1.72260809283E+02	3.71237302424E+01	1.11044088755E+02	-4.74190795476E+01	1.14408211702E+02	-2.74760072205E+01	1.79187044674E+02
2.54750000000E+07	-2.90287824049E+01	-1.72686514475E+02	3.71201257516E+01	1.10399229477E+02	-4.74192208626E+01	1.13759062027E+02	-2.73863820241E+01	1.78939126683E+02
2.56700000000E+07	-2.91813583003E+01	-1.73418799022E+02	3.71201379073E+01	1.09730481923E+02	-4.74180090931E+01	1.13161228905E+02	-2.72826920038E+01	1.78645211707E+02
2.58650000000E+07	-2.93410759147E+01	-1.73614381291E+02	3.71176789730E+01	1.09063041144E+02	-4.74073359665E+01	1.12498836889E+02	-2.71934369983E+01	1.78358357336E+02
2.60600000000E+07	-2.95253478573E+01	-1.74151041443E+02	3.71128766613E+01	1.08418052376E+02	-4.74089855728E+01	1.11856275262E+02	-2.70990602909E+01	1.78093763518E+02
2.62550000000E+07	-2.96584821705E+01	-1.74762619552E+02	3.71119151977E+01	1.07738263204E+02	-4.74034776240E+01	1.11209280632E+02	-2.70114836437E+01	1.77787493851E+02
2.64500000000E+07	-2.98166619575E+01	-1.75441636721E+02	3.71088688446E+01	1.07084421137E+02	-4.74021992526E+01	1.10582041189E+02	-2.69247722841E+01	1.77500926576E+02
2.66450000000E+07	-2.99214349096E+01	-1.75598153909E+02	3.71069844407E+01	1.06446056406E+02	-4.74006229597E+01	1.09959341547E+02	-2.68360077649E+01	1.77199850407E+02
2.68400000000E+07	-3.01468577522E+01	-1.76310709892E+02	3.71035139893E+01	1.05790792555E+02	-4.73962259725E+01	1.09335768782E+02	-2.67523109551E+01	1.76906286285E+02
2.70350000000E+07	-3.02806917848E+01	-1.76797726081E+02	3.71060294987E+01	1.05118578217E+02	-4.73931876599E+01	1.08705700093E+02	-2.66738428517E+01	1.76615166961E+02
2.72300000000E+07	-3.04634293277E+01	-1.77343211720E+02	3.71056850505E+01	1.04467865329E+02	-4.73930570904E+01	1.08070525556E+02	-2.65895344279E+01	1.76281472362E+02
2.74250000000E+07	-3.05896554033E+01	-1.77921411474E+02	3.70983140251E+01	1.03823325516E+02	-4.73889639339E+01	1.07415955190E+02	-2.65108704677E+01	1.75962912749E+02
2.76200000000E+07	-3.08186814205E+01	-1.78002955208E+02	3.70950434913E+01	1.03152233255E+02	-4.73889936126E+01	1.06797510800E+02	-2.64316464398E+01	1.75638268016E+02
2.78150000000E+07	-3.09406179240E+01	-1.78560430634E+02	3.70923220722E+01	1.02520077731E+02	-4.73808962999E+01	1.06159499261E+02	-2.63524726968E+01	1.75312454281E+02
