# Hz S DB R 50
! CMT, M5045, 22160017, 22.3.3/2
! Date: 10/8/2022 18:37:25
! Data: Format (Calibration Info)
! Freq	S11:dB/Ang(F2)	S21:dB/Ang(F2)	S12:dB/Ang(F2)	S22:dB/Ang(F2)
5.00000000000E+06	-1.01368411578E+01	-9.09464170278E+01	3.64992395996E+01	-1.50278645170E+02	-4.85223806143E+01	-1.47427015135E+02	-1.45091980423E+01	6.58510063998E+01
5.19500000000E+06	-1.04874371606E+01	-9.23769424224E+01	3.65701612300E+01	-1.52550991199E+02	-4.84421534048E+01	-1.49628473273E+02	-1.50935905349E+01	6.46378119384E+01
5.39000000000E+06	-1.08235132196E+01	-9.38147696562E+01	3.66312455467E+01	-1.54713342848E+02	-4.83751219246E+01	-1.51872290170E+02	-1.56666729320E+01	6.35175713130E+01
5.58500000000E+06	-1.11346412432E+01	-9.51809791552E+01	3.66923463804E+01	-1.56781924680E+02	-4.83121786462E+01	-1.53998883261E+02	-1.62280389926E+01	6.25005388198E+01
5.78000000000E+06	-1.14461346450E+01	-9.64360794999E+01	3.67359507106E+01	-1.58746712426E+02	-4.82538137048E+01	-1.55999347824E+02	-1.67810064809E+01	6.15614601404E+01
5.97500000000E+06	-1.17448050125E+01	-9.76826545113E+01	3.67864608796E+01	-1.60621513243E+02	-4.82082575964E+01	-1.57837266710E+02	-1.73222719589E+01	6.06810405609E+01
6.17000000000E+06	-1.20330456606E+01	-9.89150653228E+01	3.68289575821E+01	-1.62420481268E+02	-4.81670097705E+01	-1.59638244413E+02	-1.78570179273E+01	5.98863230113E+01
6.36500000000E+06	-1.23179157522E+01	-1.00102203389E+02	3.68670627668E+01	-1.64154621077E+02	-4.81217844616E+01	-1.61373634727E+02	-1.83822718034E+01	5.91405584882E+01
6.56000000000E+06	-1.25962825975E+01	-1.01256717521E+02	3.68960991478E+01	-1.65818063456E+02	-4.80735497560E+01	-1.63043210742E+02	-1.89041167710E+01	5.84728234621E+01
6.75500000000E+06	-1.28589079359E+01	-1.02336107124E+02	3.69270148642E+01	-1.67419525096E+02	-4.80408454655E+01	-1.64665212228E+02	-1.94157455615E+01	5.78111392135E+01
6.95000000000E+06	-1.31211267624E+01	-1.03541205764E+02	3.69506991929E+01	-1.68993333291E+02	-4.80120618633E+01	-1.66182943411E+02	-1.99285954820E+01	5.72474643000E+01
7.14500000000E+06	-1.33748554977E+01	-1.04549272385E+02	3.69766037048E+01	-1.70485801530E+02	-4.79840386333E+01	-1.67717049275E+02	-2.04317432981E+01	5.67057541444E+01
7.34000000000E+06	-1.36289486958E+01	-1.05599157724E+02	3.69961510197E+01	-1.71908898408E+02	-4.79464302981E+01	-1.69148294684E+02	-2.09274559142E+01	5.62030118559E+01
7.53500000000E+06	-1.38653877598E+01	-1.06626125589E+02	3.70177041760E+01	-1.73306183569E+02	-4.79247325431E+01	-1.70561054246E+02	-2.14244122110E+01	5.57684365269E+01
7.73000000000E+06	-1.41044578559E+01	-1.07664157231E+02	3.70350228145E+01	-1.74667817254E+02	-4.78965228706E+01	-1.71936335261E+02	-2.19185404031E+01	5.53344342746E+01
7.92500000000E+06	-1.43359014452E+01	-1.08686150475E+02	3.70534205836E+01	-1.76019823139E+02	-4.78771753676E+01	-1.73238897303E+02	-2.24126923496E+01	5.49494355708E+01
8.12000000000E+06	-1.45608932394E+01	-1.09658436692E+02	3.70707341113E+01	-1.77308400949E+02	-4.78550222388E+01	-1.74527899477E+02	-2.29050990698E+01	5.46184978209E+01
8.31500000000E+06	-1.47888320426E+01	-1.10636750130E+02	3.70799100638E+01	-1.78542742620E+02	-4.78346614000E+01	-1.75797005037E+02	-2.33963030452E+01	5.43282946408E+01
8.51000000000E+06	-1.50019047471E+01	-1.11581154686E+02	3.70935932536E+01	-1.79780549568E+02	-4.78203882033E+01	-1.77010691262E+02	-2.38917115447E+01	5.40561222526E+01
8.70500000000E+06	-1.52238933661E+01	-1.12523227590E+02	3.71012995923E+01	1.79017583324E+02	-4.78041111859E+01	-1.78189563862E+02	-2.43827903289E+01	5.38138741668E+01
8.90000000000E+06	-1.54338656676E+01	-1.13483726849E+02	3.71145459868E+01	1.77835221145E+02	-4.77925391004E+01	-1.79329204403E+02	-2.48760261273E+01	5.36245962438E+01
9.09500000000E+06	-1.56462225977E+01	-1.14479856512E+02	3.71243787606E+01	1.76699063649E+02	-4.77833260271E+01	1.79494905809E+02	-2.53724131799E+01	5.34973493344E+01
9.29000000000E+06	-1.58475007333E+01	-1.15378588698E+02	3.71314334048E+01	1.75585007426E+02	-4.77559732120E+01	1.78356743460E+02	-2.58761161634E+01	5.33957434076E+01
9.48500000000E+06	-1.60518044939E+01	-1.16355305279E+02	3.71406540022E+01	1.74479093771E+02	-4.77455560056E+01	1.77239340318E+02	-2.63793884949E+01	5.32831362263E+01
9.68000000000E+06	-1.62553296877E+01	-1.17198044326E+02	3.71444634890E+01	1.73418162354E+02	-4.77329194402E+01	1.76173652396E+02	-2.68843523375E+01	5.32957372122E+01
9.87500000000E+06	-1.64439429136E+01	-1.18056294179E+02	3.71519229798E+01	1.72365539998E+02	-4.77166662990E+01	1.75097380825E+02	-2.73885811310E+01	5.33085036070E+01
1.00700000000E+07	-1.66378275852E+01	-1.19049391327E+02	3.71585033439E+01	1.71300302074E+02	-4.77082274202E+01	1.74044408264E+02	-2.79227247848E+01	5.32604846304E+01
1.02650000000E+07	-1.68316553825E+01	-1.19949461796E+02	3.71650416320E+01	1.70286846569E+02	-4.77038900552E+01	1.73024806291E+02	-2.84512957328E+01	5.34543226992E+01
1.04600000000E+07	-1.70141442534E+01	-1.20839393803E+02	3.71725707772E+01	1.69292949066E+02	-4.76906154717E+01	1.72015374561E+02	-2.89778827737E+01	5.35556444507E+01
1.06550000000E+07	-1.71920500526E+01	-1.21749236747E+02	3.71797876951E+01	1.68290575795E+02	-4.76860601666E+01	1.70956187187E+02	-2.95179566544E+01	5.36972913725E+01
1.08500000000E+07	-1.73854964408E+01	-1.22652234073E+02	3.71827234261E+01	1.67310904654E+02	-4.76820408474E+01	1.69981050214E+02	-3.00720757940E+01	5.38413438394E+01
1.10450000000E+07	-1.75667522901E+01	-1.23626399599E+02	3.71850854167E+01	1.66323968133E+02	-4.76709299837E+01	1.69006933370E+02	-3.06494736447E+01	5.40963827993E+01
1.12400000000E+07	-1.77427817495E+01	-1.24421766881E+02	3.71922665136E+01	1.65374088769E+02	-4.76697438067E+01	1.68048139773E+02	-3.12444974540E+01	5.44114672032E+01
1.14350000000E+07	-1.79299009693E+01	-1.25409943240E+02	3.71961221448E+01	1.64419184170E+02	-4.76612835443E+01	1.67089058748E+02	-3.18617234651E+01	5.48843342044E+01
1.16300000000E+07	-1.81034359795E+01	-1.26280770012E+02	3.71988217573E+01	1.63456050487E+02	-4.76532900084E+01	1.66115835701E+02	-3.24962723989E+01	5.54473100486E+01
1.18250000000E+07	-1.82771723216E+01	-1.27224020041E+02	3.72002384318E+01	1.62516017650E+02	-4.76430707463E+01	1.65175363928E+02	-3.31398587167E+01	5.61306383046E+01
1.20200000000E+07	-1.84431532412E+01	-1.28094515879E+02	3.72026607684E+01	1.61585815441E+02	-4.76345189870E+01	1.64210674329E+02	-3.38250451185E+01	5.69270385183E+01
1.22150000000E+07	-1.86254762569E+01	-1.28968292016E+02	3.72038692693E+01	1.60646423882E+02	-4.76269502909E+01	1.63304234225E+02	-3.45122941019E+01	5.79581383701E+01
1.24100000000E+07	-1.87855023470E+01	-1.29890281808E+02	3.72074738731E+01	1.59752648660E+02	-4.76243700364E+01	1.62358698250E+02	-3.52509362332E+01	5.92096356273E+01
1.26050000000E+07	-1.89694104140E+01	-1.30852253644E+02	3.72090730218E+01	1.58876335049E+02	-4.76209151973E+01	1.61456909271E+02	-3.60150426463E+01	6.06725259846E+01
1.28000000000E+07	-1.91422406423E+01	-1.31595340764E+02	3.72089371707E+01	1.58008305998E+02	-4.76160282819E+01	1.60551268101E+02	-3.68044695891E+01	6.24707055654E+01
1.29950000000E+07	-1.93066444681E+01	-1.32406076782E+02	3.72084735146E+01	1.57164971891E+02	-4.76120805192E+01	1.59703227302E+02	-3.76312722761E+01	6.47410890521E+01
1.31900000000E+07	-1.94717993704E+01	-1.33400200005E+02	3.72079960020E+01	1.56323322049E+02	-4.76083217653E+01	1.58834354936E+02	-3.84999777435E+01	6.73144014285E+01
1.33850000000E+07	-1.96252068415E+01	-1.34159999798E+02	3.72139059885E+01	1.55488292268E+02	-4.76029904808E+01	1.58005747989E+02	-3.93822446877E+01	7.06251764819E+01
1.35800000000E+07	-1.97946923881E+01	-1.35023170786E+02	3.72154666562E+01	1.54644175195E+02	-4.76008447013E+01	1.57145823142E+02	-4.03209123629E+01	7.47537373446E+01
1.37750000000E+07	-1.99687236684E+01	-1.35792434021E+02	3.72116875049E+01	1.53822151018E+02	-4.75931505834E+01	1.56316990045E+02	-4.12414741255E+01	7.95638132676E+01
1.39700000000E+07	-2.01146724425E+01	-1.36633279892E+02	3.72166056710E+01	1.53008868627E+02	-4.75903872636E+01	1.55483809833E+02	-4.21234171255E+01	8.56114503367E+01
1.41650000000E+07	-2.02736017175E+01	-1.37478840688E+02	3.72163210991E+01	1.52215045318E+02	-4.75846885879E+01	1.54684645000E+02	-4.29577811818E+01	9.28671041709E+01
1.43600000000E+07	-2.04366059640E+01	-1.38223086783E+02	3.72175923434E+01	1.51379078524E+02	-4.75847902506E+01	1.53872217766E+02	-4.36645487890E+01	1.01208205772E+02
1.45550000000E+07	-2.05996680077E+01	-1.39048790379E+02	3.72165236074E+01	1.50582537510E+02	-4.75731756503E+01	1.53065475628E+02	-4.41767618107E+01	1.10937547079E+02
1.47500000000E+07	-2.07450654568E+01	-1.39902496140E+02	3.72186319494E+01	1.49784301604E+02	-4.75732159944E+01	1.52251760453E+02	-4.43735403222E+01	1.20994881275E+02
1.49450000000E+07	-2.09160768639E+01	-1.40617836384E+02	3.72192749868E+01	1.48997102295E+02	-4.75691584116E+01	1.51449864290E+02	-4.43241707934E+01	1.30688207369E+02
1.51400000000E+07	-2.10774776826E+01	-1.41494316763E+02	3.72161205613E+01	1.48209200179E+02	-4.75699883803E+01	1.50685619477E+02	-4.39969717501E+01	1.40171262696E+02
1.53350000000E+07	-2.12228282208E+01	-1.42216518576E+02	3.72162189797E+01	1.47418877900E+02	-4.75614223882E+01	1.49923298646E+02	-4.34940980367E+01	1.48380209431E+02
1.55300000000E+07	-2.13735660725E+01	-1.43093412188E+02	3.72215369217E+01	1.46653715547E+02	-4.75598856809E+01	1.49119585293E+02	-4.28784959068E+01	1.55445480042E+02
1.57250000000E+07	-2.15211555838E+01	-1.43817420124E+02	3.72179895225E+01	1.45859601239E+02	-4.75576853175E+01	1.48356690382E+02	-4.21888103753E+01	1.61021406830E+02
1.59200000000E+07	-2.16794584001E+01	-1.44599198692E+02	3.72178210030E+01	1.45104587649E+02	-4.75533729197E+01	1.47607259857E+02	-4.14812821688E+01	1.65876581996E+02
1.61150000000E+07	-2.18345986449E+01	-1.45299634724E+02	3.72185560216E+01	1.44337801044E+02	-4.75486084953E+01	1.46874620453E+02	-4.07846918654E+01	1.69736474922E+02
1.63100000000E+07	-2.19883400696E+01	-1.46060262718E+02	3.72193092048E+01	1.43575740492E+02	-4.75448726972E+01	1.46080907572E+02	-4.01660921685E+01	1.72909115512E+02
1.65050000000E+07	-2.21361026756E+01	-1.46969804869E+02	3.72192477273E+01	1.42818551484E+02	-4.75419105364E+01	1.45334737593E+02	-3.95021015520E+01	1.75818246724E+02
1.67000000000E+07	-2.23043922875E+01	-1.47711208699E+02	3.72153182938E+01	1.42041311598E+02	-4.75342475183E+01	1.44559236032E+02	-3.88886306669E+01	1.77903580575E+02
1.68950000000E+07	-2.24425168728E+01	-1.48334829420E+02	3.72183593521E+01	1.41314798570E+02	-4.75381336347E+01	1.43849058527E+02	-3.83143839458E+01	1.79752390876E+02
1.70900000000E+07	-2.25803924205E+01	-1.49058270897E+02	3.72209041729E+01	1.40552206219E+02	-4.75318870745E+01	1.43078236940E+02	-3.77806553075E+01	-1.78601866530E+02
1.72850000000E+07	-2.27348790047E+01	-1.49915292687E+02	3.72190710712E+01	1.39802612574E+02	-4.75235716714E+01	1.42403756957E+02	-3.72762735080E+01	-1.77460487508E+02
1.74800000000E+07	-2.28816070533E+01	-1.50595833880E+02	3.72155030732E+01	1.39079537821E+02	-4.75241621254E+01	1.41645381966E+02	-3.68207294056E+01	-1.76341613290E+02
1.76750000000E+07	-2.30240414403E+01	-1.51383055180E+02	3.72174079834E+01	1.38331770915E+02	-4.75197817396E+01	1.40931864034E+02	-3.63718398417E+01	-1.75575030285E+02
1.78700000000E+07	-2.31697213232E+01	-1.52041994641E+02	3.72148973519E+01	1.37584967059E+02	-4.75186704492E+01	1.40221420981E+02	-3.59784585686E+01	-1.74724365030E+02
1.80650000000E+07	-2.33321917786E+01	-1.52798784720E+02	3.72158790506E+01	1.36880217986E+02	-4.75167160234E+01	1.39536752150E+02	-3.55799590807E+01	-1.74076399162E+02
1.82600000000E+07	-2.34648152581E+01	-1.53534578203E+02	3.72167988216E+01	1.36137280357E+02	-4.75118418966E+01	1.38798161897E+02	-3.52006741164E+01	-1.73624593304E+02
1.84550000000E+07	-2.36188877522E+01	-1.54224905350E+02	3.72136842779E+01	1.35425302593E+02	-4.75114345454E+01	1.38081106254E+02	-3.48551732138E+01	-1.73111807232E+02
1.86500000000E+07	-2.37539268032E+01	-1.54915187235E+02	3.72104567696E+01	1.34725983699E+02	-4.74984905805E+01	1.37371747878E+02	-3.45265689632E+01	-1.72836286891E+02
1.88450000000E+07	-2.39100569977E+01	-1.55725546481E+02	3.72125465999E+01	1.33986775517E+02	-4.75051430090E+01	1.36690610359E+02	-3.42037172704E+01	-1.72445293168E+02
1.90400000000E+07	-2.40558822587E+01	-1.56425947969E+02	3.72087996049E+01	1.33266136077E+02	-4.75005515588E+01	1.35943873390E+02	-3.39117999962E+01	-1.72216183613E+02
1.92350000000E+07	-2.42047120492E+01	-1.57112253188E+02	3.72094860096E+01	1.32560445406E+02	-4.74975940179E+01	1.35251275283E+02	-3.36054578797E+01	-1.72027907892E+02
1.94300000000E+07	-2.43276785643E+01	-1.57757169885E+02	3.72077764852E+01	1.31817909767E+02	-4.74982736044E+01	1.34561887846E+02	-3.33406492711E+01	-1.71852400654E+02
1.96250000000E+07	-2.44790524361E+01	-1.58490115073E+02	3.72053996375E+01	1.31098612566E+02	-4.74874942956E+01	1.33883998609E+02	-3.30714783791E+01	-1.71723152382E+02
1.98200000000E+07	-2.46234538557E+01	-1.59225616141E+02	3.72073013666E+01	1.30417736994E+02	-4.74897408476E+01	1.33178790792E+02	-3.28112213161E+01	-1.71662778363E+02
2.00150000000E+07	-2.47637515277E+01	-1.59979636172E+02	3.72042934233E+01	1.29715004342E+02	-4.74861568098E+01	1.32467909360E+02	-3.25562835105E+01	-1.71663977721E+02
2.02100000000E+07	-2.49117686732E+01	-1.60676006318E+02	3.72036286425E+01	1.29018131286E+02	-4.74823287908E+01	1.31791911822E+02	-3.23336549183E+01	-1.71595459832E+02
2.04050000000E+07	-2.50352544785E+01	-1.61364631119E+02	3.72017093524E+01	1.28316592265E+02	-4.74754684081E+01	1.31126406102E+02	-3.20970490867E+01	-1.71667243707E+02
2.06000000000E+07	-2.52064672118E+01	-1.62125792755E+02	3.72050791876E+01	1.27599992090E+02	-4.74761459627E+01	1.30419856238E+02	-3.18827009479E+01	-1.71656081466E+02
2.07950000000E+07	-2.53223518350E+01	-1.62690098831E+02	3.72058497262E+01	1.26902177662E+02	-4.74726835158E+01	1.29755036457E+02	-3.16737992243E+01	-1.71728612307E+02
2.09900000000E+07	-2.54861954501E+01	-1.63423319822E+02	3.72020491500E+01	1.26185318120E+02	-4.74716771205E+01	1.29076954567E+02	-3.14702925811E+01	-1.71846995594E+02
2.11850000000E+07	-2.56118778636E+01	-1.64021439373E+02	3.71966914756E+01	1.25502943192E+02	-4.74674440014E+01	1.28415784801E+02	-3.12753811750E+01	-1.71921424176E+02
2.13800000000E+07	-2.57697214844E+01	-1.64750407577E+02	3.71959132868E+01	1.24831212424E+02	-4.74633459256E+01	1.27714829659E+02	-3.10834802155E+01	-1.72130647033E+02
2.15750000000E+07	-2.59169145905E+01	-1.65473159815E+02	3.71996351156E+01	1.24133501031E+02	-4.74627511034E+01	1.27072531914E+02	-3.09028555690E+01	-1.72250958615E+02
2.17700000000E+07	-2.60500354699E+01	-1.66161824894E+02	3.71924548831E+01	1.23440091795E+02	-4.74616712173E+01	1.26393452665E+02	-3.07223375824E+01	-1.72396473796E+02
2.19650000000E+07	-2.61849810213E+01	-1.66828320430E+02	3.71880636592E+01	1.22738548284E+02	-4.74573937867E+01	1.25679674875E+02	-3.05592399943E+01	-1.72584198274E+02
2.21600000000E+07	-2.63432736212E+01	-1.67353785250E+02	3.71883317148E+01	1.22055136389E+02	-4.74499968244E+01	1.25039297518E+02	-3.03937370863E+01	-1.72779977827E+02
2.23550000000E+07	-2.64832721754E+01	-1.68045219505E+02	3.71903038143E+01	1.21391934803E+02	-4.74493880745E+01	1.24413570285E+02	-3.02213020395E+01	-1.73024049613E+02
2.25500000000E+07	-2.66068896421E+01	-1.68760153761E+02	3.71877099922E+01	1.20688076583E+02	-4.74446141545E+01	1.23716212950E+02	-3.00717730838E+01	-1.73206853806E+02
2.27450000000E+07	-2.67688249174E+01	-1.69400086508E+02	3.71879495775E+01	1.20008780330E+02	-4.74497053088E+01	1.23057810166E+02	-2.99224963502E+01	-1.73401980336E+02
2.29400000000E+07	-2.69153303383E+01	-1.70079143534E+02	3.71826031061E+01	1.19336026582E+02	-4.74435750846E+01	1.22387116281E+02	-2.97766274095E+01	-1.73659954876E+02
2.31350000000E+07	-2.70333464116E+01	-1.70821672413E+02	3.71810585874E+01	1.18639253591E+02	-4.74406434507E+01	1.21723599337E+02	-2.96350919049E+01	-1.73857346620E+02
2.33300000000E+07	-2.72107455834E+01	-1.71501824348E+02	3.71786542120E+01	1.17971100611E+02	-4.74365803676E+01	1.21086723724E+02	-2.94976911432E+01	-1.74121652680E+02
2.35250000000E+07	-2.73419342224E+01	-1.72072542867E+02	3.71837324706E+01	1.17310296580E+02	-4.74294300284E+01	1.20458706305E+02	-2.93647589902E+01	-1.74384231975E+02
2.37200000000E+07	-2.74629559551E+01	-1.72771435964E+02	3.71763616051E+01	1.16622354744E+02	-4.74340295653E+01	1.19771752292E+02	-2.92379417690E+01	-1.74632321146E+02
2.39150000000E+07	-2.76258395015E+01	-1.73345594040E+02	3.71759201168E+01	1.15979586148E+02	-4.74278020446E+01	1.19157679824E+02	-2.91034604434E+01	-1.74883889448E+02
2.41100000000E+07	-2.77706139844E+01	-1.73928498105E+02	3.71709276276E+01	1.15278909134E+02	-4.74272856872E+01	1.18483893597E+02	-2.89796169164E+01	-1.75165812876E+02
2.43050000000E+07	-2.78984681765E+01	-1.74574210834E+02	3.71683593214E+01	1.14624772364E+02	-4.74230202940E+01	1.17845580875E+02	-2.88535781946E+01	-1.75448725817E+02
2.45000000000E+07	-2.80651068187E+01	-1.75241818003E+02	3.71717990360E+01	1.13956734293E+02	-4.74201567551E+01	1.17203203907E+02	-2.87355968928E+01	-1.75718293819E+02
2.46950000000E+07	-2.82204637339E+01	-1.75898639421E+02	3.71670695352E+01	1.13269952953E+02	-4.74184392632E+01	1.16555411043E+02	-2.86202548699E+01	-1.75994184456E+02
2.48900000000E+07	-2.83602291082E+01	-1.76439761724E+02	3.71631498310E+01	1.12623953034E+02	-4.74118509580E+01	1.15918906255E+02	-2.85075478235E+01	-1.76292262926E+02
2.50850000000E+07	-2.85079916810E+01	-1.77207258570E+02	3.71637627177E+01	1.11933651984E+02	-4.74131310370E+01	1.15251746205E+02	-2.83942919515E+01	-1.76586678593E+02
2.52800000000E+07	-2.86740339683E+01	-1.77642201280E+02	3.71591640824E+01	1.11276950052E+02	-4.74097722228E+01	1.14625539334E+02	-2.82856555079E+01	-1.76897140492E+02
2.54750000000E+07	-2.88273440344E+01	-1.78542105333E+02	3.71572920338E+01	1.10616813558E+02	-4.74068165129E+01	1.13964904734E+02	-2.81809994703E+01	-1.77191642953E+02
2.56700000000E+07	-2.89524614798E+01	-1.79112958359E+02	3.71567896631E+01	1.09957058425E+02	-4.74033504397E+01	1.13371788928E+02	-2.80757179437E+01	-1.77545715441E+02
2.58650000000E+07	-2.91090827232E+01	-1.79589735362E+02	3.71588512881E+01	1.09289537898E+02	-4.74018835951E+01	1.12711111915E+02	-2.79725798451E+01	-1.77848364018E+02
2.60600000000E+07	-2.92798587838E+01	1.79497713220E+02	3.71522173486E+01	1.08630724120E+02	-4.73931918423E+01	1.12052740217E+02	-2.78664896124E+01	-1.78165075988E+02
2.62550000000E+07	-2.93884717508E+01	1.79166822899E+02	3.71516171050E+01	1.07978142479E+02	-4.73957018170E+01	1.11436717567E+02	-2.77707592598E+01	-1.78513517016E+02
2.64500000000E+07	-2.95515751752E+01	1.78596446430E+02	3.71512621985E+01	1.07317387454E+02	-4.73927384500E+01	1.10776138636E+02	-2.76778458678E+01	-1.78832570733E+02
2.66450000000E+07	-2.97272401301E+01	1.77902485778E+02	3.71496061063E+01	1.06658045796E+02	-4.73894126367E+01	1.10178295774E+02	-2.75817505222E+01	-1.79162037951E+02
2.68400000000E+07	-2.98761379424E+01	1.77363425544E+02	3.71425449407E+01	1.06001451676E+02	-4.73876681138E+01	1.09531251947E+02	-2.74920072076E+01	-1.79560011327E+02
2.70350000000E+07	-3.00606810073E+01	1.76728745485E+02	3.71423801169E+01	1.05367146626E+02	-4.73849152394E+01	1.08907049493E+02	-2.74017049709E+01	-1.79866750977E+02
2.72300000000E+07	-3.01956712797E+01	1.76306427347E+02	3.71386419272E+01	1.04700492822E+02	-4.73810479726E+01	1.08287291350E+02	-2.73143288635E+01	1.79783646839E+02
2.74250000000E+07	-3.03851858841E+01	1.75624888907E+02	3.71399843553E+01	1.04053481552E+02	-4.73790315111E+01	1.07656249704E+02	-2.72246544774E+01	1.79396692027E+02
2.76200000000E+07	-3.05464236044E+01	1.74993618667E+02	3.71333881624E+01	1.03418009056E+02	-4.73752265385E+01	1.07000518770E+02	-2.71411736354E+01	1.79044678382E+02
2.78150000000E+07	-3.06830860341E+01	1.74578490853E+02	3.71344675728E+01	1.02742115981E+02	-4.73729541137E+01	1.06398295228E+02	-2.70553435472E+01	1.78689769939E+02
