# Hz S DB R 50
! CMT, M5045, 22160017, 22.4.3/2
! Date: 2/26/2023 22:05:43
! Data: Format (Calibration Info)
! Freq	S11:dB/Ang(F2)	S21:dB/Ang(F2)	S12:dB/Ang(F2)	S22:dB/Ang(F2)
5.00000000000E+06	-9.50574567168E+00	-7.41434891665E+01	3.63744279341E+01	3.74412552335E+01	-4.86735889579E+01	4.08521561497E+01	-1.49195352665E+01	7.15601150934E+01
5.19500000000E+06	-9.85483440774E+00	-7.51120135651E+01	3.64536755974E+01	3.52505235917E+01	-4.86165217657E+01	3.87809563755E+01	-1.55924895499E+01	7.08772195779E+01
5.39000000000E+06	-1.01942113777E+01	-7.59519946865E+01	3.65283954380E+01	3.32126642180E+01	-4.84134193513E+01	3.63338334509E+01	-1.62535745508E+01	7.02331695047E+01
5.58500000000E+06	-1.05144083643E+01	-7.67644957744E+01	3.65931594879E+01	3.12346097786E+01	-4.83821882599E+01	3.42568142948E+01	-1.69028098235E+01	6.97526224923E+01
5.78000000000E+06	-1.08332403201E+01	-7.75271595061E+01	3.66537958842E+01	2.94032032994E+01	-4.83847049134E+01	3.19666372161E+01	-1.75618490551E+01	6.94492521174E+01
5.97500000000E+06	-1.11341523885E+01	-7.82013792810E+01	3.67095886430E+01	2.76387027894E+01	-4.81395535266E+01	3.03606266269E+01	-1.82032023390E+01	6.92342378828E+01
6.17000000000E+06	-1.14413792847E+01	-7.88801784579E+01	3.67544868527E+01	2.59621025361E+01	-4.83206284932E+01	2.89277944695E+01	-1.88332553406E+01	6.93339374873E+01
6.36500000000E+06	-1.17309151852E+01	-7.95067164199E+01	3.67993924057E+01	2.43503108988E+01	-4.81130718443E+01	2.73017582321E+01	-1.94411260384E+01	6.93971292319E+01
6.56000000000E+06	-1.20159431445E+01	-8.00823504103E+01	3.68382318417E+01	2.28218857816E+01	-4.80247654436E+01	2.55490471335E+01	-2.00770366418E+01	6.94573944499E+01
6.75500000000E+06	-1.22995105694E+01	-8.06233901952E+01	3.68732520754E+01	2.13356508812E+01	-4.80174579913E+01	2.39799941597E+01	-2.06951949436E+01	6.98941270357E+01
6.95000000000E+06	-1.25736362323E+01	-8.11566283526E+01	3.69046489146E+01	1.99178314980E+01	-4.80079152961E+01	2.28134378709E+01	-2.12704416716E+01	7.03959526118E+01
7.14500000000E+06	-1.28414265132E+01	-8.16130909143E+01	3.69329549636E+01	1.85953637968E+01	-4.79013037620E+01	2.14365208444E+01	-2.18850574724E+01	7.09726273738E+01
7.34000000000E+06	-1.31002937337E+01	-8.20957364266E+01	3.69574209044E+01	1.72724726542E+01	-4.79306319249E+01	1.99012715347E+01	-2.24696217276E+01	7.15808964277E+01
7.53500000000E+06	-1.33529751085E+01	-8.25137721681E+01	3.69874189526E+01	1.60088723375E+01	-4.79154902783E+01	1.85944301452E+01	-2.30733232407E+01	7.24378966671E+01
7.73000000000E+06	-1.36095696057E+01	-8.29653374661E+01	3.70050896820E+01	1.47818950616E+01	-4.78089671604E+01	1.74698567076E+01	-2.36269026858E+01	7.35643691424E+01
7.92500000000E+06	-1.38642589809E+01	-8.33680429377E+01	3.70284006651E+01	1.36240728138E+01	-4.78709167989E+01	1.69544266050E+01	-2.42031417875E+01	7.47817033082E+01
8.12000000000E+06	-1.41070737210E+01	-8.37873320329E+01	3.70441511034E+01	1.24710782178E+01	-4.77950801177E+01	1.53205100261E+01	-2.47411983766E+01	7.55846963869E+01
8.31500000000E+06	-1.43434946327E+01	-8.41333208418E+01	3.70657291632E+01	1.13622630714E+01	-4.78539567728E+01	1.48071050982E+01	-2.52770846993E+01	7.73141997687E+01
8.51000000000E+06	-1.45817365333E+01	-8.45112998262E+01	3.70772840574E+01	1.02874192571E+01	-4.78013031637E+01	1.32067311726E+01	-2.58766060115E+01	7.88873164121E+01
8.70500000000E+06	-1.48152328607E+01	-8.48526179485E+01	3.70950945269E+01	9.23412450096E+00	-4.77915648774E+01	1.23220810115E+01	-2.63464059961E+01	8.03288153333E+01
8.90000000000E+06	-1.50450558436E+01	-8.51595201149E+01	3.71098573444E+01	8.22215291691E+00	-4.78138711574E+01	1.12354984849E+01	-2.69070224282E+01	8.24236968337E+01
9.09500000000E+06	-1.52708424116E+01	-8.55199049243E+01	3.71207305517E+01	7.21194252324E+00	-4.78010935317E+01	1.03981638189E+01	-2.74000391553E+01	8.41537388373E+01
9.29000000000E+06	-1.54965049407E+01	-8.58040160597E+01	3.71324174550E+01	6.26239908506E+00	-4.77427348454E+01	9.63479230361E+00	-2.78612572933E+01	8.66038281095E+01
9.48500000000E+06	-1.57174080535E+01	-8.61030957766E+01	3.71436781008E+01	5.32081881840E+00	-4.76548897410E+01	8.40553292411E+00	-2.83642176015E+01	8.88235002738E+01
9.68000000000E+06	-1.59444493454E+01	-8.64153435036E+01	3.71527103147E+01	4.39827029677E+00	-4.77583383222E+01	7.59980576098E+00	-2.88431129472E+01	9.11902713733E+01
9.87500000000E+06	-1.61533999804E+01	-8.66865438676E+01	3.71671527119E+01	3.47966688783E+00	-4.77630511887E+01	6.55185351901E+00	-2.92299614370E+01	9.39553023359E+01
1.00700000000E+07	-1.63743299995E+01	-8.70135774904E+01	3.71720373473E+01	2.58833248810E+00	-4.77192048871E+01	5.26037707781E+00	-2.96364976989E+01	9.64834310075E+01
1.02650000000E+07	-1.65852780335E+01	-8.72797814853E+01	3.71886477383E+01	1.72521565452E+00	-4.76847999693E+01	4.90871410993E+00	-2.99965375009E+01	9.91939600085E+01
1.04600000000E+07	-1.67952218746E+01	-8.75527786188E+01	3.71922788764E+01	8.75280630685E-01	-4.76707099047E+01	3.91691760501E+00	-3.03517674563E+01	1.02462339123E+02
1.06550000000E+07	-1.70087752632E+01	-8.78099445993E+01	3.72001627813E+01	1.70984994663E-02	-4.77178426552E+01	3.20289633051E+00	-3.06365012624E+01	1.05486820962E+02
1.08500000000E+07	-1.72094001827E+01	-8.80391765980E+01	3.72073625855E+01	-8.03960451892E-01	-4.76596046685E+01	2.18473078896E+00	-3.08981370410E+01	1.08411971651E+02
1.10450000000E+07	-1.74182882532E+01	-8.82854849458E+01	3.72104551093E+01	-1.62540729532E+00	-4.76684708691E+01	1.08043613916E+00	-3.10645214864E+01	1.11815081538E+02
1.12400000000E+07	-1.76178535776E+01	-8.84956724961E+01	3.72179587896E+01	-2.41485331931E+00	-4.76463291653E+01	4.29285824743E-01	-3.11465919586E+01	1.14672686152E+02
1.14350000000E+07	-1.78088833019E+01	-8.87202689740E+01	3.72254641157E+01	-3.21129696919E+00	-4.76501104153E+01	-4.68344203463E-01	-3.13512965054E+01	1.17600905748E+02
1.16300000000E+07	-1.80137273239E+01	-8.88782159584E+01	3.72303946112E+01	-4.00380437805E+00	-4.76729231107E+01	-1.13058909335E+00	-3.15136520471E+01	1.20411991820E+02
1.18250000000E+07	-1.82032160178E+01	-8.90990937378E+01	3.72368485214E+01	-4.77195680384E+00	-4.76229777388E+01	-1.93382141619E+00	-3.15319131124E+01	1.23460432121E+02
1.20200000000E+07	-1.83970971515E+01	-8.93113950152E+01	3.72431508003E+01	-5.56114654158E+00	-4.76648439123E+01	-2.79466467806E+00	-3.16038337341E+01	1.26490518714E+02
1.22150000000E+07	-1.85860070706E+01	-8.95643922934E+01	3.72456221730E+01	-6.30914645897E+00	-4.76321302793E+01	-3.52601439249E+00	-3.17048030658E+01	1.28628316820E+02
1.24100000000E+07	-1.87795037103E+01	-8.96966076440E+01	3.72483869243E+01	-7.01353648325E+00	-4.76446001121E+01	-4.13110594588E+00	-3.18236814084E+01	1.31746280913E+02
1.26050000000E+07	-1.89762398629E+01	-8.98416080776E+01	3.72470043519E+01	-7.75736738478E+00	-4.76196195076E+01	-5.07129096760E+00	-3.17362051089E+01	1.34367666369E+02
1.28000000000E+07	-1.91669377722E+01	-9.00541352638E+01	3.72526828955E+01	-8.42440145845E+00	-4.76489150747E+01	-5.71236599872E+00	-3.18101689871E+01	1.36303309221E+02
1.29950000000E+07	-1.93535323866E+01	-9.01033544539E+01	3.72582103770E+01	-9.10326256055E+00	-4.76366486948E+01	-6.05371267739E+00	-3.17925273445E+01	1.38941778292E+02
1.31900000000E+07	-1.95316374382E+01	-9.02615280933E+01	3.72624571244E+01	-9.78710544590E+00	-4.76021724186E+01	-7.03340137657E+00	-3.17200427707E+01	1.41291501145E+02
1.33850000000E+07	-1.97393174133E+01	-9.04323292897E+01	3.72650016395E+01	-1.04455418114E+01	-4.76790386609E+01	-8.02633740988E+00	-3.17111588165E+01	1.43803829260E+02
1.35800000000E+07	-1.99146737911E+01	-9.05686500645E+01	3.72650661376E+01	-1.11059870491E+01	-4.75670282715E+01	-8.10159633687E+00	-3.16133784276E+01	1.45279313729E+02
1.37750000000E+07	-2.01070006094E+01	-9.06614624731E+01	3.72717441652E+01	-1.17837920139E+01	-4.76035631262E+01	-8.97744026423E+00	-3.16370183878E+01	1.47029039585E+02
1.39700000000E+07	-2.02922427505E+01	-9.07403162653E+01	3.72790826509E+01	-1.24089766645E+01	-4.75645957984E+01	-9.91216910479E+00	-3.15000816427E+01	1.48796685639E+02
1.41650000000E+07	-2.04724152383E+01	-9.08179458702E+01	3.72804777762E+01	-1.30575954112E+01	-4.76121162370E+01	-1.00919650926E+01	-3.13789210780E+01	1.50495397382E+02
1.43600000000E+07	-2.06659859134E+01	-9.09224742024E+01	3.72803454871E+01	-1.36896095302E+01	-4.75764187143E+01	-1.11891235321E+01	-3.13414113893E+01	1.52086111050E+02
1.45550000000E+07	-2.08562225929E+01	-9.09496443047E+01	3.72871907192E+01	-1.43125530947E+01	-4.76398886436E+01	-1.14384874803E+01	-3.13163412130E+01	1.53899473497E+02
1.47500000000E+07	-2.10278085584E+01	-9.10120412625E+01	3.72880628348E+01	-1.49723299322E+01	-4.76223927368E+01	-1.21142808827E+01	-3.12195970547E+01	1.55195124459E+02
1.49450000000E+07	-2.12246821654E+01	-9.10466411079E+01	3.72890318629E+01	-1.55952757871E+01	-4.76054123539E+01	-1.30820361750E+01	-3.10648812258E+01	1.56973484533E+02
1.51400000000E+07	-2.13999960683E+01	-9.10465363813E+01	3.72924783777E+01	-1.61961648682E+01	-4.75793035714E+01	-1.35317699803E+01	-3.10144323070E+01	1.58121653909E+02
1.53350000000E+07	-2.15783733026E+01	-9.11028352483E+01	3.72976730161E+01	-1.68280527434E+01	-4.75456030471E+01	-1.39277027444E+01	-3.09559025483E+01	1.59355071855E+02
1.55300000000E+07	-2.17630329929E+01	-9.11828693133E+01	3.72975458160E+01	-1.74083108711E+01	-4.75523905492E+01	-1.46522512451E+01	-3.08143964816E+01	1.60118727650E+02
1.57250000000E+07	-2.19617006504E+01	-9.11118600725E+01	3.72983354408E+01	-1.80096729838E+01	-4.76311184794E+01	-1.54012541470E+01	-3.07068701425E+01	1.61356234952E+02
1.59200000000E+07	-2.21258944457E+01	-9.11298301140E+01	3.73005191321E+01	-1.86255224485E+01	-4.75426042039E+01	-1.59674975020E+01	-3.06417604961E+01	1.62229621166E+02
1.61150000000E+07	-2.23159001072E+01	-9.11128836196E+01	3.73012364121E+01	-1.92310142046E+01	-4.75617045128E+01	-1.64539631556E+01	-3.06383644123E+01	1.63469375940E+02
1.63100000000E+07	-2.25088455997E+01	-9.10147370948E+01	3.73049727066E+01	-1.98272353561E+01	-4.76019793286E+01	-1.71734787222E+01	-3.05640512569E+01	1.64090744915E+02
1.65050000000E+07	-2.26816820994E+01	-9.10202324406E+01	3.73057952471E+01	-2.03886313088E+01	-4.75731025909E+01	-1.78149689221E+01	-3.04143501419E+01	1.65509634559E+02
1.67000000000E+07	-2.28583620633E+01	-9.09621644558E+01	3.73087593595E+01	-2.09623407231E+01	-4.75223656997E+01	-1.84223290964E+01	-3.02756979405E+01	1.66143330335E+02
1.68950000000E+07	-2.30546024336E+01	-9.10035063060E+01	3.73097083069E+01	-2.15743608297E+01	-4.75118033957E+01	-1.89476646923E+01	-3.02382449280E+01	1.66689575777E+02
1.70900000000E+07	-2.32396713748E+01	-9.07284464753E+01	3.73115955093E+01	-2.21161420429E+01	-4.75990799227E+01	-1.94134211384E+01	-3.02270406964E+01	1.67916415555E+02
1.72850000000E+07	-2.34099623711E+01	-9.07179407514E+01	3.73093161468E+01	-2.27133734143E+01	-4.75804342897E+01	-1.99486446275E+01	-3.01442448432E+01	1.68293176887E+02
1.74800000000E+07	-2.36054150668E+01	-9.06170148933E+01	3.73113254460E+01	-2.32842842146E+01	-4.75460332419E+01	-2.09141805651E+01	-3.00532294330E+01	1.68989708416E+02
1.76750000000E+07	-2.37701159471E+01	-9.04464513718E+01	3.73124885989E+01	-2.38539850940E+01	-4.75702577827E+01	-2.09739374281E+01	-2.99324798182E+01	1.70163725032E+02
1.78700000000E+07	-2.39398987454E+01	-9.03000881207E+01	3.73136615961E+01	-2.43947446185E+01	-4.75413407687E+01	-2.13859126208E+01	-2.99093083659E+01	1.70675683661E+02
1.80650000000E+07	-2.41231931570E+01	-9.01971946359E+01	3.73167338320E+01	-2.49460659721E+01	-4.75864089067E+01	-2.21635575296E+01	-2.98332489956E+01	1.71367829558E+02
1.82600000000E+07	-2.43126171339E+01	-9.00467939518E+01	3.73171588865E+01	-2.55155813281E+01	-4.75447791905E+01	-2.25403493410E+01	-2.97702525764E+01	1.72077771716E+02
1.84550000000E+07	-2.45035734035E+01	-8.97590270992E+01	3.73178970455E+01	-2.60602037042E+01	-4.75439447400E+01	-2.28995247379E+01	-2.97255329688E+01	1.72524297862E+02
1.86500000000E+07	-2.46703988534E+01	-8.96979727702E+01	3.73179244307E+01	-2.66181602376E+01	-4.75432394775E+01	-2.33256292980E+01	-2.96353393233E+01	1.73223909889E+02
1.88450000000E+07	-2.48631747659E+01	-8.94852302219E+01	3.73192650428E+01	-2.71637748742E+01	-4.75445075406E+01	-2.42018379793E+01	-2.95953341584E+01	1.73441823654E+02
1.90400000000E+07	-2.50565217224E+01	-8.92035651871E+01	3.73182433843E+01	-2.77117711647E+01	-4.75350171051E+01	-2.45925408555E+01	-2.95643591023E+01	1.73929985790E+02
1.92350000000E+07	-2.52279107785E+01	-8.88848452875E+01	3.73239473270E+01	-2.82484806083E+01	-4.76059505917E+01	-2.53800149067E+01	-2.95214977036E+01	1.74477819790E+02
1.94300000000E+07	-2.53795376919E+01	-8.87971480713E+01	3.73232236565E+01	-2.87889304940E+01	-4.75139574692E+01	-2.56487715920E+01	-2.94046129273E+01	1.74980891374E+02
1.96250000000E+07	-2.55871462542E+01	-8.84430714558E+01	3.73213737771E+01	-2.93225686522E+01	-4.75946119928E+01	-2.62743423908E+01	-2.93691012204E+01	1.75937716555E+02
1.98200000000E+07	-2.57861147428E+01	-8.81776725323E+01	3.73239935125E+01	-2.98623424675E+01	-4.75826639260E+01	-2.73114451095E+01	-2.93726591625E+01	1.75881336744E+02
2.00150000000E+07	-2.59302272784E+01	-8.78350301560E+01	3.73229186065E+01	-3.04043174167E+01	-4.75754723848E+01	-2.73491538144E+01	-2.92995169032E+01	1.76792944462E+02
2.02100000000E+07	-2.61166891053E+01	-8.76229046947E+01	3.73214909757E+01	-3.09175779540E+01	-4.75889681274E+01	-2.76437152412E+01	-2.92519464782E+01	1.76944894863E+02
2.04050000000E+07	-2.63015181991E+01	-8.73609850200E+01	3.73241721105E+01	-3.14502624828E+01	-4.75751363989E+01	-2.83915183897E+01	-2.91837403657E+01	1.77739129519E+02
2.06000000000E+07	-2.64712590800E+01	-8.68853963838E+01	3.73255463425E+01	-3.19652514354E+01	-4.75027753146E+01	-2.87044309096E+01	-2.91483585454E+01	1.78060568382E+02
2.07950000000E+07	-2.66468741506E+01	-8.64602112982E+01	3.73253750441E+01	-3.25094802583E+01	-4.75875686855E+01	-2.94044453727E+01	-2.91277461905E+01	1.78184724361E+02
2.09900000000E+07	-2.68532202187E+01	-8.60502448798E+01	3.73271722911E+01	-3.29990498350E+01	-4.75322913933E+01	-2.95806542494E+01	-2.90757750348E+01	1.78732635602E+02
2.11850000000E+07	-2.70130490992E+01	-8.58366346941E+01	3.73245357836E+01	-3.35689283758E+01	-4.75738291603E+01	-3.02276232321E+01	-2.90676175189E+01	1.79485793226E+02
2.13800000000E+07	-2.71933837029E+01	-8.52845088227E+01	3.73277650804E+01	-3.40560510353E+01	-4.75472109728E+01	-3.05343762287E+01	-2.89690073661E+01	1.79384299831E+02
2.15750000000E+07	-2.73831255629E+01	-8.47515260253E+01	3.73252134707E+01	-3.45950370886E+01	-4.75744352351E+01	-3.15208985202E+01	-2.89735659179E+01	-1.79849809339E+02
2.17700000000E+07	-2.75366600744E+01	-8.43194279661E+01	3.73272663387E+01	-3.50862149001E+01	-4.75740545260E+01	-3.16421894949E+01	-2.89359416156E+01	-1.79859841686E+02
2.19650000000E+07	-2.77370959367E+01	-8.37334978091E+01	3.73279096559E+01	-3.56102649267E+01	-4.75531794400E+01	-3.21924600366E+01	-2.88586946517E+01	-1.79389238975E+02
2.21600000000E+07	-2.78923144362E+01	-8.32012436451E+01	3.73272727356E+01	-3.61061710615E+01	-4.75497471289E+01	-3.29099267888E+01	-2.88054641337E+01	-1.79005699091E+02
2.23550000000E+07	-2.80526985132E+01	-8.25604613177E+01	3.73294352727E+01	-3.66251955867E+01	-4.75216686905E+01	-3.31022713109E+01	-2.88152392066E+01	-1.78482937255E+02
2.25500000000E+07	-2.82389037057E+01	-8.19473568886E+01	3.73301762542E+01	-3.71099962875E+01	-4.75443938055E+01	-3.41052583541E+01	-2.87840275706E+01	-1.78250993390E+02
2.27450000000E+07	-2.84165003845E+01	-8.16098629503E+01	3.73289099098E+01	-3.76334969253E+01	-4.75532837504E+01	-3.39728789926E+01	-2.86997297119E+01	-1.77854864878E+02
2.29400000000E+07	-2.85882299310E+01	-8.07286570164E+01	3.73293681987E+01	-3.81410356956E+01	-4.75739152395E+01	-3.48494535096E+01	-2.86643977571E+01	-1.77586669269E+02
2.31350000000E+07	-2.87358468375E+01	-8.02698862859E+01	3.73330482739E+01	-3.86547714035E+01	-4.75574425354E+01	-3.52037528589E+01	-2.86545441515E+01	-1.77473737562E+02
2.33300000000E+07	-2.89016789510E+01	-7.93835329005E+01	3.73265675854E+01	-3.91348736802E+01	-4.74939150124E+01	-3.60140971373E+01	-2.85996944189E+01	-1.76995763443E+02
2.35250000000E+07	-2.90868441545E+01	-7.88215621221E+01	3.73268178063E+01	-3.96520237621E+01	-4.75322733637E+01	-3.61564346292E+01	-2.85814134843E+01	-1.76426259002E+02
2.37200000000E+07	-2.92412714843E+01	-7.80081802602E+01	3.73310917016E+01	-4.01521837511E+01	-4.75527508274E+01	-3.61686708972E+01	-2.85474397818E+01	-1.76194037357E+02
2.39150000000E+07	-2.94022653037E+01	-7.72981128951E+01	3.73302632444E+01	-4.06564857019E+01	-4.75680077148E+01	-3.73210169763E+01	-2.85095699932E+01	-1.75585838992E+02
2.41100000000E+07	-2.95648649707E+01	-7.63842548982E+01	3.73281807401E+01	-4.11334699567E+01	-4.75240132802E+01	-3.77591462982E+01	-2.85058133686E+01	-1.75794500444E+02
2.43050000000E+07	-2.97096839335E+01	-7.55809985498E+01	3.73303618677E+01	-4.16438867293E+01	-4.75555603808E+01	-3.83978848654E+01	-2.84251747686E+01	-1.75408834913E+02
2.45000000000E+07	-2.98729388393E+01	-7.48475570311E+01	3.73252477810E+01	-4.21374940154E+01	-4.75941786826E+01	-3.84372821875E+01	-2.84704053312E+01	-1.74918779000E+02
2.46950000000E+07	-3.00190906702E+01	-7.39165582705E+01	3.73301846622E+01	-4.26098068180E+01	-4.75160681247E+01	-3.89439889153E+01	-2.83959849027E+01	-1.74655702834E+02
2.48900000000E+07	-3.01743209424E+01	-7.31000443818E+01	3.73307085067E+01	-4.31243227862E+01	-4.75533854315E+01	-3.95743577971E+01	-2.83598696681E+01	-1.74218503300E+02
2.50850000000E+07	-3.03038281403E+01	-7.22382919224E+01	3.73298907226E+01	-4.36266870692E+01	-4.74758544943E+01	-3.97952620689E+01	-2.83376658979E+01	-1.74240278512E+02
2.52800000000E+07	-3.04331631212E+01	-7.10467638405E+01	3.73301707653E+01	-4.40643483093E+01	-4.76076882466E+01	-4.06248139040E+01	-2.82587592858E+01	-1.73680282700E+02
2.54750000000E+07	-3.05497498642E+01	-7.03365171041E+01	3.73290157833E+01	-4.45823892012E+01	-4.75424480235E+01	-4.07740712543E+01	-2.82300366164E+01	-1.73410337361E+02
2.56700000000E+07	-3.06889116728E+01	-6.92358417362E+01	3.73270323934E+01	-4.50642373195E+01	-4.75449682065E+01	-4.15749611376E+01	-2.81972020194E+01	-1.73312310693E+02
2.58650000000E+07	-3.08387786156E+01	-6.80429293870E+01	3.73290955229E+01	-4.55562409361E+01	-4.75645528309E+01	-4.21940293213E+01	-2.81909969892E+01	-1.72992394548E+02
2.60600000000E+07	-3.09777918674E+01	-6.69906599748E+01	3.73277331246E+01	-4.60520469568E+01	-4.75768220920E+01	-4.22572214270E+01	-2.81581095627E+01	-1.72712096114E+02
2.62550000000E+07	-3.10783575687E+01	-6.58826987385E+01	3.73316081139E+01	-4.65204540350E+01	-4.75630468174E+01	-4.29693769761E+01	-2.81414834094E+01	-1.72523818555E+02
2.64500000000E+07	-3.12112081015E+01	-6.50317787626E+01	3.73288416811E+01	-4.69960343659E+01	-4.75618502617E+01	-4.30517819513E+01	-2.80918114537E+01	-1.71798131340E+02
2.66450000000E+07	-3.12971651808E+01	-6.38075502074E+01	3.73286346185E+01	-4.74820772965E+01	-4.75705762944E+01	-4.35327403072E+01	-2.80550303528E+01	-1.71915119373E+02
2.68400000000E+07	-3.14167268436E+01	-6.27625272579E+01	3.73262181453E+01	-4.79724943503E+01	-4.75602685554E+01	-4.37775154609E+01	-2.80557543876E+01	-1.71334415222E+02
2.70350000000E+07	-3.15290534379E+01	-6.16468618262E+01	3.73285277904E+01	-4.84475455551E+01	-4.75468866249E+01	-4.42166418093E+01	-2.80118964952E+01	-1.71692825581E+02
2.72300000000E+07	-3.15912974243E+01	-6.02913917526E+01	3.73302412944E+01	-4.89185079153E+01	-4.75496827683E+01	-4.48327789212E+01	-2.79664006460E+01	-1.71224282175E+02
2.74250000000E+07	-3.16550435879E+01	-5.90479993738E+01	3.73266756188E+01	-4.94205121117E+01	-4.75252282297E+01	-4.51894678754E+01	-2.79419218879E+01	-1.70803032361E+02
2.76200000000E+07	-3.17513789002E+01	-5.80785731787E+01	3.73249872296E+01	-4.98949228492E+01	-4.75815354207E+01	-4.58951953554E+01	-2.78607389940E+01	-1.70649382559E+02
