# Hz S DB R 50
! CMT, M5045, 22160017, 22.3.3/2
! Date: 10/8/2022 17:14:24
! Data: Format (Calibration Info)
! Freq	S11:dB/Ang(F2)	S21:dB/Ang(F2)	S12:dB/Ang(F2)	S22:dB/Ang(F2)
5.00000000000E+06	-9.74876659950E+00	-8.90978203785E+01	3.63399101766E+01	-1.48922062644E+02	-4.85358697712E+01	-1.46016273975E+02	-1.41306247890E+01	6.49282326425E+01
5.19500000000E+06	-1.00831441634E+01	-9.05186540527E+01	3.64156357800E+01	-1.51210668743E+02	-4.84550289946E+01	-1.48274879074E+02	-1.47071605902E+01	6.35825314662E+01
5.39000000000E+06	-1.04021707129E+01	-9.18728190915E+01	3.64855387922E+01	-1.53383240471E+02	-4.83887108628E+01	-1.50524469269E+02	-1.52709997843E+01	6.23413804131E+01
5.58500000000E+06	-1.07162446737E+01	-9.32264332006E+01	3.65456915552E+01	-1.55490548124E+02	-4.83210048711E+01	-1.52591010691E+02	-1.58247708205E+01	6.11948125375E+01
5.78000000000E+06	-1.10147365724E+01	-9.45118937335E+01	3.66030616308E+01	-1.57448365375E+02	-4.82618229251E+01	-1.54600556684E+02	-1.63674738473E+01	6.01268324234E+01
5.97500000000E+06	-1.13127433996E+01	-9.57895094136E+01	3.66491785252E+01	-1.59372376162E+02	-4.82000168313E+01	-1.56522640661E+02	-1.69003515395E+01	5.91203817213E+01
6.17000000000E+06	-1.15907999791E+01	-9.69420831112E+01	3.66926844807E+01	-1.61180365321E+02	-4.81559072571E+01	-1.58381623620E+02	-1.74255052960E+01	5.81914679155E+01
6.36500000000E+06	-1.18627352888E+01	-9.81435067506E+01	3.67325400932E+01	-1.62931798954E+02	-4.81180006835E+01	-1.60024252893E+02	-1.79405610205E+01	5.73067155327E+01
6.56000000000E+06	-1.21208034303E+01	-9.91993424489E+01	3.67705358743E+01	-1.64579352307E+02	-4.80670836009E+01	-1.61745631343E+02	-1.84502869148E+01	5.64896534995E+01
6.75500000000E+06	-1.23951530833E+01	-1.00293762261E+02	3.67985316037E+01	-1.66184248567E+02	-4.80361826567E+01	-1.63359165025E+02	-1.89516699258E+01	5.56995225084E+01
6.95000000000E+06	-1.26395986297E+01	-1.01409108362E+02	3.68309890055E+01	-1.67765891870E+02	-4.79994765348E+01	-1.64937484761E+02	-1.94513118830E+01	5.49714214080E+01
7.14500000000E+06	-1.28813416749E+01	-1.02518826960E+02	3.68560658073E+01	-1.69289354610E+02	-4.79773585870E+01	-1.66395300718E+02	-1.99454897289E+01	5.42747737767E+01
7.34000000000E+06	-1.31319015268E+01	-1.03506442117E+02	3.68764821435E+01	-1.70742336955E+02	-4.79404464802E+01	-1.67857963180E+02	-2.04308704226E+01	5.36001608923E+01
7.53500000000E+06	-1.33629591053E+01	-1.04532559351E+02	3.69018875509E+01	-1.72155795650E+02	-4.79086345808E+01	-1.69265508934E+02	-2.09151133456E+01	5.29935992825E+01
7.73000000000E+06	-1.35919298441E+01	-1.05500338274E+02	3.69194031384E+01	-1.73541434064E+02	-4.78849014070E+01	-1.70624409365E+02	-2.13951735193E+01	5.24031930674E+01
7.92500000000E+06	-1.38167896729E+01	-1.06495078007E+02	3.69378262743E+01	-1.74860086603E+02	-4.78656194007E+01	-1.71928709282E+02	-2.18721057025E+01	5.18417565457E+01
8.12000000000E+06	-1.40242270926E+01	-1.07432914674E+02	3.69600020441E+01	-1.76141411949E+02	-4.78493692530E+01	-1.73257752197E+02	-2.23537892159E+01	5.13310381953E+01
8.31500000000E+06	-1.42442622469E+01	-1.08408288404E+02	3.69731089048E+01	-1.77425827126E+02	-4.78323654207E+01	-1.74498355810E+02	-2.28310855267E+01	5.08158656117E+01
8.51000000000E+06	-1.44450665653E+01	-1.09315804370E+02	3.69896496705E+01	-1.78630224922E+02	-4.78083987240E+01	-1.75722409111E+02	-2.33104110202E+01	5.03246563045E+01
8.70500000000E+06	-1.46541862299E+01	-1.10244160482E+02	3.69996453269E+01	-1.79867895067E+02	-4.77910641219E+01	-1.76913485618E+02	-2.37894075204E+01	4.98679914291E+01
8.90000000000E+06	-1.48597717165E+01	-1.11175941781E+02	3.70117614150E+01	1.78968155363E+02	-4.77789321527E+01	-1.78095613161E+02	-2.42673978668E+01	4.94353322408E+01
9.09500000000E+06	-1.50524532280E+01	-1.12030310901E+02	3.70196898414E+01	1.77815795772E+02	-4.77643431682E+01	-1.79225190664E+02	-2.47496393867E+01	4.90161486869E+01
9.29000000000E+06	-1.52409547608E+01	-1.12985190264E+02	3.70371848474E+01	1.76689475037E+02	-4.77541849492E+01	1.79646221487E+02	-2.52352418291E+01	4.86377078211E+01
9.48500000000E+06	-1.54398957646E+01	-1.13869666648E+02	3.70423797963E+01	1.75588619101E+02	-4.77449050233E+01	1.78567148444E+02	-2.57228121094E+01	4.82639160102E+01
9.68000000000E+06	-1.56274631117E+01	-1.14735774189E+02	3.70490110041E+01	1.74494661413E+02	-4.77254346663E+01	1.77469824226E+02	-2.62232727133E+01	4.79003146123E+01
9.87500000000E+06	-1.58110556981E+01	-1.15610058112E+02	3.70595168379E+01	1.73460718674E+02	-4.77148809190E+01	1.76401145161E+02	-2.67042629163E+01	4.76162946293E+01
1.00700000000E+07	-1.59888297319E+01	-1.16503822672E+02	3.70668854701E+01	1.72399557842E+02	-4.77089572073E+01	1.75353091706E+02	-2.72296728356E+01	4.71130280828E+01
1.02650000000E+07	-1.61741835973E+01	-1.17380850117E+02	3.70722121519E+01	1.71351900643E+02	-4.77042382916E+01	1.74320426925E+02	-2.77654870617E+01	4.68982471530E+01
1.04600000000E+07	-1.63600854243E+01	-1.18294510106E+02	3.70799124404E+01	1.70340286748E+02	-4.76957852809E+01	1.73319506017E+02	-2.82971810909E+01	4.66924731742E+01
1.06550000000E+07	-1.65368008928E+01	-1.19092906391E+02	3.70818764204E+01	1.69355914144E+02	-4.76846854888E+01	1.72339310458E+02	-2.88466129869E+01	4.64849622007E+01
1.08500000000E+07	-1.67072437654E+01	-1.20011377434E+02	3.70908374795E+01	1.68369559514E+02	-4.76799195867E+01	1.71334318881E+02	-2.94021642314E+01	4.63518522371E+01
1.10450000000E+07	-1.68801452846E+01	-1.20806882990E+02	3.70957883541E+01	1.67400101758E+02	-4.76678393933E+01	1.70349311557E+02	-2.99641860749E+01	4.62935271376E+01
1.12400000000E+07	-1.70412501148E+01	-1.21577199335E+02	3.71000765899E+01	1.66440240261E+02	-4.76620605178E+01	1.69439927724E+02	-3.05394021072E+01	4.63070782128E+01
1.14350000000E+07	-1.72006086892E+01	-1.22447470915E+02	3.71078902183E+01	1.65496245709E+02	-4.76516644902E+01	1.68439465982E+02	-3.11398319621E+01	4.63689689170E+01
1.16300000000E+07	-1.73676776698E+01	-1.23291267165E+02	3.71131411212E+01	1.64553724838E+02	-4.76459778116E+01	1.67475585139E+02	-3.17431493949E+01	4.63842233560E+01
1.18250000000E+07	-1.75199742624E+01	-1.24157272893E+02	3.71151499082E+01	1.63603606510E+02	-4.76394083378E+01	1.66503553445E+02	-3.23579870946E+01	4.65562950262E+01
1.20200000000E+07	-1.76863349571E+01	-1.24990147413E+02	3.71197235688E+01	1.62668975707E+02	-4.76321136206E+01	1.65565452451E+02	-3.30113893297E+01	4.66758591893E+01
1.22150000000E+07	-1.78436864257E+01	-1.25780271578E+02	3.71202635636E+01	1.61740534626E+02	-4.76315953630E+01	1.64651825441E+02	-3.36763669160E+01	4.69475043948E+01
1.24100000000E+07	-1.79966195317E+01	-1.26619990179E+02	3.71251233485E+01	1.60877882316E+02	-4.76246399841E+01	1.63735987671E+02	-3.43823975379E+01	4.73033030548E+01
1.26050000000E+07	-1.81417028573E+01	-1.27475806128E+02	3.71263989909E+01	1.59990157771E+02	-4.76235302429E+01	1.62810896493E+02	-3.51279411307E+01	4.77679395397E+01
1.28000000000E+07	-1.82908181499E+01	-1.28273063058E+02	3.71287820219E+01	1.59153584177E+02	-4.76154153123E+01	1.61928422984E+02	-3.59023700017E+01	4.83102928231E+01
1.29950000000E+07	-1.84509987810E+01	-1.29107887495E+02	3.71302137143E+01	1.58269720162E+02	-4.76158996779E+01	1.61063648719E+02	-3.67308311634E+01	4.91534575485E+01
1.31900000000E+07	-1.86017803680E+01	-1.29863747732E+02	3.71344206639E+01	1.57437199144E+02	-4.76139598130E+01	1.60202856892E+02	-3.76117180315E+01	5.01000100751E+01
1.33850000000E+07	-1.87441732231E+01	-1.30591244696E+02	3.71365782982E+01	1.56594766660E+02	-4.76095050144E+01	1.59345401833E+02	-3.85341309533E+01	5.14710938070E+01
1.35800000000E+07	-1.88921531727E+01	-1.31394463205E+02	3.71398687301E+01	1.55786401115E+02	-4.76099414566E+01	1.58524980375E+02	-3.95636956832E+01	5.32022452633E+01
1.37750000000E+07	-1.90405693751E+01	-1.32195672968E+02	3.71420023237E+01	1.54934142850E+02	-4.76055485808E+01	1.57684592967E+02	-4.06355382843E+01	5.53732322081E+01
1.39700000000E+07	-1.91826221138E+01	-1.32910177060E+02	3.71454571767E+01	1.54126447184E+02	-4.76016434068E+01	1.56897613938E+02	-4.18202746941E+01	5.83823084222E+01
1.41650000000E+07	-1.93225267654E+01	-1.33696180645E+02	3.71463232810E+01	1.53346581349E+02	-4.76029246125E+01	1.56064118472E+02	-4.31158335837E+01	6.23282461900E+01
1.43600000000E+07	-1.94664337859E+01	-1.34399457582E+02	3.71499782355E+01	1.52526327237E+02	-4.75993549621E+01	1.55276109857E+02	-4.44666991607E+01	6.76964538733E+01
1.45550000000E+07	-1.96010747700E+01	-1.35162515926E+02	3.71505466562E+01	1.51728277466E+02	-4.76005468118E+01	1.54467906336E+02	-4.59599882867E+01	7.52265998075E+01
1.47500000000E+07	-1.97425432191E+01	-1.35899983164E+02	3.71540146218E+01	1.50924800406E+02	-4.75969385737E+01	1.53632625971E+02	-4.73698218137E+01	8.53061060704E+01
1.49450000000E+07	-1.98667585815E+01	-1.36555037844E+02	3.71570703251E+01	1.50139607268E+02	-4.75933199725E+01	1.52878990773E+02	-4.86402874515E+01	9.89246447305E+01
1.51400000000E+07	-2.00026153269E+01	-1.37374221312E+02	3.71548601609E+01	1.49351878121E+02	-4.75858723562E+01	1.52096011529E+02	-4.92732912947E+01	1.15684388973E+02
1.53350000000E+07	-2.01478919176E+01	-1.38084808344E+02	3.71606137157E+01	1.48569601848E+02	-4.75867619703E+01	1.51318407396E+02	-4.91056624870E+01	1.33451095664E+02
1.55300000000E+07	-2.02820613033E+01	-1.38773799353E+02	3.71625025746E+01	1.47791897623E+02	-4.75871481103E+01	1.50552226858E+02	-4.82427438152E+01	1.48124432019E+02
1.57250000000E+07	-2.04046789477E+01	-1.39486264446E+02	3.71608625470E+01	1.47006687489E+02	-4.75891443248E+01	1.49766578362E+02	-4.70136227294E+01	1.59293378896E+02
1.59200000000E+07	-2.05488040838E+01	-1.40187505002E+02	3.71649938692E+01	1.46247365649E+02	-4.75842740688E+01	1.49024277013E+02	-4.57461711093E+01	1.67481575706E+02
1.61150000000E+07	-2.06735384053E+01	-1.40834410170E+02	3.71660666068E+01	1.45515221711E+02	-4.75832715360E+01	1.48313414266E+02	-4.45388584381E+01	1.73425184942E+02
1.63100000000E+07	-2.08138866023E+01	-1.41623807322E+02	3.71656322310E+01	1.44741382348E+02	-4.75829083864E+01	1.47535497878E+02	-4.34893391389E+01	1.77810506226E+02
1.65050000000E+07	-2.09339017997E+01	-1.42228422059E+02	3.71667447785E+01	1.44004462113E+02	-4.75781400690E+01	1.46831683754E+02	-4.24391847372E+01	-1.78689902599E+02
1.67000000000E+07	-2.10520537763E+01	-1.42957391520E+02	3.71709683468E+01	1.43248255454E+02	-4.75751413697E+01	1.46036188399E+02	-4.15007946636E+01	-1.76315194621E+02
1.68950000000E+07	-2.11863839379E+01	-1.43630153777E+02	3.71703464410E+01	1.42486874819E+02	-4.75756847937E+01	1.45328796562E+02	-4.06558943318E+01	-1.74411500581E+02
1.70900000000E+07	-2.13081612342E+01	-1.44256090131E+02	3.71692201929E+01	1.41757184805E+02	-4.75791647757E+01	1.44589010597E+02	-3.99225714476E+01	-1.72935672416E+02
1.72850000000E+07	-2.14250041234E+01	-1.44972791515E+02	3.71718260244E+01	1.40988786323E+02	-4.75777822292E+01	1.43875001146E+02	-3.92294278470E+01	-1.71827589004E+02
1.74800000000E+07	-2.15497312425E+01	-1.45624303285E+02	3.71748513077E+01	1.40256142244E+02	-4.75711968846E+01	1.43154801315E+02	-3.85987903061E+01	-1.70851013179E+02
1.76750000000E+07	-2.16739506206E+01	-1.46182139136E+02	3.71743940465E+01	1.39561195976E+02	-4.75721775847E+01	1.42424610063E+02	-3.80383135370E+01	-1.70277127298E+02
1.78700000000E+07	-2.17927021364E+01	-1.46833901826E+02	3.71813001625E+01	1.38811419418E+02	-4.75699667864E+01	1.41737285533E+02	-3.75093890477E+01	-1.69635313485E+02
1.80650000000E+07	-2.19077602195E+01	-1.47498626941E+02	3.71801916234E+01	1.38082297106E+02	-4.75727334880E+01	1.41010503499E+02	-3.70112559267E+01	-1.69263883713E+02
1.82600000000E+07	-2.20237703592E+01	-1.48216924926E+02	3.71798225990E+01	1.37337807643E+02	-4.75660637038E+01	1.40302890105E+02	-3.65307563819E+01	-1.68899784527E+02
1.84550000000E+07	-2.21415956185E+01	-1.48822734731E+02	3.71785294069E+01	1.36620619524E+02	-4.75724829750E+01	1.39574421488E+02	-3.61066656652E+01	-1.68618453699E+02
1.86500000000E+07	-2.22588726873E+01	-1.49449884773E+02	3.71789833460E+01	1.35917012244E+02	-4.75675108540E+01	1.38867350522E+02	-3.56971262102E+01	-1.68492271363E+02
1.88450000000E+07	-2.23733513819E+01	-1.50090190788E+02	3.71792931108E+01	1.35226369784E+02	-4.75693275533E+01	1.38178994055E+02	-3.53079571115E+01	-1.68312222532E+02
1.90400000000E+07	-2.24974262843E+01	-1.50591906741E+02	3.71814515026E+01	1.34491042515E+02	-4.75699483277E+01	1.37485460575E+02	-3.49514758439E+01	-1.68262413005E+02
1.92350000000E+07	-2.26039262145E+01	-1.51264400979E+02	3.71812211116E+01	1.33774486153E+02	-4.75686782045E+01	1.36813816232E+02	-3.45915259030E+01	-1.68265360480E+02
1.94300000000E+07	-2.27274806510E+01	-1.51864060716E+02	3.71816047227E+01	1.33047687486E+02	-4.75673186029E+01	1.36099291683E+02	-3.42707917849E+01	-1.68271539179E+02
1.96250000000E+07	-2.28323178633E+01	-1.52507650927E+02	3.71808073358E+01	1.32352970266E+02	-4.75671915102E+01	1.35441552554E+02	-3.39563775982E+01	-1.68211989599E+02
1.98200000000E+07	-2.29450230619E+01	-1.53052867126E+02	3.71827032052E+01	1.31655129656E+02	-4.75682500645E+01	1.34740933977E+02	-3.36601307698E+01	-1.68304585775E+02
2.00150000000E+07	-2.30625984925E+01	-1.53725799841E+02	3.71869768369E+01	1.30943993125E+02	-4.75630000664E+01	1.34018029523E+02	-3.33698882609E+01	-1.68464928955E+02
2.02100000000E+07	-2.31617043930E+01	-1.54337257175E+02	3.71855767490E+01	1.30253878979E+02	-4.75647628639E+01	1.33347160082E+02	-3.30929405046E+01	-1.68529161215E+02
2.04050000000E+07	-2.32752825322E+01	-1.54843329515E+02	3.71871873460E+01	1.29543751854E+02	-4.75684720953E+01	1.32633536787E+02	-3.28314653445E+01	-1.68717138348E+02
2.06000000000E+07	-2.33832267331E+01	-1.55479691515E+02	3.71845811534E+01	1.28854598037E+02	-4.75669972152E+01	1.32022986388E+02	-3.25819629656E+01	-1.68838247304E+02
2.07950000000E+07	-2.34812260133E+01	-1.56168637562E+02	3.71862666464E+01	1.28135274798E+02	-4.75639970793E+01	1.31343864898E+02	-3.23417048286E+01	-1.69029251337E+02
2.09900000000E+07	-2.35966594038E+01	-1.56645131725E+02	3.71869499124E+01	1.27442931307E+02	-4.75614093578E+01	1.30638923851E+02	-3.21064597690E+01	-1.69262821975E+02
2.11850000000E+07	-2.36925759190E+01	-1.57217359626E+02	3.71909004506E+01	1.26765818210E+02	-4.75626514583E+01	1.29991398431E+02	-3.18849770047E+01	-1.69443784422E+02
2.13800000000E+07	-2.38027066132E+01	-1.57862601465E+02	3.71875743598E+01	1.26090410366E+02	-4.75641554794E+01	1.29321693939E+02	-3.16681248862E+01	-1.69700070484E+02
2.15750000000E+07	-2.39170688868E+01	-1.58319721285E+02	3.71905942057E+01	1.25367416681E+02	-4.75592790437E+01	1.28664844650E+02	-3.14615852057E+01	-1.69921557576E+02
2.17700000000E+07	-2.40272444099E+01	-1.58895900736E+02	3.71901239833E+01	1.24695002989E+02	-4.75622483528E+01	1.27975174588E+02	-3.12625977306E+01	-1.70183419032E+02
2.19650000000E+07	-2.41082870988E+01	-1.59490632249E+02	3.71897722132E+01	1.24008553738E+02	-4.75601405649E+01	1.27313306737E+02	-3.10755796908E+01	-1.70461788443E+02
2.21600000000E+07	-2.42079605791E+01	-1.60047933673E+02	3.71914610855E+01	1.23318918305E+02	-4.75625491282E+01	1.26650577401E+02	-3.08834204745E+01	-1.70748382908E+02
2.23550000000E+07	-2.43121455761E+01	-1.60549927645E+02	3.71939492331E+01	1.22626542734E+02	-4.75631954094E+01	1.26018150679E+02	-3.06982956007E+01	-1.71025208978E+02
2.25500000000E+07	-2.44058903057E+01	-1.61048471250E+02	3.71941640603E+01	1.21934831510E+02	-4.75595483790E+01	1.25327291222E+02	-3.05251776920E+01	-1.71327131798E+02
2.27450000000E+07	-2.45062827905E+01	-1.61653253376E+02	3.71938439034E+01	1.21281696870E+02	-4.75600592968E+01	1.24698567374E+02	-3.03530013804E+01	-1.71633320277E+02
2.29400000000E+07	-2.46116613318E+01	-1.62123531710E+02	3.71947547541E+01	1.20614329659E+02	-4.75615489689E+01	1.24060092307E+02	-3.01845583899E+01	-1.71923941516E+02
2.31350000000E+07	-2.46996216124E+01	-1.62692076072E+02	3.71948729968E+01	1.19943311177E+02	-4.75589544167E+01	1.23381634776E+02	-3.00311283500E+01	-1.72248110516E+02
2.33300000000E+07	-2.48083254202E+01	-1.63219847493E+02	3.71912820945E+01	1.19266448678E+02	-4.75626500965E+01	1.22701711024E+02	-2.98771754119E+01	-1.72530163863E+02
2.35250000000E+07	-2.49061576332E+01	-1.63636096109E+02	3.71914538664E+01	1.18605254509E+02	-4.75584785518E+01	1.22055514862E+02	-2.97255820827E+01	-1.72890550428E+02
2.37200000000E+07	-2.49861881083E+01	-1.64393695503E+02	3.71960664393E+01	1.17902988132E+02	-4.75620995965E+01	1.21452295749E+02	-2.95755220108E+01	-1.73231060868E+02
2.39150000000E+07	-2.50876264488E+01	-1.64827254176E+02	3.71924701637E+01	1.17235875149E+02	-4.75598732902E+01	1.20765434313E+02	-2.94320109988E+01	-1.73529785599E+02
2.41100000000E+07	-2.51836083354E+01	-1.65259373275E+02	3.71956085719E+01	1.16545951185E+02	-4.75579429998E+01	1.20139819878E+02	-2.92858333597E+01	-1.73888444875E+02
2.43050000000E+07	-2.52759876999E+01	-1.65832324404E+02	3.71902352378E+01	1.15914569058E+02	-4.75595341207E+01	1.19468000081E+02	-2.91526632595E+01	-1.74230044767E+02
2.45000000000E+07	-2.53756692059E+01	-1.66361230817E+02	3.71928219951E+01	1.15218785616E+02	-4.75597397619E+01	1.18841631356E+02	-2.90139776687E+01	-1.74560673505E+02
2.46950000000E+07	-2.54586591824E+01	-1.66830334675E+02	3.71924600946E+01	1.14568317191E+02	-4.75599808773E+01	1.18191584043E+02	-2.88866987812E+01	-1.74903039305E+02
2.48900000000E+07	-2.55654073457E+01	-1.67381882974E+02	3.71894347154E+01	1.13904713595E+02	-4.75571018124E+01	1.17577329820E+02	-2.87543763211E+01	-1.75260420978E+02
2.50850000000E+07	-2.56523026640E+01	-1.67792191685E+02	3.71920054136E+01	1.13246709133E+02	-4.75610347113E+01	1.16919534943E+02	-2.86313456915E+01	-1.75612081729E+02
2.52800000000E+07	-2.57679434172E+01	-1.68368837054E+02	3.71955888219E+01	1.12554928877E+02	-4.75589070798E+01	1.16273149469E+02	-2.85067278620E+01	-1.75989038013E+02
2.54750000000E+07	-2.58265506898E+01	-1.68783357600E+02	3.71897278217E+01	1.11898790784E+02	-4.75612805855E+01	1.15665077072E+02	-2.83872903442E+01	-1.76319757758E+02
2.56700000000E+07	-2.59206087086E+01	-1.69357040611E+02	3.71914901830E+01	1.11225023451E+02	-4.75592876466E+01	1.15012699503E+02	-2.82691509403E+01	-1.76732380823E+02
2.58650000000E+07	-2.60087662120E+01	-1.69835075406E+02	3.71912510708E+01	1.10587436197E+02	-4.75591423399E+01	1.14371850492E+02	-2.81516590871E+01	-1.77121307006E+02
2.60600000000E+07	-2.61207615948E+01	-1.70323029311E+02	3.71930979411E+01	1.09921020166E+02	-4.75578912624E+01	1.13716023828E+02	-2.80302645767E+01	-1.77512438688E+02
2.62550000000E+07	-2.61799782413E+01	-1.70773379171E+02	3.71973722750E+01	1.09254196465E+02	-4.75649441550E+01	1.13102557543E+02	-2.79260453004E+01	-1.77886721527E+02
2.64500000000E+07	-2.62906453730E+01	-1.71263479109E+02	3.71917146001E+01	1.08617559760E+02	-4.75578366535E+01	1.12491616577E+02	-2.78165883507E+01	-1.78282272049E+02
2.66450000000E+07	-2.63852833171E+01	-1.71779020771E+02	3.71915141666E+01	1.07944643158E+02	-4.75609708037E+01	1.11839310406E+02	-2.77038090540E+01	-1.78662322373E+02
2.68400000000E+07	-2.64735293312E+01	-1.72102963363E+02	3.71900363169E+01	1.07312002940E+02	-4.75602132976E+01	1.11203922121E+02	-2.76019171618E+01	-1.79090895366E+02
2.70350000000E+07	-2.65556794668E+01	-1.72669238166E+02	3.71914905066E+01	1.06640802121E+02	-4.75605879524E+01	1.10560747135E+02	-2.75000308624E+01	-1.79483266689E+02
2.72300000000E+07	-2.66460420505E+01	-1.73129187934E+02	3.71880061398E+01	1.05995987445E+02	-4.75616261997E+01	1.09961430785E+02	-2.73972513622E+01	-1.79912739802E+02
2.74250000000E+07	-2.67467800926E+01	-1.73579147728E+02	3.71902260379E+01	1.05324834247E+02	-4.75647394558E+01	1.09334029196E+02	-2.73007355911E+01	1.79688459650E+02
2.76200000000E+07	-2.68097741163E+01	-1.73966884230E+02	3.71908014964E+01	1.04686303209E+02	-4.75641065754E+01	1.08678875396E+02	-2.72013704991E+01	1.79253227517E+02
2.78150000000E+07	-2.69047636337E+01	-1.74361347761E+02	3.71931927193E+01	1.04028142478E+02	-4.75640782059E+01	1.08079931904E+02	-2.71071562855E+01	1.78867870903E+02
