# Hz S DB R 50
! CMT, M5045, 22160017, 22.3.3/2
! Date: 10/8/2022 17:06:56
! Data: Format (Calibration Info)
! Freq	S11:dB/Ang(F2)	S21:dB/Ang(F2)	S12:dB/Ang(F2)	S22:dB/Ang(F2)
5.00000000000E+06	-9.81494231650E+00	-9.14945693417E+01	3.63381748262E+01	-1.48861637357E+02	-4.84702585723E+01	-1.46003887948E+02	-1.39716079327E+01	6.65325830223E+01
5.19500000000E+06	-1.01553602174E+01	-9.30572431301E+01	3.64152185007E+01	-1.51200593551E+02	-4.83919667996E+01	-1.48382229768E+02	-1.45400123568E+01	6.52246998077E+01
5.39000000000E+06	-1.04835820509E+01	-9.45230580688E+01	3.64829641903E+01	-1.53409744188E+02	-4.83160006170E+01	-1.50578493777E+02	-1.50967033883E+01	6.40443856894E+01
5.58500000000E+06	-1.07981147109E+01	-9.59406896147E+01	3.65443912614E+01	-1.55475820047E+02	-4.82514525303E+01	-1.52705205513E+02	-1.56398522770E+01	6.29478633615E+01
5.78000000000E+06	-1.11010919664E+01	-9.73151036147E+01	3.66009712157E+01	-1.57514960544E+02	-4.81928228863E+01	-1.54722752936E+02	-1.61749867487E+01	6.19263555269E+01
5.97500000000E+06	-1.14032871634E+01	-9.86369126359E+01	3.66474200350E+01	-1.59422583215E+02	-4.81356307055E+01	-1.56625204246E+02	-1.66986005951E+01	6.09726900249E+01
6.17000000000E+06	-1.16893745762E+01	-9.98845727210E+01	3.66903642439E+01	-1.61232135395E+02	-4.80902150108E+01	-1.58528873936E+02	-1.72137316721E+01	6.00910941010E+01
6.36500000000E+06	-1.19733701848E+01	-1.01170164830E+02	3.67298544684E+01	-1.63025144726E+02	-4.80428708778E+01	-1.60197303753E+02	-1.77192899276E+01	5.92610292306E+01
6.56000000000E+06	-1.22437586309E+01	-1.02327879141E+02	3.67608204877E+01	-1.64668386448E+02	-4.80004426592E+01	-1.61959469978E+02	-1.82187821874E+01	5.84873477864E+01
6.75500000000E+06	-1.25079702275E+01	-1.03521900061E+02	3.67968988716E+01	-1.66325235706E+02	-4.79603941959E+01	-1.63588498669E+02	-1.87108191172E+01	5.77578980749E+01
6.95000000000E+06	-1.27657258165E+01	-1.04623477012E+02	3.68273587157E+01	-1.67899298429E+02	-4.79283130785E+01	-1.65167380595E+02	-1.91983442282E+01	5.70819618028E+01
7.14500000000E+06	-1.30199573324E+01	-1.05778636609E+02	3.68466801692E+01	-1.69402000858E+02	-4.78963333109E+01	-1.66673014976E+02	-1.96795357464E+01	5.64490515636E+01
7.34000000000E+06	-1.32643628722E+01	-1.06848560567E+02	3.68739876566E+01	-1.70839455590E+02	-4.78677148920E+01	-1.68119049310E+02	-2.01561172422E+01	5.58263357767E+01
7.53500000000E+06	-1.34997994245E+01	-1.08002241672E+02	3.68920959009E+01	-1.72294311191E+02	-4.78433354038E+01	-1.69529299472E+02	-2.06276799586E+01	5.52921662780E+01
7.73000000000E+06	-1.37348580627E+01	-1.08992170319E+02	3.69152091557E+01	-1.73661195112E+02	-4.78183416409E+01	-1.70948808878E+02	-2.10973763443E+01	5.47464733174E+01
7.92500000000E+06	-1.39654106537E+01	-1.10134685110E+02	3.69319811510E+01	-1.75020203725E+02	-4.77974011075E+01	-1.72286877172E+02	-2.15647811569E+01	5.42754462872E+01
8.12000000000E+06	-1.41833266776E+01	-1.11134894048E+02	3.69493824084E+01	-1.76310381827E+02	-4.77740992855E+01	-1.73575630996E+02	-2.20275692235E+01	5.38092540196E+01
8.31500000000E+06	-1.44124399873E+01	-1.12187848152E+02	3.69606805155E+01	-1.77591627588E+02	-4.77489418224E+01	-1.74841300308E+02	-2.24903802783E+01	5.33836137773E+01
8.51000000000E+06	-1.46285796133E+01	-1.13154728020E+02	3.69732575690E+01	-1.78833584196E+02	-4.77291372685E+01	-1.76051950242E+02	-2.29584887568E+01	5.29604464544E+01
8.70500000000E+06	-1.48405867758E+01	-1.14144800345E+02	3.69858633051E+01	1.79956763442E+02	-4.77128229430E+01	-1.77268101273E+02	-2.34217712742E+01	5.25713050959E+01
8.90000000000E+06	-1.50426176241E+01	-1.15125973856E+02	3.69993334511E+01	1.78771082138E+02	-4.76954822368E+01	-1.78487222043E+02	-2.38807126006E+01	5.22224379189E+01
9.09500000000E+06	-1.52402754487E+01	-1.16151550545E+02	3.70126966761E+01	1.77581691116E+02	-4.76837123465E+01	-1.79621441550E+02	-2.43419519850E+01	5.19144992668E+01
9.29000000000E+06	-1.54469275217E+01	-1.17160606902E+02	3.70163974004E+01	1.76477790778E+02	-4.76652659948E+01	1.79240856392E+02	-2.48091645473E+01	5.16337850100E+01
9.48500000000E+06	-1.56440703393E+01	-1.18044245207E+02	3.70248805714E+01	1.75369777469E+02	-4.76549949122E+01	1.78123304462E+02	-2.52750217344E+01	5.13931683480E+01
9.68000000000E+06	-1.58409371364E+01	-1.19047387127E+02	3.70343850665E+01	1.74264095394E+02	-4.76440724456E+01	1.77029270866E+02	-2.57439068183E+01	5.11657129999E+01
9.87500000000E+06	-1.60283112046E+01	-1.19971519734E+02	3.70403117516E+01	1.73184126417E+02	-4.76312677670E+01	1.75950549990E+02	-2.62064925620E+01	5.09869730995E+01
1.00700000000E+07	-1.62137388139E+01	-1.20932643759E+02	3.70461437563E+01	1.72146519547E+02	-4.76207971211E+01	1.74872967425E+02	-2.67026244294E+01	5.06720714191E+01
1.02650000000E+07	-1.63979972694E+01	-1.21843014083E+02	3.70584239350E+01	1.71129394651E+02	-4.76146690654E+01	1.73844293400E+02	-2.71892064077E+01	5.06148673466E+01
1.04600000000E+07	-1.65831739437E+01	-1.22777934020E+02	3.70635407102E+01	1.70108085486E+02	-4.76037596372E+01	1.72799790444E+02	-2.76673648878E+01	5.05274644527E+01
1.06550000000E+07	-1.67607666143E+01	-1.23764547354E+02	3.70621646933E+01	1.69105596122E+02	-4.75916718516E+01	1.71770626653E+02	-2.81579035418E+01	5.04307987424E+01
1.08500000000E+07	-1.69346922137E+01	-1.24707561935E+02	3.70688257670E+01	1.68127378190E+02	-4.75851824153E+01	1.70770508807E+02	-2.86491495314E+01	5.03421679516E+01
1.10450000000E+07	-1.71063339669E+01	-1.25616503574E+02	3.70716361725E+01	1.67155227213E+02	-4.75817950984E+01	1.69773286709E+02	-2.91516644073E+01	5.02131418392E+01
1.12400000000E+07	-1.72760737506E+01	-1.26662683738E+02	3.70812587107E+01	1.66162027457E+02	-4.75728238324E+01	1.68794013638E+02	-2.96693952285E+01	5.01953180874E+01
1.14350000000E+07	-1.74494029816E+01	-1.27552298811E+02	3.70849477351E+01	1.65230303750E+02	-4.75668921026E+01	1.67829742505E+02	-3.02112795422E+01	5.01929681089E+01
1.16300000000E+07	-1.76204691491E+01	-1.28552275099E+02	3.70887250731E+01	1.64266197563E+02	-4.75594365449E+01	1.66869585131E+02	-3.07625121637E+01	5.01728827296E+01
1.18250000000E+07	-1.77883014056E+01	-1.29511566334E+02	3.70944418693E+01	1.63314475234E+02	-4.75497983639E+01	1.65933649876E+02	-3.13237940736E+01	5.02827854160E+01
1.20200000000E+07	-1.79492883057E+01	-1.30418058717E+02	3.70949029422E+01	1.62388047140E+02	-4.75405211576E+01	1.64931306289E+02	-3.19129677484E+01	5.04427782129E+01
1.22150000000E+07	-1.81208916521E+01	-1.31383730746E+02	3.70954484030E+01	1.61450449055E+02	-4.75371017859E+01	1.64035284247E+02	-3.25109815563E+01	5.06867631910E+01
1.24100000000E+07	-1.82875176068E+01	-1.32296969222E+02	3.70985990610E+01	1.60534195096E+02	-4.75303956439E+01	1.63113666867E+02	-3.31364324226E+01	5.10337769723E+01
1.26050000000E+07	-1.84535463435E+01	-1.33242023959E+02	3.70972386362E+01	1.59652733783E+02	-4.75248859357E+01	1.62197653526E+02	-3.37897280605E+01	5.14855846568E+01
1.28000000000E+07	-1.86198900832E+01	-1.34162339453E+02	3.70992748795E+01	1.58788393623E+02	-4.75229625411E+01	1.61333995267E+02	-3.44545196161E+01	5.20308035313E+01
1.29950000000E+07	-1.87712843412E+01	-1.35033974270E+02	3.71028823298E+01	1.57971119718E+02	-4.75152072364E+01	1.60420290365E+02	-3.51708007644E+01	5.28279349877E+01
1.31900000000E+07	-1.89309498684E+01	-1.35892918706E+02	3.71024929084E+01	1.57082037969E+02	-4.75096009386E+01	1.59563871377E+02	-3.59100723807E+01	5.36954965421E+01
1.33850000000E+07	-1.90794657894E+01	-1.36817095671E+02	3.71077874518E+01	1.56264458621E+02	-4.75085624008E+01	1.58714343032E+02	-3.66829922504E+01	5.48705403336E+01
1.35800000000E+07	-1.92511949532E+01	-1.37731648016E+02	3.71079425264E+01	1.55424537456E+02	-4.75046963056E+01	1.57853814338E+02	-3.75053607261E+01	5.62315236682E+01
1.37750000000E+07	-1.93888018512E+01	-1.38510399051E+02	3.71093485372E+01	1.54586188059E+02	-4.74983663006E+01	1.57023177337E+02	-3.83499120069E+01	5.78532478651E+01
1.39700000000E+07	-1.95457817078E+01	-1.39413737977E+02	3.71073923573E+01	1.53785966053E+02	-4.74945720524E+01	1.56215795040E+02	-3.92523072243E+01	6.01007458650E+01
1.41650000000E+07	-1.96989128846E+01	-1.40271773256E+02	3.71126097307E+01	1.52930175173E+02	-4.74892331222E+01	1.55399173797E+02	-4.02309470826E+01	6.29577600417E+01
1.43600000000E+07	-1.98500744845E+01	-1.41099360721E+02	3.71123513662E+01	1.52123532460E+02	-4.74869668533E+01	1.54581731163E+02	-4.12330570002E+01	6.61998588296E+01
1.45550000000E+07	-1.99892319798E+01	-1.41991315660E+02	3.71115851436E+01	1.51318479167E+02	-4.74806421880E+01	1.53757109027E+02	-4.23181748825E+01	7.05609297845E+01
1.47500000000E+07	-2.01442692550E+01	-1.42802372871E+02	3.71131086359E+01	1.50522515431E+02	-4.74785163831E+01	1.52962783394E+02	-4.33998374094E+01	7.60882457185E+01
1.49450000000E+07	-2.02912046749E+01	-1.43644908707E+02	3.71112287443E+01	1.49739316792E+02	-4.74705875379E+01	1.52159646841E+02	-4.45070251108E+01	8.28752302995E+01
1.51400000000E+07	-2.04397104557E+01	-1.44431263523E+02	3.71155509669E+01	1.48943356736E+02	-4.74671519705E+01	1.51400997552E+02	-4.54934942080E+01	9.16818478438E+01
1.53350000000E+07	-2.05808425842E+01	-1.45270856861E+02	3.71136600358E+01	1.48159810176E+02	-4.74683033246E+01	1.50588544858E+02	-4.63587804148E+01	1.02540506747E+02
1.55300000000E+07	-2.07175820867E+01	-1.46072840394E+02	3.71161988212E+01	1.47398180686E+02	-4.74589884510E+01	1.49828225777E+02	-4.68417939408E+01	1.14837420652E+02
1.57250000000E+07	-2.08681564694E+01	-1.46928337358E+02	3.71129146105E+01	1.46591469843E+02	-4.74602355695E+01	1.49078263674E+02	-4.68279308286E+01	1.27442808188E+02
1.59200000000E+07	-2.10071798376E+01	-1.47709442185E+02	3.71149935282E+01	1.45817712255E+02	-4.74553467076E+01	1.48299384664E+02	-4.64767944006E+01	1.39260457958E+02
1.61150000000E+07	-2.11494494316E+01	-1.48563666036E+02	3.71134216194E+01	1.45080078686E+02	-4.74559598502E+01	1.47506108321E+02	-4.57737904546E+01	1.49654386702E+02
1.63100000000E+07	-2.12812420471E+01	-1.49456540920E+02	3.71150858163E+01	1.44281231509E+02	-4.74454173324E+01	1.46794328715E+02	-4.49824445065E+01	1.57688610123E+02
1.65050000000E+07	-2.14257303179E+01	-1.50113775369E+02	3.71159117207E+01	1.43540458828E+02	-4.74402105996E+01	1.46030803209E+02	-4.40297180054E+01	1.64726649609E+02
1.67000000000E+07	-2.15673022522E+01	-1.51041870611E+02	3.71165130345E+01	1.42782879339E+02	-4.74383250641E+01	1.45286390774E+02	-4.31093791604E+01	1.69913013920E+02
1.68950000000E+07	-2.17040300014E+01	-1.51776096965E+02	3.71169832704E+01	1.42035956479E+02	-4.74380201250E+01	1.44550282490E+02	-4.22364931092E+01	1.73895470492E+02
1.70900000000E+07	-2.18325127199E+01	-1.52591688731E+02	3.71183931778E+01	1.41286139895E+02	-4.74390716440E+01	1.43817155407E+02	-4.14383416325E+01	1.77096574949E+02
1.72850000000E+07	-2.19684748583E+01	-1.53351072953E+02	3.71152753345E+01	1.40534654122E+02	-4.74334807600E+01	1.43083341669E+02	-4.06893143397E+01	1.79405708630E+02
1.74800000000E+07	-2.21067674058E+01	-1.54170704464E+02	3.71136116403E+01	1.39801076011E+02	-4.74312149441E+01	1.42358951740E+02	-3.99998501523E+01	-1.78412533181E+02
1.76750000000E+07	-2.22444910471E+01	-1.54846228543E+02	3.71140709159E+01	1.39053554156E+02	-4.74273821313E+01	1.41612201593E+02	-3.93563291566E+01	-1.76829569793E+02
1.78700000000E+07	-2.23703900339E+01	-1.55701726251E+02	3.71151099383E+01	1.38321858904E+02	-4.74194852038E+01	1.40917093467E+02	-3.87722249337E+01	-1.75535830435E+02
1.80650000000E+07	-2.25054109275E+01	-1.56449665676E+02	3.71117701972E+01	1.37591770445E+02	-4.74129366705E+01	1.40193597102E+02	-3.82113450303E+01	-1.74469727236E+02
1.82600000000E+07	-2.26507071756E+01	-1.57285028463E+02	3.71101024532E+01	1.36877769730E+02	-4.74169966108E+01	1.39491222249E+02	-3.76751020178E+01	-1.73522227498E+02
1.84550000000E+07	-2.27799969564E+01	-1.57976339038E+02	3.71084809357E+01	1.36134531238E+02	-4.74143482896E+01	1.38769720388E+02	-3.72132131216E+01	-1.72705741122E+02
1.86500000000E+07	-2.29074190303E+01	-1.58678664645E+02	3.71099779904E+01	1.35410475453E+02	-4.74086325985E+01	1.38057014213E+02	-3.67646461526E+01	-1.72282819294E+02
1.88450000000E+07	-2.30224385046E+01	-1.59527954771E+02	3.71129226249E+01	1.34710108637E+02	-4.74101463959E+01	1.37318799775E+02	-3.63250172867E+01	-1.71702537225E+02
1.90400000000E+07	-2.31647087140E+01	-1.60330885488E+02	3.71091947060E+01	1.33999428485E+02	-4.74018316256E+01	1.36652966750E+02	-3.59294702590E+01	-1.71263897949E+02
1.92350000000E+07	-2.32886553503E+01	-1.60999410033E+02	3.71085716155E+01	1.33257430338E+02	-4.73999412257E+01	1.35953841468E+02	-3.55297425897E+01	-1.70991572095E+02
1.94300000000E+07	-2.34216739445E+01	-1.61831756800E+02	3.71066723765E+01	1.32550177616E+02	-4.73947748919E+01	1.35256063582E+02	-3.51856633073E+01	-1.70712756340E+02
1.96250000000E+07	-2.35383919589E+01	-1.62523998636E+02	3.71087924288E+01	1.31843787093E+02	-4.73956573695E+01	1.34557707167E+02	-3.48380019999E+01	-1.70480117373E+02
1.98200000000E+07	-2.36765575923E+01	-1.63298072344E+02	3.71036408572E+01	1.31128142335E+02	-4.73901437238E+01	1.33852997940E+02	-3.45130069625E+01	-1.70344648539E+02
2.00150000000E+07	-2.37996937244E+01	-1.63980519751E+02	3.71040327844E+01	1.30441189230E+02	-4.73900447822E+01	1.33177373151E+02	-3.41917610664E+01	-1.70292195687E+02
2.02100000000E+07	-2.39308837513E+01	-1.64822854042E+02	3.71029768543E+01	1.29694992656E+02	-4.73861300461E+01	1.32503869761E+02	-3.39018092999E+01	-1.70184328326E+02
2.04050000000E+07	-2.40558334109E+01	-1.65532676425E+02	3.71033816126E+01	1.28989160567E+02	-4.73810725993E+01	1.31806950185E+02	-3.36133299277E+01	-1.70248015643E+02
2.06000000000E+07	-2.41914554684E+01	-1.66230605595E+02	3.70966946961E+01	1.28327049967E+02	-4.73816301625E+01	1.31122061985E+02	-3.33428809575E+01	-1.70227834874E+02
2.07950000000E+07	-2.43250135615E+01	-1.67008442391E+02	3.70961731029E+01	1.27621869979E+02	-4.73783768612E+01	1.30453260872E+02	-3.30778031751E+01	-1.70274693878E+02
2.09900000000E+07	-2.44263316563E+01	-1.67644649651E+02	3.71001270380E+01	1.26913646617E+02	-4.73732109526E+01	1.29754124648E+02	-3.28228636053E+01	-1.70374103264E+02
2.11850000000E+07	-2.45549434069E+01	-1.68414462779E+02	3.70979284852E+01	1.26221917070E+02	-4.73690553198E+01	1.29057761935E+02	-3.25878657042E+01	-1.70380143255E+02
2.13800000000E+07	-2.46790091583E+01	-1.69236815278E+02	3.70979334608E+01	1.25537242556E+02	-4.73702420141E+01	1.28435540297E+02	-3.23542080573E+01	-1.70585731667E+02
2.15750000000E+07	-2.48045794236E+01	-1.69792538004E+02	3.70967084604E+01	1.24837979483E+02	-4.73674788134E+01	1.27735250191E+02	-3.21413445387E+01	-1.70733501900E+02
2.17700000000E+07	-2.49237328546E+01	-1.70620251627E+02	3.70909934311E+01	1.24155704163E+02	-4.73602452159E+01	1.27055600142E+02	-3.19240093988E+01	-1.70880000632E+02
2.19650000000E+07	-2.50449209923E+01	-1.71235051886E+02	3.70941409106E+01	1.23473270981E+02	-4.73602034551E+01	1.26420295472E+02	-3.17181820793E+01	-1.71104565467E+02
2.21600000000E+07	-2.51631058475E+01	-1.72000195599E+02	3.70909979362E+01	1.22785447458E+02	-4.73545336238E+01	1.25729977491E+02	-3.15225718406E+01	-1.71301628099E+02
2.23550000000E+07	-2.52906833129E+01	-1.72852339988E+02	3.70900008430E+01	1.22098978786E+02	-4.73552002659E+01	1.25066376511E+02	-3.13232684353E+01	-1.71513585302E+02
2.25500000000E+07	-2.53994898647E+01	-1.73437877182E+02	3.70925741063E+01	1.21438455543E+02	-4.73537901956E+01	1.24431878659E+02	-3.11389157548E+01	-1.71718176806E+02
2.27450000000E+07	-2.55310602858E+01	-1.74292246758E+02	3.70869323702E+01	1.20751496149E+02	-4.73499803827E+01	1.23764562912E+02	-3.09526915375E+01	-1.71953306006E+02
2.29400000000E+07	-2.56405359442E+01	-1.74813382635E+02	3.70839860679E+01	1.20076516350E+02	-4.73462029107E+01	1.23095958685E+02	-3.07850041948E+01	-1.72179633027E+02
2.31350000000E+07	-2.57563199127E+01	-1.75525193514E+02	3.70841788053E+01	1.19403535120E+02	-4.73464662397E+01	1.22460850566E+02	-3.06227025882E+01	-1.72399802423E+02
2.33300000000E+07	-2.59101931560E+01	-1.76270030834E+02	3.70847104053E+01	1.18728175019E+02	-4.73409248611E+01	1.21801780125E+02	-3.04570619211E+01	-1.72696794168E+02
2.35250000000E+07	-2.60207049725E+01	-1.77012073878E+02	3.70775523692E+01	1.18047388435E+02	-4.73423686242E+01	1.21128634314E+02	-3.02993117759E+01	-1.72941942788E+02
2.37200000000E+07	-2.61211181190E+01	-1.77666485963E+02	3.70798526425E+01	1.17378482873E+02	-4.73336556553E+01	1.20486036246E+02	-3.01430162184E+01	-1.73207576063E+02
2.39150000000E+07	-2.62449601335E+01	-1.78267048087E+02	3.70796836426E+01	1.16696583319E+02	-4.73285593843E+01	1.19851669504E+02	-2.99888326739E+01	-1.73480006892E+02
2.41100000000E+07	-2.63710770584E+01	-1.79154705538E+02	3.70749563981E+01	1.16023564577E+02	-4.73294273836E+01	1.19199076672E+02	-2.98406788035E+01	-1.73804504359E+02
2.43050000000E+07	-2.65047099645E+01	-1.79820828534E+02	3.70740865733E+01	1.15345484062E+02	-4.73330335646E+01	1.18539517375E+02	-2.96976324873E+01	-1.74079485218E+02
2.45000000000E+07	-2.66189301155E+01	1.79631584211E+02	3.70702445918E+01	1.14702674434E+02	-4.73304265336E+01	1.17907159388E+02	-2.95559179057E+01	-1.74372280183E+02
2.46950000000E+07	-2.67193454894E+01	1.78949951735E+02	3.70718365608E+01	1.14021270432E+02	-4.73247631494E+01	1.17275976491E+02	-2.94218864364E+01	-1.74687599715E+02
2.48900000000E+07	-2.68613114245E+01	1.78262814834E+02	3.70660981219E+01	1.13366951142E+02	-4.73215306653E+01	1.16649217815E+02	-2.92859693423E+01	-1.74990006376E+02
2.50850000000E+07	-2.69715983006E+01	1.77584150681E+02	3.70660598502E+01	1.12689460378E+02	-4.73161848816E+01	1.15980630429E+02	-2.91565169512E+01	-1.75278226679E+02
2.52800000000E+07	-2.70797046737E+01	1.76811162331E+02	3.70677293753E+01	1.12020220709E+02	-4.73204074073E+01	1.15337359553E+02	-2.90315522865E+01	-1.75616299278E+02
2.54750000000E+07	-2.71977153302E+01	1.76089965761E+02	3.70623770341E+01	1.11380872012E+02	-4.73119114519E+01	1.14685220991E+02	-2.89103503283E+01	-1.75918928935E+02
2.56700000000E+07	-2.73494152792E+01	1.75294759338E+02	3.70587583142E+01	1.10714861099E+02	-4.73092063084E+01	1.14052128350E+02	-2.87827112031E+01	-1.76312934127E+02
2.58650000000E+07	-2.74754717540E+01	1.74857872252E+02	3.70583899945E+01	1.10047081946E+02	-4.73058469017E+01	1.13441140817E+02	-2.86617270579E+01	-1.76655115961E+02
2.60600000000E+07	-2.75715477072E+01	1.74205482299E+02	3.70541735220E+01	1.09376504875E+02	-4.73074153846E+01	1.12796438860E+02	-2.85441092333E+01	-1.76968728160E+02
2.62550000000E+07	-2.76884241516E+01	1.73515567285E+02	3.70561992190E+01	1.08740794534E+02	-4.73038313400E+01	1.12184770511E+02	-2.84300408283E+01	-1.77357906185E+02
2.64500000000E+07	-2.78285219707E+01	1.72925367184E+02	3.70528671778E+01	1.08078280918E+02	-4.72988454958E+01	1.11534567367E+02	-2.83196400249E+01	-1.77693533228E+02
2.66450000000E+07	-2.79451460107E+01	1.72282809769E+02	3.70511093467E+01	1.07432787605E+02	-4.72954760975E+01	1.10905767089E+02	-2.82052834414E+01	-1.78070799547E+02
2.68400000000E+07	-2.80620921874E+01	1.71536505681E+02	3.70451112786E+01	1.06765589564E+02	-4.72971778267E+01	1.10256272843E+02	-2.80996455510E+01	-1.78452704297E+02
2.70350000000E+07	-2.81958388696E+01	1.70834843722E+02	3.70454888012E+01	1.06139752554E+02	-4.72941449559E+01	1.09607303190E+02	-2.80002378538E+01	-1.78788940884E+02
2.72300000000E+07	-2.83150707046E+01	1.70182747999E+02	3.70454099337E+01	1.05467904655E+02	-4.72898695336E+01	1.09018081395E+02	-2.78946933670E+01	-1.79178828588E+02
2.74250000000E+07	-2.84409555326E+01	1.69509134083E+02	3.70406629962E+01	1.04807664796E+02	-4.72858846965E+01	1.08375545027E+02	-2.77946358350E+01	-1.79564952216E+02
2.76200000000E+07	-2.85529718716E+01	1.68861355309E+02	3.70399252802E+01	1.04167980301E+02	-4.72802184106E+01	1.07750696750E+02	-2.76998395927E+01	-1.79960518655E+02
2.78150000000E+07	-2.86847761243E+01	1.68143087926E+02	3.70347336777E+01	1.03508561046E+02	-4.72790985009E+01	1.07123788043E+02	-2.75990260314E+01	1.79675092541E+02
