# Hz S DB R 50
! CMT, M5045, 22160017, 22.4.3/2
! Date: 2/27/2023 00:55:30
! Data: Format (Calibration Info)
! Freq	S11:dB/Ang(F2)	S21:dB/Ang(F2)	S12:dB/Ang(F2)	S22:dB/Ang(F2)
5.00000000000E+06	-9.61186449078E+00	-7.60336419460E+01	3.63367604746E+01	3.73345827348E+01	-4.85134153300E+01	4.04119017031E+01	-1.47980939241E+01	7.33711094045E+01
5.19500000000E+06	-9.96584411937E+00	-7.70436124154E+01	3.64182470807E+01	3.51194522213E+01	-4.85474130160E+01	3.75922819213E+01	-1.54754787412E+01	7.26979636042E+01
5.39000000000E+06	-1.03089601958E+01	-7.79624724239E+01	3.64928759076E+01	3.30632466142E+01	-4.83055004665E+01	3.52436050011E+01	-1.61186773287E+01	7.21220822913E+01
5.58500000000E+06	-1.06488561550E+01	-7.87902001838E+01	3.65595927693E+01	3.11043326364E+01	-4.81976059944E+01	3.37218720789E+01	-1.67671923844E+01	7.17561324565E+01
5.78000000000E+06	-1.09764464266E+01	-7.96537237163E+01	3.66182079188E+01	2.92251249241E+01	-4.82429024690E+01	3.23220760262E+01	-1.73857328768E+01	7.16167314473E+01
5.97500000000E+06	-1.12957221007E+01	-8.04409456404E+01	3.66685198342E+01	2.74598323537E+01	-4.83227647104E+01	3.08998101355E+01	-1.80241062188E+01	7.14988062352E+01
6.17000000000E+06	-1.16024449239E+01	-8.11281616301E+01	3.67176701796E+01	2.57429235631E+01	-4.81328451420E+01	2.89763697984E+01	-1.86300825749E+01	7.16034346413E+01
6.36500000000E+06	-1.19131642267E+01	-8.17946002495E+01	3.67595087454E+01	2.41429998321E+01	-4.80480203328E+01	2.74717869992E+01	-1.92354054003E+01	7.17110365940E+01
6.56000000000E+06	-1.22043496026E+01	-8.24413146851E+01	3.68000147503E+01	2.26008882628E+01	-4.80952597363E+01	2.54188899124E+01	-1.98370267743E+01	7.19733679701E+01
6.75500000000E+06	-1.24985151395E+01	-8.30208331444E+01	3.68329084778E+01	2.11216344237E+01	-4.78868823345E+01	2.43799935025E+01	-2.04336030542E+01	7.24261246186E+01
6.95000000000E+06	-1.27797277038E+01	-8.36205486257E+01	3.68652791945E+01	1.97124329908E+01	-4.79705621163E+01	2.20620151733E+01	-2.09884751769E+01	7.32506561200E+01
7.14500000000E+06	-1.30662750560E+01	-8.41698782989E+01	3.68902092749E+01	1.83311381098E+01	-4.79161515023E+01	2.14061809558E+01	-2.15471011530E+01	7.37104780097E+01
7.34000000000E+06	-1.33391380797E+01	-8.46602819319E+01	3.69171385485E+01	1.70148202553E+01	-4.78447107072E+01	1.98819100674E+01	-2.21536650204E+01	7.44422913285E+01
7.53500000000E+06	-1.36124227209E+01	-8.52064579717E+01	3.69419350500E+01	1.57419886527E+01	-4.78570034434E+01	1.83693194859E+01	-2.26751321371E+01	7.53656391910E+01
7.73000000000E+06	-1.38771160533E+01	-8.56287373552E+01	3.69633890230E+01	1.45109996638E+01	-4.77732912370E+01	1.78181524083E+01	-2.32106443270E+01	7.65072980980E+01
7.92500000000E+06	-1.41377237009E+01	-8.61616946855E+01	3.69826708401E+01	1.32819507630E+01	-4.77584272527E+01	1.56927120627E+01	-2.37600095193E+01	7.79230303010E+01
8.12000000000E+06	-1.43995929362E+01	-8.65193500844E+01	3.69997037392E+01	1.21582350452E+01	-4.77258412516E+01	1.56882340496E+01	-2.42851767409E+01	7.90363716764E+01
8.31500000000E+06	-1.46481302053E+01	-8.69456133268E+01	3.70184064816E+01	1.10663975019E+01	-4.77283159357E+01	1.39546879274E+01	-2.48130422743E+01	8.05789913941E+01
8.51000000000E+06	-1.49030699499E+01	-8.73379257015E+01	3.70341810585E+01	9.97242469518E+00	-4.77506274869E+01	1.31801693159E+01	-2.52613440810E+01	8.19254548283E+01
8.70500000000E+06	-1.51447353831E+01	-8.77474017752E+01	3.70471917043E+01	8.90337982883E+00	-4.77069311044E+01	1.17434011564E+01	-2.57613447150E+01	8.37291043316E+01
8.90000000000E+06	-1.54010497865E+01	-8.81307125046E+01	3.70569207557E+01	7.88255941720E+00	-4.76667913043E+01	1.05805996125E+01	-2.62590984593E+01	8.52740747672E+01
9.09500000000E+06	-1.56380371526E+01	-8.85069896204E+01	3.70700452473E+01	6.88333029389E+00	-4.76089655320E+01	1.01691660425E+01	-2.66857654807E+01	8.72424919763E+01
9.29000000000E+06	-1.58823638917E+01	-8.89157936560E+01	3.70787515039E+01	5.88610306999E+00	-4.76695530921E+01	8.99998946536E+00	-2.70852123459E+01	8.95731469195E+01
9.48500000000E+06	-1.61217942950E+01	-8.92200012941E+01	3.70868235778E+01	4.94717701313E+00	-4.76400138064E+01	7.67025463693E+00	-2.75384623807E+01	9.16190624748E+01
9.68000000000E+06	-1.63587042221E+01	-8.95423457527E+01	3.70980611704E+01	3.99721077242E+00	-4.76735813262E+01	7.22718391447E+00	-2.79305959561E+01	9.36523966439E+01
9.87500000000E+06	-1.65864498970E+01	-8.98577489799E+01	3.71059378600E+01	3.08389185680E+00	-4.75375946872E+01	6.10904000882E+00	-2.82274101328E+01	9.63507796180E+01
1.00700000000E+07	-1.68203820581E+01	-9.01978480742E+01	3.71173978422E+01	2.20664092148E+00	-4.76483665343E+01	4.87710511756E+00	-2.86142053812E+01	9.86234637930E+01
1.02650000000E+07	-1.70543330576E+01	-9.05436885173E+01	3.71230125044E+01	1.32463864255E+00	-4.75429476694E+01	4.39006944635E+00	-2.89149944214E+01	1.00933422699E+02
1.04600000000E+07	-1.72736302700E+01	-9.08144711705E+01	3.71281997854E+01	4.78740705417E-01	-4.76090914820E+01	3.34636533022E+00	-2.92286870181E+01	1.03261600483E+02
1.06550000000E+07	-1.74977335538E+01	-9.11951808373E+01	3.71345267029E+01	-3.72589828948E-01	-4.75343152244E+01	2.10034366691E+00	-2.94524611869E+01	1.05892607206E+02
1.08500000000E+07	-1.77148394305E+01	-9.14789937592E+01	3.71431626919E+01	-1.18446979139E+00	-4.75690112753E+01	1.54748828728E+00	-2.96379081726E+01	1.08092056581E+02
1.10450000000E+07	-1.79341796011E+01	-9.17908835192E+01	3.71488923209E+01	-2.03938012411E+00	-4.75017421465E+01	1.01462651941E+00	-2.98471507755E+01	1.10792304712E+02
1.12400000000E+07	-1.81660249518E+01	-9.21102453864E+01	3.71555768004E+01	-2.83871052560E+00	-4.75302215620E+01	-2.47234005585E-01	-2.99773610785E+01	1.13131214692E+02
1.14350000000E+07	-1.83734177075E+01	-9.24530011173E+01	3.71632974559E+01	-3.63317718432E+00	-4.75367742041E+01	-1.11203367317E+00	-3.00805852181E+01	1.15779922388E+02
1.16300000000E+07	-1.86024028413E+01	-9.27349445929E+01	3.71693189132E+01	-4.44118971969E+00	-4.74881227904E+01	-1.53888594885E+00	-3.03115704546E+01	1.17776448835E+02
1.18250000000E+07	-1.88161034775E+01	-9.29929643529E+01	3.71739936203E+01	-5.23775338038E+00	-4.74662131469E+01	-2.42893342328E+00	-3.04235924823E+01	1.19875380537E+02
1.20200000000E+07	-1.90374343797E+01	-9.33363443127E+01	3.71758479052E+01	-6.03091942127E+00	-4.74870107868E+01	-3.08513550944E+00	-3.05560531931E+01	1.22224167308E+02
1.22150000000E+07	-1.92681784116E+01	-9.34803322082E+01	3.71783586202E+01	-6.77828763498E+00	-4.75431295335E+01	-4.25444686860E+00	-3.06159983573E+01	1.24535890895E+02
1.24100000000E+07	-1.94877916797E+01	-9.37216282216E+01	3.71779974392E+01	-7.50863477348E+00	-4.75038511593E+01	-4.68476182519E+00	-3.07212486099E+01	1.26797153900E+02
1.26050000000E+07	-1.96969532114E+01	-9.39489131685E+01	3.71820991343E+01	-8.22991974558E+00	-4.74854945528E+01	-5.27311193857E+00	-3.08392357579E+01	1.29559495778E+02
1.28000000000E+07	-1.99370926196E+01	-9.41186892380E+01	3.71801457476E+01	-8.92741501277E+00	-4.74043458257E+01	-5.89651892365E+00	-3.09382958899E+01	1.31793832289E+02
1.29950000000E+07	-2.01582691537E+01	-9.42964073628E+01	3.71841165833E+01	-9.58172269389E+00	-4.74707955583E+01	-6.83234625249E+00	-3.09183105321E+01	1.33436558779E+02
1.31900000000E+07	-2.03687849619E+01	-9.44796157915E+01	3.71867484983E+01	-1.02840994071E+01	-4.74852914617E+01	-8.01657603226E+00	-3.08196541194E+01	1.35375805529E+02
1.33850000000E+07	-2.05847744691E+01	-9.46269225428E+01	3.71900984379E+01	-1.09464174366E+01	-4.74501227861E+01	-8.48921760035E+00	-3.09180514835E+01	1.38206987084E+02
1.35800000000E+07	-2.08055297795E+01	-9.47661615328E+01	3.71925436641E+01	-1.16319526945E+01	-4.74674941365E+01	-8.91621310018E+00	-3.08418988450E+01	1.39093606555E+02
1.37750000000E+07	-2.10319669219E+01	-9.48985065483E+01	3.71941284800E+01	-1.22891530045E+01	-4.74630270677E+01	-9.53072113527E+00	-3.09045346105E+01	1.41247294718E+02
1.39700000000E+07	-2.12518852715E+01	-9.50056438206E+01	3.71936593703E+01	-1.29492124650E+01	-4.75134525605E+01	-1.03517183968E+01	-3.08676536927E+01	1.42939873565E+02
1.41650000000E+07	-2.14632229674E+01	-9.50652729845E+01	3.72010899294E+01	-1.36093253242E+01	-4.74651207955E+01	-1.04844635364E+01	-3.07834063953E+01	1.44565592981E+02
1.43600000000E+07	-2.16941011682E+01	-9.52383102042E+01	3.71959554537E+01	-1.42674805598E+01	-4.75077063302E+01	-1.18087375132E+01	-3.07535492839E+01	1.46461081909E+02
1.45550000000E+07	-2.19127619209E+01	-9.52826402757E+01	3.71989036043E+01	-1.48846716018E+01	-4.74579331162E+01	-1.21593665367E+01	-3.07412262234E+01	1.47584637245E+02
1.47500000000E+07	-2.21456169949E+01	-9.53574710012E+01	3.72000408796E+01	-1.55179770686E+01	-4.74713240187E+01	-1.35695778308E+01	-3.07141989233E+01	1.48663042674E+02
1.49450000000E+07	-2.23682189240E+01	-9.53961553364E+01	3.71986552900E+01	-1.61564530139E+01	-4.74663327955E+01	-1.31520940110E+01	-3.06319566062E+01	1.50638392375E+02
1.51400000000E+07	-2.25936140369E+01	-9.54351113629E+01	3.72006839907E+01	-1.67852784714E+01	-4.74935298197E+01	-1.42764876257E+01	-3.06654224468E+01	1.51393777623E+02
1.53350000000E+07	-2.28154461442E+01	-9.54536033846E+01	3.72026056660E+01	-1.73812387856E+01	-4.74071840626E+01	-1.45065379371E+01	-3.06171328362E+01	1.52967493912E+02
1.55300000000E+07	-2.30418494502E+01	-9.54177415163E+01	3.72040589049E+01	-1.80068370158E+01	-4.74028699585E+01	-1.56402299963E+01	-3.04828553644E+01	1.53612713973E+02
1.57250000000E+07	-2.32667843577E+01	-9.54602608113E+01	3.72034714466E+01	-1.86132808478E+01	-4.74100001789E+01	-1.64194463659E+01	-3.04791290918E+01	1.54889598695E+02
1.59200000000E+07	-2.34953433122E+01	-9.53838827953E+01	3.72038966897E+01	-1.92096444929E+01	-4.74027511944E+01	-1.60181346125E+01	-3.03936984026E+01	1.56209174975E+02
1.61150000000E+07	-2.37209876638E+01	-9.53676459752E+01	3.72029520713E+01	-1.98090399481E+01	-4.74216219480E+01	-1.71493059061E+01	-3.04270083094E+01	1.56837446570E+02
1.63100000000E+07	-2.39587901007E+01	-9.53181786263E+01	3.72041968740E+01	-2.04134110969E+01	-4.73662265362E+01	-1.79014470973E+01	-3.03556128719E+01	1.57985308004E+02
1.65050000000E+07	-2.41923641856E+01	-9.51124369652E+01	3.72033071600E+01	-2.10088676872E+01	-4.74020975361E+01	-1.87195731561E+01	-3.02657968770E+01	1.58798082188E+02
1.67000000000E+07	-2.44382082401E+01	-9.50093388310E+01	3.72023788939E+01	-2.15799542292E+01	-4.73840857959E+01	-1.87010485934E+01	-3.02339042083E+01	1.60038712934E+02
1.68950000000E+07	-2.46514227720E+01	-9.49774481901E+01	3.72013243818E+01	-2.21853917826E+01	-4.73991444797E+01	-1.94471686455E+01	-3.01216832491E+01	1.60487911707E+02
1.70900000000E+07	-2.48891256535E+01	-9.49582235856E+01	3.72055194564E+01	-2.27461193963E+01	-4.73786418304E+01	-1.98619056676E+01	-3.00982599463E+01	1.61877289054E+02
1.72850000000E+07	-2.51478193538E+01	-9.47260729114E+01	3.71987081848E+01	-2.33314063145E+01	-4.73622682528E+01	-2.00207585144E+01	-3.00773607374E+01	1.62408287888E+02
1.74800000000E+07	-2.53644153018E+01	-9.45646501418E+01	3.72050488456E+01	-2.38870495265E+01	-4.73722483470E+01	-2.06580562748E+01	-3.00852632052E+01	1.63067082599E+02
1.76750000000E+07	-2.56207329469E+01	-9.43083732871E+01	3.71998916109E+01	-2.44609406479E+01	-4.73544588211E+01	-2.20204572229E+01	-3.00001454738E+01	1.63736940879E+02
1.78700000000E+07	-2.58459952749E+01	-9.40478745292E+01	3.72002161734E+01	-2.50386912235E+01	-4.73333700822E+01	-2.22283773381E+01	-2.99866809426E+01	1.64697610823E+02
1.80650000000E+07	-2.60852070387E+01	-9.38447719808E+01	3.72026949782E+01	-2.56026260051E+01	-4.73341910816E+01	-2.27842436731E+01	-2.98952755490E+01	1.65319746838E+02
1.82600000000E+07	-2.63471559718E+01	-9.34956193087E+01	3.71982892881E+01	-2.61224111826E+01	-4.73439850000E+01	-2.34199678159E+01	-2.98487699601E+01	1.66130025436E+02
1.84550000000E+07	-2.65988254528E+01	-9.31422155466E+01	3.71986346002E+01	-2.66970332684E+01	-4.73958510211E+01	-2.39032825345E+01	-2.98971878692E+01	1.66675385177E+02
1.86500000000E+07	-2.68345147331E+01	-9.27969026992E+01	3.71989584059E+01	-2.72694266608E+01	-4.73776650917E+01	-2.44694745379E+01	-2.97923294507E+01	1.66710455488E+02
1.88450000000E+07	-2.70945319186E+01	-9.23847869130E+01	3.71973914176E+01	-2.78177785549E+01	-4.73723604476E+01	-2.48194211293E+01	-2.97420847411E+01	1.68040979187E+02
1.90400000000E+07	-2.73533907532E+01	-9.19638192456E+01	3.71960565394E+01	-2.83731813393E+01	-4.74005932857E+01	-2.54843387260E+01	-2.96979835230E+01	1.68522007630E+02
1.92350000000E+07	-2.75968020459E+01	-9.15170892629E+01	3.71952054304E+01	-2.88983559750E+01	-4.73378535370E+01	-2.56290181675E+01	-2.97007896539E+01	1.68454315917E+02
1.94300000000E+07	-2.78709031246E+01	-9.10540527018E+01	3.71951626606E+01	-2.94504364912E+01	-4.73594062626E+01	-2.66167717250E+01	-2.96485194464E+01	1.69565954674E+02
1.96250000000E+07	-2.81281542579E+01	-9.04965162761E+01	3.71879178617E+01	-2.99872455556E+01	-4.73852644166E+01	-2.66791989396E+01	-2.96022220120E+01	1.69810216938E+02
1.98200000000E+07	-2.84012396480E+01	-8.97942687263E+01	3.71922711342E+01	-3.05451584772E+01	-4.73652282148E+01	-2.74380611253E+01	-2.95991965082E+01	1.70822391819E+02
2.00150000000E+07	-2.86715681637E+01	-8.93268360661E+01	3.71896171000E+01	-3.10585997991E+01	-4.73074591241E+01	-2.75422746408E+01	-2.95526064329E+01	1.70952385537E+02
2.02100000000E+07	-2.89395696554E+01	-8.85218666049E+01	3.71885766363E+01	-3.15888031370E+01	-4.73254874371E+01	-2.84164357497E+01	-2.95285989216E+01	1.71378830189E+02
2.04050000000E+07	-2.91819934507E+01	-8.77665054803E+01	3.71874868947E+01	-3.21284552327E+01	-4.72842886464E+01	-2.93092204022E+01	-2.94209617869E+01	1.71970432002E+02
2.06000000000E+07	-2.94868991033E+01	-8.69448157801E+01	3.71887419857E+01	-3.26615483980E+01	-4.73173235813E+01	-3.02846639114E+01	-2.94282790477E+01	1.72245059239E+02
2.07950000000E+07	-2.97157722392E+01	-8.60655383048E+01	3.71847588232E+01	-3.31879035745E+01	-4.73233444350E+01	-3.03823712568E+01	-2.94391609465E+01	1.73026968174E+02
2.09900000000E+07	-2.99919373355E+01	-8.52249460202E+01	3.71848034359E+01	-3.37141045970E+01	-4.73205490126E+01	-3.08149719238E+01	-2.93621872200E+01	1.73719723411E+02
2.11850000000E+07	-3.02666849945E+01	-8.42066391650E+01	3.71816360970E+01	-3.42318480073E+01	-4.72972941771E+01	-3.12877851029E+01	-2.93676005418E+01	1.73783182927E+02
2.13800000000E+07	-3.05238450970E+01	-8.29835602343E+01	3.71810783645E+01	-3.47468190421E+01	-4.73302401494E+01	-3.18748125363E+01	-2.93312247618E+01	1.74322309607E+02
2.15750000000E+07	-3.07920359212E+01	-8.20658382940E+01	3.71800496973E+01	-3.52716368038E+01	-4.73837363470E+01	-3.24209956530E+01	-2.92811139581E+01	1.74878230202E+02
2.17700000000E+07	-3.10753557360E+01	-8.10114482584E+01	3.71784359015E+01	-3.57742759150E+01	-4.73655061669E+01	-3.22155658173E+01	-2.92588533636E+01	1.75393166586E+02
2.19650000000E+07	-3.12948797044E+01	-7.96321942301E+01	3.71770768357E+01	-3.62956244321E+01	-4.73189208127E+01	-3.28529657012E+01	-2.92524192927E+01	1.75668255992E+02
2.21600000000E+07	-3.15765583911E+01	-7.82310050046E+01	3.71714580459E+01	-3.68018305922E+01	-4.72605223128E+01	-3.38693656833E+01	-2.91789572064E+01	1.76347427967E+02
2.23550000000E+07	-3.18314891408E+01	-7.67606662617E+01	3.71719128223E+01	-3.73381591966E+01	-4.73479846440E+01	-3.41772532073E+01	-2.92897936504E+01	1.76439842565E+02
2.25500000000E+07	-3.21050408845E+01	-7.52138220674E+01	3.71716389524E+01	-3.78209932413E+01	-4.73016913463E+01	-3.46649575281E+01	-2.91943353813E+01	1.76480576778E+02
2.27450000000E+07	-3.23039312253E+01	-7.33280500655E+01	3.71688978233E+01	-3.83309624775E+01	-4.73424044577E+01	-3.56802291184E+01	-2.91988888261E+01	1.77256095379E+02
2.29400000000E+07	-3.25673220781E+01	-7.17264825596E+01	3.71657205673E+01	-3.88275301876E+01	-4.73387229096E+01	-3.59744458516E+01	-2.91980622793E+01	1.77626909963E+02
2.31350000000E+07	-3.27907590565E+01	-7.02608311920E+01	3.71648191939E+01	-3.93301286773E+01	-4.72802161731E+01	-3.62089390175E+01	-2.91319682942E+01	1.77656470127E+02
2.33300000000E+07	-3.30314139549E+01	-6.84400415202E+01	3.71615467671E+01	-3.98477145798E+01	-4.72620150797E+01	-3.64318525775E+01	-2.91218435850E+01	1.77975454492E+02
2.35250000000E+07	-3.32080474307E+01	-6.63674137951E+01	3.71599492401E+01	-4.03602423834E+01	-4.72923296352E+01	-3.69360326947E+01	-2.91269284438E+01	1.79220100646E+02
2.37200000000E+07	-3.33815625591E+01	-6.45222206462E+01	3.71605153188E+01	-4.08559075068E+01	-4.72782419237E+01	-3.75392798541E+01	-2.90720043910E+01	1.78850964856E+02
2.39150000000E+07	-3.35554931046E+01	-6.19629906613E+01	3.71582348632E+01	-4.13509365245E+01	-4.73463907223E+01	-3.82254530769E+01	-2.90755652161E+01	1.79811547425E+02
2.41100000000E+07	-3.38159380344E+01	-5.98581091540E+01	3.71558222984E+01	-4.18190061187E+01	-4.72370805147E+01	-3.83200008756E+01	-2.90689592936E+01	1.79883565939E+02
2.43050000000E+07	-3.39064139061E+01	-5.76368377185E+01	3.71534874934E+01	-4.23262581954E+01	-4.73327786928E+01	-3.87961998764E+01	-2.90027374692E+01	-1.79280090751E+02
2.45000000000E+07	-3.40615314882E+01	-5.54613694354E+01	3.71537944953E+01	-4.28212995271E+01	-4.73488376107E+01	-3.91960380986E+01	-2.90091819170E+01	-1.79306332774E+02
2.46950000000E+07	-3.41750012775E+01	-5.26907212708E+01	3.71494681185E+01	-4.33000202638E+01	-4.72829723372E+01	-3.99278248298E+01	-2.89619951949E+01	-1.78622410726E+02
2.48900000000E+07	-3.42826313330E+01	-5.06408196829E+01	3.71475625037E+01	-4.38017414789E+01	-4.72412857989E+01	-4.01069141118E+01	-2.89636688659E+01	-1.78736820850E+02
2.50850000000E+07	-3.42912770226E+01	-4.79434523163E+01	3.71436432657E+01	-4.42892800028E+01	-4.73037636495E+01	-4.12217474183E+01	-2.89397356097E+01	-1.78140446820E+02
2.52800000000E+07	-3.43901000117E+01	-4.56917429677E+01	3.71411726601E+01	-4.47744935082E+01	-4.72596811058E+01	-4.11191344758E+01	-2.89084684236E+01	-1.77692742210E+02
2.54750000000E+07	-3.43976640110E+01	-4.30592599191E+01	3.71395489167E+01	-4.52642108692E+01	-4.73185098319E+01	-4.15603475707E+01	-2.89009698512E+01	-1.77496697291E+02
2.56700000000E+07	-3.44239861934E+01	-4.09462263999E+01	3.71352584661E+01	-4.57445190258E+01	-4.72854424379E+01	-4.18639518178E+01	-2.88802889676E+01	-1.77366229615E+02
2.58650000000E+07	-3.44425450662E+01	-3.81707235905E+01	3.71366011360E+01	-4.62666063919E+01	-4.72324698707E+01	-4.23859494747E+01	-2.88692745272E+01	-1.76811775090E+02
2.60600000000E+07	-3.43798771196E+01	-3.61073334029E+01	3.71297219806E+01	-4.67083870651E+01	-4.72313516415E+01	-4.28258998356E+01	-2.88466025794E+01	-1.76435587745E+02
2.62550000000E+07	-3.43250658976E+01	-3.38483755233E+01	3.71312223927E+01	-4.72381286271E+01	-4.72291330596E+01	-4.31405432399E+01	-2.87859705230E+01	-1.76238303672E+02
2.64500000000E+07	-3.42897064451E+01	-3.15495458188E+01	3.71265252394E+01	-4.76824713667E+01	-4.72187873234E+01	-4.42815578199E+01	-2.88549049892E+01	-1.75737877524E+02
2.66450000000E+07	-3.41612867842E+01	-2.95032172489E+01	3.71251655175E+01	-4.81434341316E+01	-4.73045311113E+01	-4.44999239097E+01	-2.88369416689E+01	-1.75282966299E+02
2.68400000000E+07	-3.41054936189E+01	-2.74196183900E+01	3.71250403366E+01	-4.86395245719E+01	-4.72618079480E+01	-4.48993231694E+01	-2.87269939572E+01	-1.74731173865E+02
2.70350000000E+07	-3.39722641005E+01	-2.57076167343E+01	3.71218615875E+01	-4.91081372764E+01	-4.72517405661E+01	-4.55004869703E+01	-2.87927386981E+01	-1.74587068721E+02
2.72300000000E+07	-3.38649474442E+01	-2.31545885328E+01	3.71207746642E+01	-4.96167168250E+01	-4.72298401678E+01	-4.59676344976E+01	-2.87781247211E+01	-1.74582954168E+02
2.74250000000E+07	-3.37768658740E+01	-2.13815327504E+01	3.71174597691E+01	-5.00642425792E+01	-4.72272418702E+01	-4.60872724392E+01	-2.87652048202E+01	-1.74444999847E+02
2.76200000000E+07	-3.36083548223E+01	-2.00794931445E+01	3.71148706714E+01	-5.05481843605E+01	-4.72101041435E+01	-4.68298168828E+01	-2.87238806258E+01	-1.74243669760E+02
