# Hz S DB R 50
! CMT, M5045, 22160017, 22.4.3/2
! Date: 2/26/2023 21:35:17
! Data: Format (Calibration Info)
! Freq	S11:dB/Ang(F2)	S21:dB/Ang(F2)	S12:dB/Ang(F2)	S22:dB/Ang(F2)
5.00000000000E+06	-9.40242007700E+00	-7.27857774294E+01	3.61541823336E+01	3.78511149891E+01	-4.83792676643E+01	4.03847278507E+01	-1.46691870219E+01	6.83338504398E+01
5.19500000000E+06	-9.75064123287E+00	-7.37065767113E+01	3.62419594694E+01	3.56738789370E+01	-4.83846227597E+01	3.90200287344E+01	-1.53057483124E+01	6.74646977893E+01
5.39000000000E+06	-1.00862466048E+01	-7.45727847965E+01	3.63207222382E+01	3.35990696562E+01	-4.82986038934E+01	3.65552207431E+01	-1.59409497251E+01	6.67326312413E+01
5.58500000000E+06	-1.04208083308E+01	-7.53742223435E+01	3.63870065865E+01	3.16196400765E+01	-4.81429878850E+01	3.42228476253E+01	-1.65724481629E+01	6.60056125082E+01
5.78000000000E+06	-1.07453440109E+01	-7.60907278300E+01	3.64498239650E+01	2.97787621045E+01	-4.80924663744E+01	3.27504619281E+01	-1.71775290320E+01	6.55863580634E+01
5.97500000000E+06	-1.10565836704E+01	-7.67987609619E+01	3.65037968290E+01	2.79648449329E+01	-4.80510150971E+01	3.07338715835E+01	-1.77716719700E+01	6.51472386262E+01
6.17000000000E+06	-1.13656585462E+01	-7.74460256906E+01	3.65509063534E+01	2.63081324707E+01	-4.79989788556E+01	2.95278524577E+01	-1.83626738125E+01	6.49422331119E+01
6.36500000000E+06	-1.16648846337E+01	-7.80755316161E+01	3.65963088294E+01	2.46742828065E+01	-4.79532241066E+01	2.74056404107E+01	-1.89246169236E+01	6.48726266454E+01
6.56000000000E+06	-1.19571805059E+01	-7.86238232287E+01	3.66373977053E+01	2.31187173151E+01	-4.79387206690E+01	2.58197570990E+01	-1.95226758056E+01	6.47900438538E+01
6.75500000000E+06	-1.22480870689E+01	-7.91694494762E+01	3.66758949423E+01	2.16352692378E+01	-4.79160204755E+01	2.46423398234E+01	-2.00862736922E+01	6.49457766663E+01
6.95000000000E+06	-1.25258782920E+01	-7.96431480976E+01	3.67070343670E+01	2.02127006144E+01	-4.78103761444E+01	2.32544516086E+01	-2.06396685781E+01	6.50717028643E+01
7.14500000000E+06	-1.28115332102E+01	-8.01782780506E+01	3.67380511461E+01	1.88354875932E+01	-4.78141048955E+01	2.19731179433E+01	-2.11544667020E+01	6.53951330982E+01
7.34000000000E+06	-1.30779477522E+01	-8.05392783531E+01	3.67668061845E+01	1.75308764539E+01	-4.78075681601E+01	1.99898205469E+01	-2.16887851447E+01	6.57329143020E+01
7.53500000000E+06	-1.33468466040E+01	-8.09597354075E+01	3.67926465611E+01	1.62643662431E+01	-4.77532409017E+01	1.87763804670E+01	-2.22269395439E+01	6.63322926665E+01
7.73000000000E+06	-1.36081803803E+01	-8.13858702142E+01	3.68148130028E+01	1.50293492200E+01	-4.77335996635E+01	1.76527831894E+01	-2.27242820076E+01	6.67480851227E+01
7.92500000000E+06	-1.38691379393E+01	-8.17307135599E+01	3.68385434005E+01	1.38304956704E+01	-4.77360040815E+01	1.65770563267E+01	-2.32230852303E+01	6.73630851178E+01
8.12000000000E+06	-1.41253129720E+01	-8.20772858708E+01	3.68566775391E+01	1.26733956863E+01	-4.76808026567E+01	1.55472063163E+01	-2.36897640989E+01	6.82484561295E+01
8.31500000000E+06	-1.43741878980E+01	-8.23892845256E+01	3.68757448131E+01	1.15575892115E+01	-4.76175438598E+01	1.47030340405E+01	-2.41910480127E+01	6.91620863254E+01
8.51000000000E+06	-1.46250405681E+01	-8.27260605673E+01	3.68938666538E+01	1.04677876274E+01	-4.76681294920E+01	1.36148029669E+01	-2.46643069866E+01	6.99813836345E+01
8.70500000000E+06	-1.48689224466E+01	-8.29920537880E+01	3.69107621652E+01	9.41237443440E+00	-4.75726016315E+01	1.25870831496E+01	-2.50865061490E+01	7.07918383067E+01
8.90000000000E+06	-1.51199089628E+01	-8.32939680111E+01	3.69220982593E+01	8.36418660509E+00	-4.75609660848E+01	1.13013384563E+01	-2.55569679661E+01	7.19697753492E+01
9.09500000000E+06	-1.53678510585E+01	-8.36313278200E+01	3.69327636010E+01	7.35254303013E+00	-4.76263982870E+01	1.01902672089E+01	-2.59766629935E+01	7.30670617202E+01
9.29000000000E+06	-1.55946299291E+01	-8.37953616451E+01	3.69461630964E+01	6.39430675750E+00	-4.76322517001E+01	9.69803267954E+00	-2.63736815552E+01	7.45309206449E+01
9.48500000000E+06	-1.58412331765E+01	-8.40981512390E+01	3.69577443738E+01	5.43058791917E+00	-4.75331305084E+01	8.54704921689E+00	-2.67917619898E+01	7.56433477759E+01
9.68000000000E+06	-1.60764375824E+01	-8.42463557237E+01	3.69691184148E+01	4.51300105401E+00	-4.75497581391E+01	7.67437072956E+00	-2.72264017075E+01	7.69784744910E+01
9.87500000000E+06	-1.63113373481E+01	-8.45082534612E+01	3.69783500380E+01	3.59438066625E+00	-4.76251688883E+01	6.62906863522E+00	-2.75644871554E+01	7.81940283882E+01
1.00700000000E+07	-1.65433683081E+01	-8.46966916341E+01	3.69885648186E+01	2.69514539895E+00	-4.75300238867E+01	5.78306253541E+00	-2.79640217997E+01	7.97627876314E+01
1.02650000000E+07	-1.67752530058E+01	-8.48877136330E+01	3.69991834395E+01	1.82144256232E+00	-4.75108357707E+01	4.82457387374E+00	-2.82532466555E+01	8.16413454619E+01
1.04600000000E+07	-1.70026452325E+01	-8.50775287867E+01	3.70043285960E+01	9.59525413185E-01	-4.75211773280E+01	3.97425399228E+00	-2.86271210984E+01	8.24860980058E+01
1.06550000000E+07	-1.72210059628E+01	-8.52652963115E+01	3.70162753783E+01	1.03150405686E-01	-4.74793215042E+01	3.13606758180E+00	-2.89328069582E+01	8.48921852664E+01
1.08500000000E+07	-1.74491008928E+01	-8.54264523101E+01	3.70240898742E+01	-7.35725906973E-01	-4.74310687932E+01	2.20966668716E+00	-2.93160600199E+01	8.62829185788E+01
1.10450000000E+07	-1.76735669735E+01	-8.55268019979E+01	3.70314118805E+01	-1.56020062583E+00	-4.75194788884E+01	1.39299473375E+00	-2.95119600504E+01	8.79681631545E+01
1.12400000000E+07	-1.78883352645E+01	-8.56622498367E+01	3.70392652110E+01	-2.37596479369E+00	-4.74715343785E+01	3.27714217755E-01	-2.97281684798E+01	9.04730652836E+01
1.14350000000E+07	-1.81150181980E+01	-8.57606985866E+01	3.70389894679E+01	-3.17874169103E+00	-4.74667687323E+01	-1.73356731126E-01	-3.00057685857E+01	9.15678780125E+01
1.16300000000E+07	-1.83234966008E+01	-8.58535116206E+01	3.70509532522E+01	-3.98169612735E+00	-4.74723655535E+01	-7.88323590781E-01	-3.01686347115E+01	9.30180046374E+01
1.18250000000E+07	-1.85391592607E+01	-8.59276448466E+01	3.70532918424E+01	-4.77642123155E+00	-4.74875255975E+01	-1.95621453529E+00	-3.03932620947E+01	9.51887923228E+01
1.20200000000E+07	-1.87539342265E+01	-8.60120542768E+01	3.70580824178E+01	-5.52693214454E+00	-4.74850959411E+01	-2.42256321921E+00	-3.06001895526E+01	9.68642901250E+01
1.22150000000E+07	-1.89524036440E+01	-8.61038400535E+01	3.70612164328E+01	-6.30259355059E+00	-4.73971292546E+01	-3.17435995525E+00	-3.07908653024E+01	9.85273328124E+01
1.24100000000E+07	-1.91700765223E+01	-8.61127433172E+01	3.70638336539E+01	-7.02882924753E+00	-4.74234394217E+01	-4.06139764849E+00	-3.09901715846E+01	9.99952486892E+01
1.26050000000E+07	-1.93912975565E+01	-8.61686891555E+01	3.70663503946E+01	-7.74007172457E+00	-4.74085449913E+01	-4.68822452490E+00	-3.11348413770E+01	1.01559159854E+02
1.28000000000E+07	-1.96064094464E+01	-8.61433452657E+01	3.70738580062E+01	-8.41648107943E+00	-4.74519235507E+01	-5.61944655700E+00	-3.13299267482E+01	1.03229454065E+02
1.29950000000E+07	-1.98087632865E+01	-8.61123421168E+01	3.70744914865E+01	-9.12888344479E+00	-4.73979130806E+01	-6.34328946097E+00	-3.14375348033E+01	1.05115623194E+02
1.31900000000E+07	-2.00246138404E+01	-8.61171720674E+01	3.70799011473E+01	-9.79840925364E+00	-4.74294924399E+01	-6.98864823056E+00	-3.15733600527E+01	1.06421666226E+02
1.33850000000E+07	-2.02312637368E+01	-8.60582573890E+01	3.70850886362E+01	-1.04686550416E+01	-4.74068998506E+01	-7.98865665442E+00	-3.16857489571E+01	1.08327990945E+02
1.35800000000E+07	-2.04487203939E+01	-8.59651480869E+01	3.70849988309E+01	-1.11384943708E+01	-4.74488948312E+01	-8.28255332044E+00	-3.18173990892E+01	1.09382627214E+02
1.37750000000E+07	-2.06579011411E+01	-8.58616250082E+01	3.70885059368E+01	-1.17915968584E+01	-4.74173382013E+01	-8.70913006265E+00	-3.18995800118E+01	1.11144959172E+02
1.39700000000E+07	-2.08657214541E+01	-8.57626229839E+01	3.70921438650E+01	-1.24648655764E+01	-4.73729152674E+01	-9.54233558116E+00	-3.20313521759E+01	1.11983198788E+02
1.41650000000E+07	-2.10845182112E+01	-8.56063195899E+01	3.70972704180E+01	-1.31065789767E+01	-4.74195745057E+01	-1.02345060946E+01	-3.20816470611E+01	1.13861054795E+02
1.43600000000E+07	-2.12910436476E+01	-8.54483415196E+01	3.70979718588E+01	-1.37646237727E+01	-4.74692023677E+01	-1.07806393742E+01	-3.21313360353E+01	1.14833348366E+02
1.45550000000E+07	-2.14984378505E+01	-8.53355125338E+01	3.71004808045E+01	-1.44015565212E+01	-4.73516853809E+01	-1.14700603745E+01	-3.22006870520E+01	1.16558109224E+02
1.47500000000E+07	-2.17010373756E+01	-8.51642970943E+01	3.71031931586E+01	-1.50293712717E+01	-4.73849113397E+01	-1.21949112931E+01	-3.23457235535E+01	1.17400655946E+02
1.49450000000E+07	-2.19183948605E+01	-8.49728767128E+01	3.71061801231E+01	-1.56660364574E+01	-4.73912464306E+01	-1.28961446595E+01	-3.23467360525E+01	1.18418359018E+02
1.51400000000E+07	-2.21208160542E+01	-8.47023251124E+01	3.71078948312E+01	-1.62642050392E+01	-4.73717507827E+01	-1.36606953087E+01	-3.24625493307E+01	1.20008865622E+02
1.53350000000E+07	-2.23355238369E+01	-8.44204789977E+01	3.71077908913E+01	-1.69054949927E+01	-4.74005084783E+01	-1.41428996544E+01	-3.25115158227E+01	1.20671642282E+02
1.55300000000E+07	-2.25422591389E+01	-8.41176310311E+01	3.71128077264E+01	-1.75290194350E+01	-4.74025715546E+01	-1.45207456357E+01	-3.25523382449E+01	1.22367779546E+02
1.57250000000E+07	-2.27544451480E+01	-8.39403468394E+01	3.71142023152E+01	-1.81467046187E+01	-4.73982102078E+01	-1.53629841315E+01	-3.25605873794E+01	1.23322808058E+02
1.59200000000E+07	-2.29510750047E+01	-8.35295478899E+01	3.71163386860E+01	-1.87308521258E+01	-4.74292752451E+01	-1.59323274037E+01	-3.26438842644E+01	1.24272250172E+02
1.61150000000E+07	-2.31601369680E+01	-8.33196322203E+01	3.71184654920E+01	-1.93467906310E+01	-4.73545622958E+01	-1.61536368698E+01	-3.27344221614E+01	1.24669234813E+02
1.63100000000E+07	-2.33722962342E+01	-8.28515281279E+01	3.71180312442E+01	-1.99367188227E+01	-4.73950899745E+01	-1.71417592635E+01	-3.26790979615E+01	1.26228062234E+02
1.65050000000E+07	-2.35660327917E+01	-8.24679876056E+01	3.71190881410E+01	-2.05192135489E+01	-4.73345609762E+01	-1.71065158016E+01	-3.27828262716E+01	1.27075708884E+02
1.67000000000E+07	-2.37693713197E+01	-8.19635634212E+01	3.71239724024E+01	-2.11078957715E+01	-4.73909340949E+01	-1.80732903328E+01	-3.27854293852E+01	1.27376371524E+02
1.68950000000E+07	-2.39783333659E+01	-8.15878074426E+01	3.71234760497E+01	-2.16938858698E+01	-4.74596807110E+01	-1.86028192391E+01	-3.28204244919E+01	1.28235111320E+02
1.70900000000E+07	-2.41782176419E+01	-8.09880481826E+01	3.71253675866E+01	-2.22666298099E+01	-4.73881255554E+01	-1.91966110706E+01	-3.28392875684E+01	1.28901713691E+02
1.72850000000E+07	-2.43728080461E+01	-8.04588973770E+01	3.71240786166E+01	-2.28538011885E+01	-4.73973484791E+01	-2.00637819324E+01	-3.28792416514E+01	1.29504759706E+02
1.74800000000E+07	-2.45697625744E+01	-8.00261606734E+01	3.71265288234E+01	-2.34263768373E+01	-4.73677665511E+01	-2.05611518346E+01	-3.29286453976E+01	1.30303336291E+02
1.76750000000E+07	-2.47793976305E+01	-7.94422204299E+01	3.71291171430E+01	-2.39761447486E+01	-4.73823928619E+01	-2.11444003579E+01	-3.29866766471E+01	1.31345215467E+02
1.78700000000E+07	-2.49668734442E+01	-7.88325681096E+01	3.71309795334E+01	-2.45697416910E+01	-4.73958096024E+01	-2.13320458045E+01	-3.31027494946E+01	1.31531445960E+02
1.80650000000E+07	-2.51705197427E+01	-7.80959673594E+01	3.71318469785E+01	-2.51115664917E+01	-4.73771304562E+01	-2.18122505799E+01	-3.30787454186E+01	1.32705872239E+02
1.82600000000E+07	-2.53676595158E+01	-7.75844405082E+01	3.71320484476E+01	-2.56776369515E+01	-4.73991513535E+01	-2.22974388728E+01	-3.31360438017E+01	1.33607408064E+02
1.84550000000E+07	-2.55699149165E+01	-7.68442602830E+01	3.71309119592E+01	-2.62407699243E+01	-4.74060503250E+01	-2.30604553694E+01	-3.31447896374E+01	1.34207786792E+02
1.86500000000E+07	-2.57438224427E+01	-7.60735838188E+01	3.71317455159E+01	-2.68033047317E+01	-4.73531903831E+01	-2.34907880073E+01	-3.32017964416E+01	1.34507602980E+02
1.88450000000E+07	-2.59366053449E+01	-7.54024395522E+01	3.71332201321E+01	-2.73453368854E+01	-4.73896146824E+01	-2.42195613925E+01	-3.32475809156E+01	1.35215444036E+02
1.90400000000E+07	-2.61181743951E+01	-7.44729864474E+01	3.71329615584E+01	-2.79020894139E+01	-4.73719235798E+01	-2.46971877636E+01	-3.32773977810E+01	1.35177018816E+02
1.92350000000E+07	-2.62918759729E+01	-7.36939216672E+01	3.71337403276E+01	-2.84361710322E+01	-4.73998373299E+01	-2.49758156044E+01	-3.33380983867E+01	1.36152290303E+02
1.94300000000E+07	-2.64769701267E+01	-7.28868484709E+01	3.71351326528E+01	-2.89708177410E+01	-4.73832103791E+01	-2.60899802077E+01	-3.33095071019E+01	1.36709955097E+02
1.96250000000E+07	-2.66621807981E+01	-7.19839434389E+01	3.71370585705E+01	-2.95257776404E+01	-4.73852242976E+01	-2.64457584578E+01	-3.34239501791E+01	1.37072011434E+02
1.98200000000E+07	-2.68222299472E+01	-7.09922226766E+01	3.71353538051E+01	-3.00706843525E+01	-4.74135136247E+01	-2.68039202981E+01	-3.34563059774E+01	1.37379390966E+02
2.00150000000E+07	-2.69958670286E+01	-7.00188953353E+01	3.71356346478E+01	-3.06015552254E+01	-4.74302687291E+01	-2.74533046198E+01	-3.35245779441E+01	1.37777686821E+02
2.02100000000E+07	-2.71593051491E+01	-6.89823423662E+01	3.71380236669E+01	-3.11252933881E+01	-4.74070393910E+01	-2.75745103607E+01	-3.35400652496E+01	1.38239407370E+02
2.04050000000E+07	-2.73435894955E+01	-6.79162130351E+01	3.71369372278E+01	-3.16677391389E+01	-4.73548815292E+01	-2.82233764588E+01	-3.35907477044E+01	1.39442945341E+02
2.06000000000E+07	-2.74971781423E+01	-6.69106353191E+01	3.71377965164E+01	-3.21974681159E+01	-4.73895922614E+01	-2.90760138849E+01	-3.36344717857E+01	1.39477123835E+02
2.07950000000E+07	-2.76250634821E+01	-6.57319499539E+01	3.71383131763E+01	-3.27178950359E+01	-4.73677777869E+01	-2.92793676584E+01	-3.37040668681E+01	1.39962956596E+02
2.09900000000E+07	-2.77878757194E+01	-6.46340715479E+01	3.71408471757E+01	-3.32359653620E+01	-4.73440225739E+01	-3.00267909055E+01	-3.37368410489E+01	1.40356388630E+02
2.11850000000E+07	-2.79044284660E+01	-6.34399434629E+01	3.71375828561E+01	-3.37745599885E+01	-4.73617800843E+01	-3.04106394714E+01	-3.38656400040E+01	1.41044024012E+02
2.13800000000E+07	-2.80161967919E+01	-6.23374857120E+01	3.71414227782E+01	-3.42885008655E+01	-4.73745283742E+01	-3.07521479589E+01	-3.37641592119E+01	1.40874440360E+02
2.15750000000E+07	-2.81518607286E+01	-6.11905552414E+01	3.71349367706E+01	-3.48238361626E+01	-4.73527276757E+01	-3.10867538623E+01	-3.39629662129E+01	1.41864901242E+02
2.17700000000E+07	-2.83045190958E+01	-5.98575950237E+01	3.71367335935E+01	-3.53299962283E+01	-4.73634845531E+01	-3.18334021453E+01	-3.39449993024E+01	1.42285494088E+02
2.19650000000E+07	-2.83833597798E+01	-5.85449735802E+01	3.71382970414E+01	-3.58482813554E+01	-4.73476901100E+01	-3.24847771896E+01	-3.40300130073E+01	1.42783079631E+02
2.21600000000E+07	-2.84730317560E+01	-5.72124400664E+01	3.71393246484E+01	-3.63555445997E+01	-4.74085835706E+01	-3.30737374339E+01	-3.40846303291E+01	1.42573061225E+02
2.23550000000E+07	-2.85484930020E+01	-5.58962546964E+01	3.71402387470E+01	-3.68801928007E+01	-4.74591920022E+01	-3.32535141591E+01	-3.41089819785E+01	1.43341202883E+02
2.25500000000E+07	-2.86641408985E+01	-5.47024136547E+01	3.71366320707E+01	-3.73625192137E+01	-4.74500058116E+01	-3.38042280824E+01	-3.42598920425E+01	1.44130114344E+02
2.27450000000E+07	-2.87450068180E+01	-5.33124295439E+01	3.71393185325E+01	-3.79030651499E+01	-4.74070064769E+01	-3.40925324462E+01	-3.43396333276E+01	1.44871776794E+02
2.29400000000E+07	-2.88270551044E+01	-5.19306812165E+01	3.71396486901E+01	-3.84012399603E+01	-4.73677039867E+01	-3.47043863959E+01	-3.43737269198E+01	1.45006406449E+02
2.31350000000E+07	-2.88731695699E+01	-5.05186442288E+01	3.71349093431E+01	-3.89125836622E+01	-4.73728028104E+01	-3.52027834707E+01	-3.44144159984E+01	1.45515707439E+02
2.33300000000E+07	-2.89152384158E+01	-4.92005823560E+01	3.71369184041E+01	-3.94183370073E+01	-4.73761795385E+01	-3.57960888522E+01	-3.44864799635E+01	1.45896689281E+02
2.35250000000E+07	-2.89584833747E+01	-4.79029600604E+01	3.71403843092E+01	-3.99220349567E+01	-4.74478229577E+01	-3.59757369199E+01	-3.46536389243E+01	1.46082033134E+02
2.37200000000E+07	-2.89923715944E+01	-4.66194219792E+01	3.71380404192E+01	-4.04340806921E+01	-4.73984755668E+01	-3.70588885496E+01	-3.47718234134E+01	1.46244761692E+02
2.39150000000E+07	-2.90420969954E+01	-4.51053745530E+01	3.71374196150E+01	-4.09274148305E+01	-4.73790607985E+01	-3.75492773139E+01	-3.48596515347E+01	1.46865998202E+02
2.41100000000E+07	-2.90579881887E+01	-4.38888410061E+01	3.71354618083E+01	-4.14082449713E+01	-4.74409598599E+01	-3.74100471000E+01	-3.48270015301E+01	1.48321153964E+02
2.43050000000E+07	-2.90770296041E+01	-4.25663710288E+01	3.71361134315E+01	-4.19240402357E+01	-4.73787907909E+01	-3.81529217271E+01	-3.49094057241E+01	1.47827618797E+02
2.45000000000E+07	-2.90868859157E+01	-4.12861129276E+01	3.71347265033E+01	-4.24210743535E+01	-4.73924797828E+01	-3.85660933084E+01	-3.50793203944E+01	1.48300624511E+02
2.46950000000E+07	-2.90636205603E+01	-4.01246501202E+01	3.71372511843E+01	-4.29241400366E+01	-4.73822778347E+01	-3.89870434470E+01	-3.51230161310E+01	1.49747531501E+02
2.48900000000E+07	-2.90412313042E+01	-3.88309899097E+01	3.71357827917E+01	-4.34093402639E+01	-4.74287347829E+01	-3.95690937897E+01	-3.52148745495E+01	1.49677534469E+02
2.50850000000E+07	-2.90158559137E+01	-3.75003037874E+01	3.71343014880E+01	-4.38878709280E+01	-4.74098065359E+01	-3.98439168259E+01	-3.52488085211E+01	1.50578121255E+02
2.52800000000E+07	-2.90313990231E+01	-3.63733180879E+01	3.71363550472E+01	-4.44085115365E+01	-4.73932100312E+01	-4.05917490051E+01	-3.52731128888E+01	1.50435142808E+02
2.54750000000E+07	-2.89886062320E+01	-3.51122806097E+01	3.71356793693E+01	-4.48743105788E+01	-4.74227047509E+01	-4.09678919596E+01	-3.55039686730E+01	1.51611928432E+02
2.56700000000E+07	-2.89734889940E+01	-3.39157740489E+01	3.71352002314E+01	-4.53887076970E+01	-4.73613053144E+01	-4.12568835955E+01	-3.55258807120E+01	1.52146071609E+02
2.58650000000E+07	-2.89317801133E+01	-3.27896055830E+01	3.71340828586E+01	-4.58619131192E+01	-4.73489673899E+01	-4.15934094852E+01	-3.55863856545E+01	1.52377937832E+02
2.60600000000E+07	-2.88709914365E+01	-3.16086910586E+01	3.71334103786E+01	-4.63161878989E+01	-4.73517707634E+01	-4.22491296202E+01	-3.57368967935E+01	1.53160897385E+02
2.62550000000E+07	-2.88318856460E+01	-3.05791681347E+01	3.71352975615E+01	-4.68393448191E+01	-4.73353014111E+01	-4.24519545896E+01	-3.56933854728E+01	1.53613077505E+02
2.64500000000E+07	-2.87631984655E+01	-2.96907412249E+01	3.71369734445E+01	-4.73066203250E+01	-4.74262487666E+01	-4.30680268580E+01	-3.59432252644E+01	1.54391343865E+02
2.66450000000E+07	-2.86983513379E+01	-2.86770333322E+01	3.71305131045E+01	-4.78067774379E+01	-4.74206951671E+01	-4.36498454981E+01	-3.59959224379E+01	1.55178692429E+02
2.68400000000E+07	-2.86301967934E+01	-2.77938080689E+01	3.71322591309E+01	-4.83057154452E+01	-4.74493786762E+01	-4.42942443915E+01	-3.60729377016E+01	1.55304908574E+02
2.70350000000E+07	-2.85725355403E+01	-2.68406944939E+01	3.71339309765E+01	-4.87529664365E+01	-4.74044272869E+01	-4.43404513943E+01	-3.60850878021E+01	1.55605900990E+02
2.72300000000E+07	-2.85033527739E+01	-2.58322091026E+01	3.71312877771E+01	-4.92531537020E+01	-4.74195033852E+01	-4.49798127503E+01	-3.62979699296E+01	1.55982074749E+02
2.74250000000E+07	-2.84384890025E+01	-2.49788911394E+01	3.71319880371E+01	-4.97482246694E+01	-4.74165326991E+01	-4.53211889864E+01	-3.63790632741E+01	1.57924468521E+02
2.76200000000E+07	-2.83417902232E+01	-2.42171658675E+01	3.71312795064E+01	-5.02007435517E+01	-4.73829955841E+01	-4.60594673034E+01	-3.64523082314E+01	1.58712511857E+02
