# Hz S DB R 50
! CMT, M5045, 22160017, 22.3.3/2
! Date: 10/8/2022 16:51:12
! Data: Format (Calibration Info)
! Freq	S11:dB/Ang(F2)	S21:dB/Ang(F2)	S12:dB/Ang(F2)	S22:dB/Ang(F2)
5.00000000000E+06	-9.63684733293E+00	-8.79493544848E+01	3.61620642307E+01	-1.48260823193E+02	-4.84174106446E+01	-1.45575751997E+02	-1.37733875449E+01	6.21050407860E+01
5.19500000000E+06	-9.97252243404E+00	-8.94280047758E+01	3.62443166195E+01	-1.50581651620E+02	-4.83269524310E+01	-1.47863897705E+02	-1.43186615083E+01	6.06368253533E+01
5.39000000000E+06	-1.02997693484E+01	-9.08171054560E+01	3.63160839554E+01	-1.52790588234E+02	-4.82548997078E+01	-1.50114269100E+02	-1.48513856956E+01	5.92791701545E+01
5.58500000000E+06	-1.06273583744E+01	-9.21877576351E+01	3.63790331819E+01	-1.54915785787E+02	-4.81858827094E+01	-1.52224043128E+02	-1.53703536184E+01	5.80200859156E+01
5.78000000000E+06	-1.09306728539E+01	-9.34821554900E+01	3.64381558681E+01	-1.56900333229E+02	-4.81281358748E+01	-1.54219197401E+02	-1.58776020998E+01	5.68238209169E+01
5.97500000000E+06	-1.12305579861E+01	-9.47356079076E+01	3.64842828987E+01	-1.58831521819E+02	-4.80720753233E+01	-1.56140445794E+02	-1.63721983281E+01	5.57037408308E+01
6.17000000000E+06	-1.15205994158E+01	-9.59827279094E+01	3.65340211748E+01	-1.60670590774E+02	-4.80176375716E+01	-1.58021581540E+02	-1.68542591741E+01	5.46559467000E+01
6.36500000000E+06	-1.18102355209E+01	-9.71220599992E+01	3.65728920922E+01	-1.62414235813E+02	-4.79792828564E+01	-1.59789356950E+02	-1.73268556557E+01	5.36598677077E+01
6.56000000000E+06	-1.20866735458E+01	-9.83041933406E+01	3.66116205902E+01	-1.64129551999E+02	-4.79313527114E+01	-1.61487737287E+02	-1.77895765861E+01	5.27138624790E+01
6.75500000000E+06	-1.23517253722E+01	-9.93702428551E+01	3.66449771439E+01	-1.65755505544E+02	-4.78930383557E+01	-1.63110003173E+02	-1.82410659935E+01	5.18135083765E+01
6.95000000000E+06	-1.26281307691E+01	-1.00448002123E+02	3.66709763230E+01	-1.67313210580E+02	-4.78587386096E+01	-1.64653460363E+02	-1.86845864619E+01	5.09516272502E+01
7.14500000000E+06	-1.28794499759E+01	-1.01558815992E+02	3.67027636984E+01	-1.68855337138E+02	-4.78275409703E+01	-1.66185577953E+02	-1.91214769604E+01	5.01372269711E+01
7.34000000000E+06	-1.31375895003E+01	-1.02555124011E+02	3.67281939505E+01	-1.70331641259E+02	-4.78044421665E+01	-1.67648028139E+02	-1.95484147003E+01	4.93445242600E+01
7.53500000000E+06	-1.33805152271E+01	-1.03601232972E+02	3.67508282819E+01	-1.71742292542E+02	-4.77740884082E+01	-1.69052150027E+02	-1.99703901682E+01	4.85877701966E+01
7.73000000000E+06	-1.36236673081E+01	-1.04559757008E+02	3.67703221644E+01	-1.73133639543E+02	-4.77479392753E+01	-1.70427469070E+02	-2.03819465003E+01	4.78471774030E+01
7.92500000000E+06	-1.38563131084E+01	-1.05566455222E+02	3.67930321990E+01	-1.74498154944E+02	-4.77189416712E+01	-1.71800814556E+02	-2.07903659616E+01	4.71316162926E+01
8.12000000000E+06	-1.40940668926E+01	-1.06511640668E+02	3.68084241541E+01	-1.75790439958E+02	-4.76998726918E+01	-1.73089240918E+02	-2.11928180850E+01	4.64760169581E+01
8.31500000000E+06	-1.43205877710E+01	-1.07470899072E+02	3.68270491115E+01	-1.77058969138E+02	-4.76820722298E+01	-1.74374591879E+02	-2.15882486650E+01	4.57965702534E+01
8.51000000000E+06	-1.45419368782E+01	-1.08439921937E+02	3.68410878663E+01	-1.78310394212E+02	-4.76614224744E+01	-1.75592262852E+02	-2.19831254020E+01	4.51350565541E+01
8.70500000000E+06	-1.47667174333E+01	-1.09360564840E+02	3.68546047045E+01	-1.79533262208E+02	-4.76469017896E+01	-1.76783445228E+02	-2.23705732392E+01	4.44980316389E+01
8.90000000000E+06	-1.49875767182E+01	-1.10237333514E+02	3.68668613531E+01	1.79285717696E+02	-4.76367751930E+01	-1.77991037113E+02	-2.27528541141E+01	4.38939208349E+01
9.09500000000E+06	-1.51984261046E+01	-1.11169815114E+02	3.68788886540E+01	1.78121864612E+02	-4.76189856117E+01	-1.79124351409E+02	-2.31312034785E+01	4.32654891962E+01
9.29000000000E+06	-1.54137783263E+01	-1.12071955537E+02	3.68895205569E+01	1.76985949124E+02	-4.76060283894E+01	1.79752431754E+02	-2.35073477156E+01	4.26542341128E+01
9.48500000000E+06	-1.56194166912E+01	-1.12961020327E+02	3.68979665028E+01	1.75855346246E+02	-4.75911857732E+01	1.78615023292E+02	-2.38770913148E+01	4.20490327606E+01
9.68000000000E+06	-1.58296565709E+01	-1.13851186014E+02	3.69091475748E+01	1.74766691435E+02	-4.75837418252E+01	1.77559350466E+02	-2.42489047132E+01	4.14823667490E+01
9.87500000000E+06	-1.60325251134E+01	-1.14778991943E+02	3.69179161886E+01	1.73666332370E+02	-4.75764768935E+01	1.76472276982E+02	-2.46130788609E+01	4.08843672257E+01
1.00700000000E+07	-1.62329291188E+01	-1.15619161200E+02	3.69202537736E+01	1.72632205488E+02	-4.75606877484E+01	1.75423810888E+02	-2.49925581275E+01	4.01897086647E+01
1.02650000000E+07	-1.64363939890E+01	-1.16552702350E+02	3.69301680312E+01	1.71597195383E+02	-4.75607047138E+01	1.74363251034E+02	-2.53714231403E+01	3.96888190264E+01
1.04600000000E+07	-1.66372411094E+01	-1.17342613226E+02	3.69412306327E+01	1.70590405741E+02	-4.75486357692E+01	1.73349873832E+02	-2.57380866758E+01	3.90965624270E+01
1.06550000000E+07	-1.68302438727E+01	-1.18264600349E+02	3.69457812284E+01	1.69575639313E+02	-4.75436112189E+01	1.72346874105E+02	-2.61063256547E+01	3.84865716564E+01
1.08500000000E+07	-1.70324812827E+01	-1.19127751467E+02	3.69504321898E+01	1.68567283987E+02	-4.75316042287E+01	1.71393670661E+02	-2.64817865626E+01	3.79258011041E+01
1.10450000000E+07	-1.72279027160E+01	-1.19906169667E+02	3.69568178933E+01	1.67603406358E+02	-4.75332069417E+01	1.70414697481E+02	-2.68513185874E+01	3.74018252033E+01
1.12400000000E+07	-1.74112288920E+01	-1.20772631456E+02	3.69646038444E+01	1.66619538416E+02	-4.75221258896E+01	1.69422313480E+02	-2.72270192737E+01	3.69125544530E+01
1.14350000000E+07	-1.76009269655E+01	-1.21596261955E+02	3.69677320693E+01	1.65666588902E+02	-4.75095935885E+01	1.68442523647E+02	-2.75975235618E+01	3.64423974950E+01
1.16300000000E+07	-1.77875227908E+01	-1.22424443784E+02	3.69718591369E+01	1.64727163723E+02	-4.75058640815E+01	1.67446358899E+02	-2.79603299959E+01	3.59232565604E+01
1.18250000000E+07	-1.79704259959E+01	-1.23261814124E+02	3.69763888458E+01	1.63776391908E+02	-4.74933967130E+01	1.66523907797E+02	-2.83179866336E+01	3.54242110437E+01
1.20200000000E+07	-1.81560594403E+01	-1.24064388491E+02	3.69758340871E+01	1.62851926175E+02	-4.74890389062E+01	1.65556637556E+02	-2.86856829060E+01	3.49055546335E+01
1.22150000000E+07	-1.83355389430E+01	-1.24911046530E+02	3.69820932257E+01	1.61911604205E+02	-4.74821659757E+01	1.64633951966E+02	-2.90400288763E+01	3.43692871771E+01
1.24100000000E+07	-1.85212245555E+01	-1.25745432181E+02	3.69872382369E+01	1.61018503856E+02	-4.74832948517E+01	1.63693142642E+02	-2.94148698628E+01	3.37937724621E+01
1.26050000000E+07	-1.86969961459E+01	-1.26586536933E+02	3.69896222015E+01	1.60097033479E+02	-4.74809862349E+01	1.62814264273E+02	-2.97813752287E+01	3.32546134475E+01
1.28000000000E+07	-1.88785532936E+01	-1.27371775689E+02	3.69901236317E+01	1.59266087865E+02	-4.74738193439E+01	1.61880299275E+02	-3.01474722144E+01	3.27037086172E+01
1.29950000000E+07	-1.90643246413E+01	-1.28197524610E+02	3.69908187009E+01	1.58398647436E+02	-4.74720761471E+01	1.61030162141E+02	-3.05275777795E+01	3.21527578949E+01
1.31900000000E+07	-1.92361823287E+01	-1.28974483135E+02	3.69916353121E+01	1.57558521217E+02	-4.74700202142E+01	1.60149250913E+02	-3.09082118032E+01	3.15591982981E+01
1.33850000000E+07	-1.94127115620E+01	-1.29756141587E+02	3.69989960018E+01	1.56738059990E+02	-4.74657295957E+01	1.59334800701E+02	-3.12860684110E+01	3.10063936067E+01
1.35800000000E+07	-1.95906924912E+01	-1.30572759684E+02	3.70001000319E+01	1.55863128570E+02	-4.74647511609E+01	1.58461465905E+02	-3.16847756047E+01	3.04630179095E+01
1.37750000000E+07	-1.97598200333E+01	-1.31311874269E+02	3.70090343637E+01	1.55052457595E+02	-4.74650994925E+01	1.57609858907E+02	-3.20691556576E+01	2.98876457712E+01
1.39700000000E+07	-1.99295852465E+01	-1.32028881223E+02	3.70107869148E+01	1.54248648926E+02	-4.74616248667E+01	1.56792846046E+02	-3.24697308324E+01	2.93445102507E+01
1.41650000000E+07	-2.01132265167E+01	-1.32785869091E+02	3.70069983948E+01	1.53411695341E+02	-4.74643886073E+01	1.55955394140E+02	-3.28756814797E+01	2.87528565006E+01
1.43600000000E+07	-2.02868164122E+01	-1.33559874152E+02	3.70110898289E+01	1.52584875092E+02	-4.74544198766E+01	1.55176889821E+02	-3.32833448463E+01	2.81770831361E+01
1.45550000000E+07	-2.04626460540E+01	-1.34336658637E+02	3.70128479747E+01	1.51784984325E+02	-4.74564350581E+01	1.54357054263E+02	-3.37048762513E+01	2.75108729718E+01
1.47500000000E+07	-2.06249484001E+01	-1.35003016073E+02	3.70154643749E+01	1.50996159078E+02	-4.74506172516E+01	1.53591306067E+02	-3.41276466160E+01	2.69112697162E+01
1.49450000000E+07	-2.08108511313E+01	-1.35728423712E+02	3.70166718789E+01	1.50188348541E+02	-4.74529948590E+01	1.52785490300E+02	-3.45611718708E+01	2.62364761490E+01
1.51400000000E+07	-2.09733444817E+01	-1.36468067457E+02	3.70208153757E+01	1.49393150536E+02	-4.74450851422E+01	1.51997855580E+02	-3.50021161040E+01	2.56113680288E+01
1.53350000000E+07	-2.11393566535E+01	-1.37091125042E+02	3.70211458442E+01	1.48631191729E+02	-4.74467934749E+01	1.51210057484E+02	-3.54709945496E+01	2.49285863646E+01
1.55300000000E+07	-2.13063312514E+01	-1.37899268158E+02	3.70182119539E+01	1.47848499962E+02	-4.74467200544E+01	1.50442189003E+02	-3.59204017684E+01	2.41477868951E+01
1.57250000000E+07	-2.14784628114E+01	-1.38647450905E+02	3.70251926274E+01	1.47056836577E+02	-4.74426334590E+01	1.49689481865E+02	-3.64036855467E+01	2.34359605815E+01
1.59200000000E+07	-2.16554465829E+01	-1.39370261835E+02	3.70232205749E+01	1.46296371440E+02	-4.74418907312E+01	1.48894998187E+02	-3.69030935709E+01	2.26254825676E+01
1.61150000000E+07	-2.18073061940E+01	-1.39958740301E+02	3.70255824581E+01	1.45515787615E+02	-4.74426590849E+01	1.48190230046E+02	-3.74027692763E+01	2.18826197750E+01
1.63100000000E+07	-2.19798710511E+01	-1.40554855361E+02	3.70292715055E+01	1.44770432415E+02	-4.74424305791E+01	1.47448303638E+02	-3.79204568394E+01	2.08822811197E+01
1.65050000000E+07	-2.21398429812E+01	-1.41347768972E+02	3.70307830619E+01	1.43984931679E+02	-4.74388291841E+01	1.46672699500E+02	-3.84877958969E+01	1.99190630829E+01
1.67000000000E+07	-2.23231713929E+01	-1.42044133668E+02	3.70350257223E+01	1.43261991219E+02	-4.74392625156E+01	1.45926133989E+02	-3.90782311817E+01	1.90202016657E+01
1.68950000000E+07	-2.24919841326E+01	-1.42560081729E+02	3.70339718200E+01	1.42502137966E+02	-4.74381320882E+01	1.45218998332E+02	-3.96934720591E+01	1.78548132382E+01
1.70900000000E+07	-2.26526025210E+01	-1.43346778205E+02	3.70352367119E+01	1.41752772126E+02	-4.74357789520E+01	1.44489799963E+02	-4.03117446902E+01	1.67297696028E+01
1.72850000000E+07	-2.28117860499E+01	-1.44004251775E+02	3.70357044810E+01	1.41000684073E+02	-4.74362244762E+01	1.43725275476E+02	-4.09581419593E+01	1.55910432724E+01
1.74800000000E+07	-2.29795072424E+01	-1.44635111249E+02	3.70354639262E+01	1.40265134006E+02	-4.74308903024E+01	1.43021337917E+02	-4.16605555488E+01	1.41631332414E+01
1.76750000000E+07	-2.31681337010E+01	-1.45256802971E+02	3.70376576277E+01	1.39536012268E+02	-4.74317751788E+01	1.42276341463E+02	-4.23691844173E+01	1.26855146439E+01
1.78700000000E+07	-2.33271475537E+01	-1.45811553714E+02	3.70369158033E+01	1.38783372600E+02	-4.74367051187E+01	1.41583095815E+02	-4.31343903163E+01	1.10474707745E+01
1.80650000000E+07	-2.34892616738E+01	-1.46433284965E+02	3.70369385150E+01	1.38054049384E+02	-4.74336039104E+01	1.40866294875E+02	-4.39718221921E+01	9.07981370158E+00
1.82600000000E+07	-2.36591220212E+01	-1.47149089097E+02	3.70370305186E+01	1.37333250297E+02	-4.74310062063E+01	1.40166959253E+02	-4.48769596352E+01	6.87922324370E+00
1.84550000000E+07	-2.38403058244E+01	-1.47719231653E+02	3.70366106292E+01	1.36613298160E+02	-4.74300778343E+01	1.39430168755E+02	-4.58027261049E+01	4.06869940605E+00
1.86500000000E+07	-2.39929056625E+01	-1.48297389786E+02	3.70405772451E+01	1.35880722298E+02	-4.74301240025E+01	1.38722115780E+02	-4.68011374639E+01	1.05196653498E+00
1.88450000000E+07	-2.41478521779E+01	-1.48863545658E+02	3.70443039437E+01	1.35153227087E+02	-4.74292536709E+01	1.38038926127E+02	-4.79688591875E+01	-3.15203774482E+00
1.90400000000E+07	-2.43246603172E+01	-1.49525159176E+02	3.70464847609E+01	1.34470309486E+02	-4.74296355404E+01	1.37325659581E+02	-4.91117148094E+01	-8.08493103849E+00
1.92350000000E+07	-2.44801193988E+01	-1.50153066978E+02	3.70469905988E+01	1.33730588658E+02	-4.74303680568E+01	1.36659057968E+02	-5.04945802167E+01	-1.45727946657E+01
1.94300000000E+07	-2.46551414455E+01	-1.50759442665E+02	3.70466544959E+01	1.33018463887E+02	-4.74275494774E+01	1.35956226024E+02	-5.17944587109E+01	-2.28248913626E+01
1.96250000000E+07	-2.48141465230E+01	-1.51303693164E+02	3.70428749975E+01	1.32305389190E+02	-4.74235304469E+01	1.35283822881E+02	-5.30421777471E+01	-3.43444352903E+01
1.98200000000E+07	-2.49827793281E+01	-1.51874090868E+02	3.70476839568E+01	1.31588024836E+02	-4.74237559589E+01	1.34573434980E+02	-5.40507402775E+01	-4.79544503679E+01
2.00150000000E+07	-2.51521520179E+01	-1.52379907382E+02	3.70480286666E+01	1.30883092747E+02	-4.74256695514E+01	1.33874731773E+02	-5.45436898998E+01	-6.50658670254E+01
2.02100000000E+07	-2.53251763803E+01	-1.53185254976E+02	3.70496391773E+01	1.30169997642E+02	-4.74221011668E+01	1.33193303103E+02	-5.42795003516E+01	-8.15719958012E+01
2.04050000000E+07	-2.54651309109E+01	-1.53668318068E+02	3.70499893320E+01	1.29486515196E+02	-4.74255754738E+01	1.32522808852E+02	-5.34861379015E+01	-9.60719480035E+01
2.06000000000E+07	-2.56667138052E+01	-1.54037831647E+02	3.70482248806E+01	1.28757263975E+02	-4.74228278631E+01	1.31841370027E+02	-5.23544813028E+01	-1.07358462977E+02
2.07950000000E+07	-2.58307661242E+01	-1.54708434644E+02	3.70494641473E+01	1.28062430391E+02	-4.74233713425E+01	1.31152972114E+02	-5.10935650323E+01	-1.16534881443E+02
2.09900000000E+07	-2.59849499290E+01	-1.55248602927E+02	3.70481948575E+01	1.27380696663E+02	-4.74268050545E+01	1.30459928178E+02	-4.99126392947E+01	-1.22968920524E+02
2.11850000000E+07	-2.61431908121E+01	-1.55590787257E+02	3.70532379403E+01	1.26679895838E+02	-4.74224249475E+01	1.29828731995E+02	-4.88432732988E+01	-1.27929288839E+02
2.13800000000E+07	-2.63265972289E+01	-1.56070344297E+02	3.70504602215E+01	1.25993549703E+02	-4.74230844091E+01	1.29159609269E+02	-4.79024776964E+01	-1.32341101865E+02
2.15750000000E+07	-2.64833051251E+01	-1.56650033395E+02	3.70503749902E+01	1.25271960618E+02	-4.74197793153E+01	1.28501398316E+02	-4.70317792454E+01	-1.35665639180E+02
2.17700000000E+07	-2.66666973232E+01	-1.57265968992E+02	3.70554367368E+01	1.24587270512E+02	-4.74205687104E+01	1.27819642832E+02	-4.62019290472E+01	-1.38444179789E+02
2.19650000000E+07	-2.68255354639E+01	-1.57912853850E+02	3.70531026211E+01	1.23930920499E+02	-4.74194825498E+01	1.27145162865E+02	-4.54532090439E+01	-1.40944520883E+02
2.21600000000E+07	-2.70072354890E+01	-1.58005893951E+02	3.70521636422E+01	1.23232763593E+02	-4.74188878507E+01	1.26467103392E+02	-4.47867975301E+01	-1.42782691573E+02
2.23550000000E+07	-2.71737350211E+01	-1.58719874729E+02	3.70529331497E+01	1.22552140900E+02	-4.74197314763E+01	1.25771736708E+02	-4.41367661167E+01	-1.44579596015E+02
2.25500000000E+07	-2.73657125264E+01	-1.59044521857E+02	3.70523153946E+01	1.21859333871E+02	-4.74214436342E+01	1.25147404257E+02	-4.35658716541E+01	-1.46310695851E+02
2.27450000000E+07	-2.75298974027E+01	-1.59704425413E+02	3.70507582939E+01	1.21179269998E+02	-4.74217151543E+01	1.24510723291E+02	-4.30006339566E+01	-1.47703007699E+02
2.29400000000E+07	-2.76791799271E+01	-1.60300614611E+02	3.70509728708E+01	1.20498082888E+02	-4.74180318400E+01	1.23841672416E+02	-4.24877423296E+01	-1.49008812824E+02
2.31350000000E+07	-2.78594820331E+01	-1.60405066672E+02	3.70548722166E+01	1.19809138027E+02	-4.74214343040E+01	1.23183551082E+02	-4.20279372779E+01	-1.49966810699E+02
2.33300000000E+07	-2.80321778652E+01	-1.61018778458E+02	3.70538220481E+01	1.19125499344E+02	-4.74169420029E+01	1.22535111633E+02	-4.15956645704E+01	-1.51147310944E+02
2.35250000000E+07	-2.81979542121E+01	-1.61414243135E+02	3.70513516942E+01	1.18458873873E+02	-4.74220085311E+01	1.21874309933E+02	-4.11744259618E+01	-1.52146725903E+02
2.37200000000E+07	-2.83940574752E+01	-1.61701662007E+02	3.70508945296E+01	1.17801691923E+02	-4.74185523078E+01	1.21195827407E+02	-4.07697559452E+01	-1.53157228680E+02
2.39150000000E+07	-2.85513962687E+01	-1.62239321951E+02	3.70523012548E+01	1.17111701124E+02	-4.74211955936E+01	1.20596618211E+02	-4.03737308282E+01	-1.54009255514E+02
2.41100000000E+07	-2.87313084444E+01	-1.62644595472E+02	3.70505402333E+01	1.16442943183E+02	-4.74173928137E+01	1.19938397769E+02	-4.00119449872E+01	-1.54903030208E+02
2.43050000000E+07	-2.89080915227E+01	-1.62990240637E+02	3.70541796775E+01	1.15787576877E+02	-4.74182896660E+01	1.19273053307E+02	-3.96737673942E+01	-1.55711181131E+02
2.45000000000E+07	-2.90927459353E+01	-1.63371911821E+02	3.70567247149E+01	1.15110975697E+02	-4.74201143731E+01	1.18654674224E+02	-3.93446760650E+01	-1.56451965059E+02
2.46950000000E+07	-2.92525402579E+01	-1.63631793548E+02	3.70555230873E+01	1.14430527025E+02	-4.74171242601E+01	1.17976457319E+02	-3.90300210632E+01	-1.57162628765E+02
2.48900000000E+07	-2.94437900261E+01	-1.63980556341E+02	3.70536796481E+01	1.13778542108E+02	-4.74186941500E+01	1.17342123565E+02	-3.87376051297E+01	-1.57936942697E+02
2.50850000000E+07	-2.96201068222E+01	-1.64505216640E+02	3.70535050260E+01	1.13101461835E+02	-4.74218909616E+01	1.16722774793E+02	-3.84427869851E+01	-1.58554700431E+02
2.52800000000E+07	-2.98230155484E+01	-1.64689993810E+02	3.70518690832E+01	1.12405598202E+02	-4.74195713532E+01	1.16063202398E+02	-3.81774272033E+01	-1.59251363169E+02
2.54750000000E+07	-2.99928146026E+01	-1.64995708333E+02	3.70558129374E+01	1.11752264788E+02	-4.74221330168E+01	1.15428569376E+02	-3.79179801794E+01	-1.59905770781E+02
2.56700000000E+07	-3.02034089994E+01	-1.65478522003E+02	3.70547858139E+01	1.11102648829E+02	-4.74192978890E+01	1.14770150852E+02	-3.76502333932E+01	-1.60705812814E+02
2.58650000000E+07	-3.03716825825E+01	-1.65703179531E+02	3.70501138303E+01	1.10430703878E+02	-4.74172983742E+01	1.14133660553E+02	-3.74056560180E+01	-1.61398781317E+02
2.60600000000E+07	-3.05609806683E+01	-1.65990856558E+02	3.70500302619E+01	1.09750517844E+02	-4.74187404416E+01	1.13521863948E+02	-3.71506091047E+01	-1.61946768680E+02
2.62550000000E+07	-3.07490261723E+01	-1.66251117973E+02	3.70531264291E+01	1.09108469292E+02	-4.74178619388E+01	1.12886303335E+02	-3.69335780631E+01	-1.62641877562E+02
2.64500000000E+07	-3.09668630032E+01	-1.66581753042E+02	3.70540541647E+01	1.08435121706E+02	-4.74206747915E+01	1.12238864767E+02	-3.67111167878E+01	-1.63202428939E+02
2.66450000000E+07	-3.11515039754E+01	-1.66793439616E+02	3.70557357313E+01	1.07779122953E+02	-4.74177114436E+01	1.11617953096E+02	-3.64923627903E+01	-1.63837206665E+02
2.68400000000E+07	-3.13413860804E+01	-1.67021456245E+02	3.70540409606E+01	1.07128930649E+02	-4.74193586105E+01	1.10983831165E+02	-3.62916944344E+01	-1.64557576255E+02
2.70350000000E+07	-3.15063496238E+01	-1.67032139843E+02	3.70525624555E+01	1.06482147457E+02	-4.74189510738E+01	1.10335135341E+02	-3.60881196492E+01	-1.65065475257E+02
2.72300000000E+07	-3.17306429080E+01	-1.67265030387E+02	3.70516961157E+01	1.05815662153E+02	-4.74245077145E+01	1.09721866630E+02	-3.58906833299E+01	-1.65642402750E+02
2.74250000000E+07	-3.19108079490E+01	-1.67525977261E+02	3.70489986998E+01	1.05152151364E+02	-4.74199399839E+01	1.09088591759E+02	-3.57136154364E+01	-1.66308355554E+02
2.76200000000E+07	-3.21433089520E+01	-1.67700510598E+02	3.70509917084E+01	1.04515036763E+02	-4.74178777105E+01	1.08460626988E+02	-3.55266602072E+01	-1.66942862653E+02
2.78150000000E+07	-3.22786957032E+01	-1.67701641179E+02	3.70495374788E+01	1.03853677929E+02	-4.74204943113E+01	1.07817160122E+02	-3.53422307023E+01	-1.67481770892E+02
