# Hz S DB R 50
! CMT, M5045, 22160017, 22.3.3/2
! Date: 10/8/2022 16:58:45
! Data: Format (Calibration Info)
! Freq	S11:dB/Ang(F2)	S21:dB/Ang(F2)	S12:dB/Ang(F2)	S22:dB/Ang(F2)
5.00000000000E+06	-9.91423313061E+00	-8.63328410751E+01	3.60930953423E+01	-1.49403545712E+02	-4.82547678988E+01	-1.46712711308E+02	-1.46914674475E+01	6.48774115997E+01
5.19500000000E+06	-1.02563470651E+01	-8.77285094566E+01	3.61751591091E+01	-1.51706461891E+02	-4.81751407323E+01	-1.49070730244E+02	-1.52871913837E+01	6.37582073579E+01
5.39000000000E+06	-1.06039935421E+01	-8.90208445912E+01	3.62375464577E+01	-1.53880607560E+02	-4.81018509527E+01	-1.51231429023E+02	-1.58678415491E+01	6.27758036136E+01
5.58500000000E+06	-1.09245505534E+01	-9.02593959001E+01	3.63043945786E+01	-1.55975202387E+02	-4.80392814953E+01	-1.53331749484E+02	-1.64360529617E+01	6.18963835155E+01
5.78000000000E+06	-1.12493143198E+01	-9.14507972288E+01	3.63533892188E+01	-1.57952547016E+02	-4.79745378842E+01	-1.55348986237E+02	-1.69928306750E+01	6.11170538024E+01
5.97500000000E+06	-1.15577683718E+01	-9.25966493122E+01	3.64032396850E+01	-1.59864524950E+02	-4.79224236778E+01	-1.57267233752E+02	-1.75354590178E+01	6.04113751538E+01
6.17000000000E+06	-1.18607072462E+01	-9.37314937411E+01	3.64471156496E+01	-1.61710345276E+02	-4.78790150358E+01	-1.59107750533E+02	-1.80694156898E+01	5.98147510328E+01
6.36500000000E+06	-1.21514299927E+01	-9.47926759388E+01	3.64876876811E+01	-1.63443038389E+02	-4.78318129261E+01	-1.60869950590E+02	-1.85936133733E+01	5.92754923826E+01
6.56000000000E+06	-1.24442339966E+01	-9.58629079168E+01	3.65181503945E+01	-1.65130904206E+02	-4.77899703112E+01	-1.62542251619E+02	-1.91060737986E+01	5.88261989911E+01
6.75500000000E+06	-1.27247156717E+01	-9.69004491382E+01	3.65526702865E+01	-1.66776272772E+02	-4.77575098921E+01	-1.64197273750E+02	-1.96106740086E+01	5.84102778030E+01
6.95000000000E+06	-1.30012152466E+01	-9.78600304405E+01	3.65778047449E+01	-1.68346815363E+02	-4.77246121723E+01	-1.65787109268E+02	-2.01091544527E+01	5.80982599387E+01
7.14500000000E+06	-1.32702359724E+01	-9.88290478785E+01	3.66038366663E+01	-1.69859109372E+02	-4.76919090716E+01	-1.67282166282E+02	-2.05959038948E+01	5.78378022605E+01
7.34000000000E+06	-1.35361453074E+01	-9.97244798543E+01	3.66309895476E+01	-1.71305127344E+02	-4.76613558396E+01	-1.68748009034E+02	-2.10753675980E+01	5.76168615406E+01
7.53500000000E+06	-1.37898661837E+01	-1.00678879094E+02	3.66526005732E+01	-1.72725725528E+02	-4.76362142467E+01	-1.70143514891E+02	-2.15461212403E+01	5.74859834604E+01
7.73000000000E+06	-1.40521929172E+01	-1.01564576498E+02	3.66680207955E+01	-1.74123575152E+02	-4.76126473937E+01	-1.71528435639E+02	-2.20114000200E+01	5.73620528258E+01
7.92500000000E+06	-1.43030825754E+01	-1.02441799098E+02	3.66885105731E+01	-1.75470237228E+02	-4.75904871244E+01	-1.72864767048E+02	-2.24718467599E+01	5.73079624861E+01
8.12000000000E+06	-1.45500801383E+01	-1.03318533038E+02	3.67047415647E+01	-1.76771747520E+02	-4.75648126575E+01	-1.74162397602E+02	-2.29292274373E+01	5.73295222930E+01
8.31500000000E+06	-1.47954139915E+01	-1.04183630103E+02	3.67171489159E+01	-1.78037003813E+02	-4.75428589827E+01	-1.75420868859E+02	-2.33750912460E+01	5.73862988204E+01
8.51000000000E+06	-1.50228655165E+01	-1.05055069819E+02	3.67373655460E+01	-1.79284738311E+02	-4.75289622806E+01	-1.76639166630E+02	-2.38233720329E+01	5.74814849676E+01
8.70500000000E+06	-1.52682520990E+01	-1.05774123758E+02	3.67461101870E+01	1.79511535792E+02	-4.75074339350E+01	-1.77888552986E+02	-2.42625590262E+01	5.76361977774E+01
8.90000000000E+06	-1.55069022945E+01	-1.06738037817E+02	3.67559084793E+01	1.78314313506E+02	-4.74961469999E+01	-1.79061446806E+02	-2.46928871320E+01	5.78704531297E+01
9.09500000000E+06	-1.57335728960E+01	-1.07454012517E+02	3.67666076492E+01	1.77139990908E+02	-4.74818933437E+01	1.79768164915E+02	-2.51216479810E+01	5.80956048999E+01
9.29000000000E+06	-1.59653052911E+01	-1.08242102870E+02	3.67751666772E+01	1.76000180354E+02	-4.74645991110E+01	1.78664778801E+02	-2.55459283330E+01	5.84071877180E+01
9.48500000000E+06	-1.61804656132E+01	-1.09053735338E+02	3.67876087201E+01	1.74894065115E+02	-4.74534191815E+01	1.77575168989E+02	-2.59665042699E+01	5.87718523056E+01
9.68000000000E+06	-1.64083864888E+01	-1.09840352227E+02	3.67933885075E+01	1.73796522608E+02	-4.74390722376E+01	1.76424929975E+02	-2.63845004816E+01	5.92002358326E+01
9.87500000000E+06	-1.66345652492E+01	-1.10593139933E+02	3.68004788966E+01	1.72741567116E+02	-4.74290746647E+01	1.75386762670E+02	-2.67859012388E+01	5.96555597800E+01
1.00700000000E+07	-1.68497872760E+01	-1.11383335352E+02	3.68040224160E+01	1.71661375893E+02	-4.74212451603E+01	1.74302515521E+02	-2.72087514500E+01	6.00711346049E+01
1.02650000000E+07	-1.70656728312E+01	-1.12216621673E+02	3.68150790775E+01	1.70629065975E+02	-4.74075834135E+01	1.73249184371E+02	-2.76159420964E+01	6.07056227754E+01
1.04600000000E+07	-1.72814156153E+01	-1.12974811341E+02	3.68211228875E+01	1.69600399991E+02	-4.74011807443E+01	1.72227388851E+02	-2.80168426019E+01	6.13200392658E+01
1.06550000000E+07	-1.75033376747E+01	-1.13657913847E+02	3.68235003869E+01	1.68619566645E+02	-4.73916470207E+01	1.71208267194E+02	-2.84075100386E+01	6.19829932959E+01
1.08500000000E+07	-1.77106770150E+01	-1.14432367228E+02	3.68334411257E+01	1.67615577010E+02	-4.73877238418E+01	1.70186005160E+02	-2.87930277877E+01	6.26468620308E+01
1.10450000000E+07	-1.79254260079E+01	-1.15192873053E+02	3.68320364332E+01	1.66632612100E+02	-4.73800341972E+01	1.69208870977E+02	-2.91757574499E+01	6.33264333866E+01
1.12400000000E+07	-1.81277989760E+01	-1.16036366747E+02	3.68404620717E+01	1.65647692103E+02	-4.73743187596E+01	1.68236655120E+02	-2.95607573051E+01	6.41500525344E+01
1.14350000000E+07	-1.83428639784E+01	-1.16754163143E+02	3.68468184497E+01	1.64701349528E+02	-4.73637482335E+01	1.67269853938E+02	-2.99519006156E+01	6.49956616624E+01
1.16300000000E+07	-1.85591733138E+01	-1.17499721804E+02	3.68455266301E+01	1.63746563652E+02	-4.73594717362E+01	1.66258908860E+02	-3.03317050125E+01	6.58574198822E+01
1.18250000000E+07	-1.87669471589E+01	-1.18300120836E+02	3.68521471255E+01	1.62791125278E+02	-4.73501638505E+01	1.65331238330E+02	-3.07073676047E+01	6.68568674724E+01
1.20200000000E+07	-1.89753697493E+01	-1.18996836673E+02	3.68519270404E+01	1.61855375115E+02	-4.73451393222E+01	1.64393470911E+02	-3.10817605111E+01	6.79125568623E+01
1.22150000000E+07	-1.91752972872E+01	-1.19709697491E+02	3.68590048026E+01	1.60917573760E+02	-4.73381355909E+01	1.63420382529E+02	-3.14374437903E+01	6.90415620820E+01
1.24100000000E+07	-1.93899621758E+01	-1.20496909389E+02	3.68570930993E+01	1.60007481370E+02	-4.73364119966E+01	1.62500138700E+02	-3.18048813736E+01	7.02471917704E+01
1.26050000000E+07	-1.95993611826E+01	-1.21269815320E+02	3.68582587949E+01	1.59114691307E+02	-4.73283152833E+01	1.61601507034E+02	-3.21640264748E+01	7.15080616733E+01
1.28000000000E+07	-1.97962930007E+01	-1.21861057974E+02	3.68601145732E+01	1.58257136238E+02	-4.73252329888E+01	1.60686046286E+02	-3.25003571882E+01	7.28401904665E+01
1.29950000000E+07	-2.00031766949E+01	-1.22624159319E+02	3.68631076530E+01	1.57412857884E+02	-4.73203386807E+01	1.59826391566E+02	-3.28475325617E+01	7.43372238188E+01
1.31900000000E+07	-2.02102264454E+01	-1.23283355401E+02	3.68638516208E+01	1.56525666520E+02	-4.73173041423E+01	1.58940836759E+02	-3.31794401839E+01	7.58615837227E+01
1.33850000000E+07	-2.04103283196E+01	-1.23938877622E+02	3.68706772218E+01	1.55671372869E+02	-4.73101160361E+01	1.58098204767E+02	-3.34941926998E+01	7.75253566810E+01
1.35800000000E+07	-2.06355213337E+01	-1.24518743977E+02	3.68690197889E+01	1.54815315039E+02	-4.73093405622E+01	1.57244831724E+02	-3.38056814528E+01	7.92310019583E+01
1.37750000000E+07	-2.08409681480E+01	-1.25203914148E+02	3.68706325388E+01	1.54012553191E+02	-4.73056952831E+01	1.56406036685E+02	-3.41015520125E+01	8.09217827442E+01
1.39700000000E+07	-2.10236176099E+01	-1.25869941993E+02	3.68698559729E+01	1.53178981068E+02	-4.73026042930E+01	1.55565759881E+02	-3.43775910067E+01	8.27722663199E+01
1.41650000000E+07	-2.12547428173E+01	-1.26548483634E+02	3.68729845728E+01	1.52356395143E+02	-4.73009409211E+01	1.54749359179E+02	-3.46451984682E+01	8.47454061905E+01
1.43600000000E+07	-2.14448022124E+01	-1.27174901071E+02	3.68676766045E+01	1.51519153479E+02	-4.72908675142E+01	1.53947091993E+02	-3.48890596873E+01	8.66955931576E+01
1.45550000000E+07	-2.16519878708E+01	-1.27822510070E+02	3.68722833678E+01	1.50724461037E+02	-4.72926343066E+01	1.53139259175E+02	-3.51424907803E+01	8.87853636380E+01
1.47500000000E+07	-2.18610358331E+01	-1.28410831999E+02	3.68735582792E+01	1.49907918546E+02	-4.72876922722E+01	1.52346001536E+02	-3.53515946467E+01	9.08367438336E+01
1.49450000000E+07	-2.20730351274E+01	-1.28942801786E+02	3.68722117505E+01	1.49110362625E+02	-4.72808027681E+01	1.51550861600E+02	-3.55606557352E+01	9.28965518281E+01
1.51400000000E+07	-2.22821126183E+01	-1.29619643638E+02	3.68729200682E+01	1.48314565540E+02	-4.72740177891E+01	1.50755211840E+02	-3.57438892393E+01	9.50931099037E+01
1.53350000000E+07	-2.24684083388E+01	-1.30102130129E+02	3.68742664936E+01	1.47521280875E+02	-4.72755231602E+01	1.49963584299E+02	-3.59329562778E+01	9.72893519730E+01
1.55300000000E+07	-2.26874875248E+01	-1.30639097011E+02	3.68726642020E+01	1.46752839142E+02	-4.72767071606E+01	1.49177000553E+02	-3.60769728984E+01	9.93792497872E+01
1.57250000000E+07	-2.29020054028E+01	-1.31389941280E+02	3.68747391438E+01	1.45949300360E+02	-4.72694191277E+01	1.48431779009E+02	-3.61917104834E+01	1.01558409151E+02
1.59200000000E+07	-2.31051503398E+01	-1.31883506243E+02	3.68708978845E+01	1.45176177021E+02	-4.72694184321E+01	1.47626441273E+02	-3.63168632597E+01	1.03765940713E+02
1.61150000000E+07	-2.33136824260E+01	-1.32286483874E+02	3.68741678573E+01	1.44389161302E+02	-4.72663693973E+01	1.46872327231E+02	-3.64056745998E+01	1.06008557896E+02
1.63100000000E+07	-2.35187372802E+01	-1.32948609976E+02	3.68762551969E+01	1.43642629093E+02	-4.72614771536E+01	1.46111140478E+02	-3.64875202914E+01	1.08111810349E+02
1.65050000000E+07	-2.37255832547E+01	-1.33453408996E+02	3.68735246948E+01	1.42882735191E+02	-4.72628093901E+01	1.45367142984E+02	-3.65660815957E+01	1.10396841495E+02
1.67000000000E+07	-2.39456956151E+01	-1.33987064286E+02	3.68711504937E+01	1.42109269021E+02	-4.72567498347E+01	1.44628055147E+02	-3.65982107933E+01	1.12571170997E+02
1.68950000000E+07	-2.41674750202E+01	-1.34490520355E+02	3.68760392785E+01	1.41370358611E+02	-4.72483013205E+01	1.43875592446E+02	-3.66262275432E+01	1.14746267914E+02
1.70900000000E+07	-2.43797335063E+01	-1.34990839569E+02	3.68717828201E+01	1.40594807651E+02	-4.72503132904E+01	1.43170962327E+02	-3.66436108575E+01	1.16815116769E+02
1.72850000000E+07	-2.45895707086E+01	-1.35366752888E+02	3.68704691516E+01	1.39848152269E+02	-4.72503841475E+01	1.42409597519E+02	-3.66246014275E+01	1.18688808088E+02
1.74800000000E+07	-2.47923170661E+01	-1.36092063719E+02	3.68717166171E+01	1.39090056920E+02	-4.72462206591E+01	1.41680697363E+02	-3.66067627774E+01	1.20619958777E+02
1.76750000000E+07	-2.50144558482E+01	-1.36488328911E+02	3.68715195856E+01	1.38349657485E+02	-4.72432780397E+01	1.40956404650E+02	-3.65809192273E+01	1.22431692122E+02
1.78700000000E+07	-2.52398023951E+01	-1.36875110115E+02	3.68698967975E+01	1.37613348551E+02	-4.72450473758E+01	1.40221088057E+02	-3.65516112178E+01	1.24167806450E+02
1.80650000000E+07	-2.54423489469E+01	-1.37412975673E+02	3.68697834408E+01	1.36893435756E+02	-4.72357997333E+01	1.39515799264E+02	-3.64932769004E+01	1.25896029599E+02
1.82600000000E+07	-2.56714416399E+01	-1.37859474987E+02	3.68697808099E+01	1.36145684206E+02	-4.72327315935E+01	1.38767901199E+02	-3.64355372855E+01	1.27565911176E+02
1.84550000000E+07	-2.58915213036E+01	-1.38410366315E+02	3.68679709800E+01	1.35415791222E+02	-4.72294544477E+01	1.38090037512E+02	-3.63714294273E+01	1.29109826350E+02
1.86500000000E+07	-2.61211985469E+01	-1.38802981684E+02	3.68657631777E+01	1.34666425790E+02	-4.72268058241E+01	1.37375228790E+02	-3.63054570786E+01	1.30556993286E+02
1.88450000000E+07	-2.63308216389E+01	-1.39042177933E+02	3.68646909277E+01	1.33961512210E+02	-4.72252540509E+01	1.36653491693E+02	-3.62229968825E+01	1.32096109622E+02
1.90400000000E+07	-2.65587801122E+01	-1.39582581916E+02	3.68648728924E+01	1.33247399489E+02	-4.72200808708E+01	1.35959015847E+02	-3.61342979840E+01	1.33387073546E+02
1.92350000000E+07	-2.67861026901E+01	-1.40033334391E+02	3.68640361709E+01	1.32503339130E+02	-4.72196518779E+01	1.35275074085E+02	-3.60479228590E+01	1.34774675549E+02
1.94300000000E+07	-2.70272224252E+01	-1.40469145619E+02	3.68616025190E+01	1.31784817224E+02	-4.72176283902E+01	1.34543417694E+02	-3.59666569979E+01	1.35928634440E+02
1.96250000000E+07	-2.72792983803E+01	-1.40682147982E+02	3.68633590276E+01	1.31053983849E+02	-4.72158336349E+01	1.33864838240E+02	-3.58675272422E+01	1.37188087096E+02
1.98200000000E+07	-2.74686199832E+01	-1.40962313714E+02	3.68603327006E+01	1.30373613352E+02	-4.72149198336E+01	1.33164716229E+02	-3.57751967035E+01	1.38284894967E+02
2.00150000000E+07	-2.77401256910E+01	-1.41468996371E+02	3.68605877280E+01	1.29660010350E+02	-4.72112592280E+01	1.32504201669E+02	-3.56627421693E+01	1.39379548916E+02
2.02100000000E+07	-2.80075918680E+01	-1.41715510635E+02	3.68586808539E+01	1.28919728580E+02	-4.72097162790E+01	1.31796624843E+02	-3.55672206722E+01	1.40348357383E+02
2.04050000000E+07	-2.82094706577E+01	-1.42098590028E+02	3.68603977515E+01	1.28235548529E+02	-4.72077244900E+01	1.31101749739E+02	-3.54561145229E+01	1.41286272143E+02
2.06000000000E+07	-2.84450565085E+01	-1.42319024452E+02	3.68595367003E+01	1.27522135123E+02	-4.72084617950E+01	1.30394525145E+02	-3.53592913065E+01	1.42152660836E+02
2.07950000000E+07	-2.87109132512E+01	-1.42454613785E+02	3.68546360452E+01	1.26835678829E+02	-4.72005900950E+01	1.29710987347E+02	-3.52534603713E+01	1.43085765665E+02
2.09900000000E+07	-2.89262013538E+01	-1.42905687460E+02	3.68544774719E+01	1.26135964405E+02	-4.71970498870E+01	1.29056280391E+02	-3.51434370609E+01	1.43906339026E+02
2.11850000000E+07	-2.92112498132E+01	-1.42912519759E+02	3.68525375908E+01	1.25439819151E+02	-4.71973010329E+01	1.28378821941E+02	-3.50405645389E+01	1.44672012723E+02
2.13800000000E+07	-2.94763088761E+01	-1.43198711015E+02	3.68522246175E+01	1.24714257402E+02	-4.71938678193E+01	1.27702853473E+02	-3.49307413400E+01	1.45304204252E+02
2.15750000000E+07	-2.96980235008E+01	-1.43281607221E+02	3.68493398173E+01	1.24017117390E+02	-4.71919107000E+01	1.27027982610E+02	-3.48265501167E+01	1.45939053062E+02
2.17700000000E+07	-2.99983619323E+01	-1.43638740531E+02	3.68456496749E+01	1.23342739945E+02	-4.71891074803E+01	1.26358576190E+02	-3.47278778048E+01	1.46623065740E+02
2.19650000000E+07	-3.02524624653E+01	-1.43799000949E+02	3.68465982276E+01	1.22646767343E+02	-4.71844343101E+01	1.25660252237E+02	-3.46227561647E+01	1.47103008664E+02
2.21600000000E+07	-3.04828906201E+01	-1.43940920129E+02	3.68420774005E+01	1.21953820326E+02	-4.71859457725E+01	1.24997858934E+02	-3.45213582409E+01	1.47618199436E+02
2.23550000000E+07	-3.08155569198E+01	-1.43826001511E+02	3.68431945713E+01	1.21263205066E+02	-4.71838659078E+01	1.24365809271E+02	-3.44139864536E+01	1.48167534297E+02
2.25500000000E+07	-3.10396604490E+01	-1.43969078340E+02	3.68453367188E+01	1.20592435682E+02	-4.71833397313E+01	1.23677446506E+02	-3.43111973442E+01	1.48651086622E+02
2.27450000000E+07	-3.13368038182E+01	-1.44046875413E+02	3.68376373500E+01	1.19897021906E+02	-4.71769768994E+01	1.23032669525E+02	-3.42122215410E+01	1.49153052319E+02
2.29400000000E+07	-3.16293325431E+01	-1.44015828905E+02	3.68380653492E+01	1.19212161431E+02	-4.71749036609E+01	1.22373391886E+02	-3.41164344225E+01	1.49514116244E+02
2.31350000000E+07	-3.18757978897E+01	-1.43798546818E+02	3.68351881243E+01	1.18534293798E+02	-4.71730486143E+01	1.21715685044E+02	-3.40291528043E+01	1.49899535110E+02
2.33300000000E+07	-3.21928910245E+01	-1.43502805740E+02	3.68352800216E+01	1.17857620920E+02	-4.71706894740E+01	1.21036916688E+02	-3.39278808714E+01	1.50243962992E+02
2.35250000000E+07	-3.24526472889E+01	-1.43710653249E+02	3.68323165140E+01	1.17195206157E+02	-4.71709476624E+01	1.20391462507E+02	-3.38398793770E+01	1.50578929855E+02
2.37200000000E+07	-3.27684777358E+01	-1.43513224711E+02	3.68316702791E+01	1.16456617883E+02	-4.71671972355E+01	1.19726105906E+02	-3.37503657241E+01	1.50847706819E+02
2.39150000000E+07	-3.31355061891E+01	-1.43465589673E+02	3.68268566531E+01	1.15814145138E+02	-4.71639466576E+01	1.19093835940E+02	-3.36549992817E+01	1.51241714711E+02
2.41100000000E+07	-3.34232143641E+01	-1.43043183167E+02	3.68240878225E+01	1.15148781069E+02	-4.71665485346E+01	1.18435405854E+02	-3.35630649104E+01	1.51470543144E+02
2.43050000000E+07	-3.37579986810E+01	-1.42437939563E+02	3.68264677690E+01	1.14464670702E+02	-4.71608464145E+01	1.17795094482E+02	-3.34757428510E+01	1.51722584769E+02
2.45000000000E+07	-3.40748045320E+01	-1.42353385931E+02	3.68254679334E+01	1.13799050140E+02	-4.71575128196E+01	1.17134748295E+02	-3.33873344572E+01	1.51998887516E+02
2.46950000000E+07	-3.43820992222E+01	-1.41846240395E+02	3.68232138236E+01	1.13138905260E+02	-4.71567721059E+01	1.16460042358E+02	-3.33043295895E+01	1.52231694044E+02
2.48900000000E+07	-3.46898135033E+01	-1.41337803498E+02	3.68189670303E+01	1.12453582588E+02	-4.71514073212E+01	1.15827453953E+02	-3.32190829473E+01	1.52400130855E+02
2.50850000000E+07	-3.50580746498E+01	-1.40897667926E+02	3.68189349558E+01	1.11771937319E+02	-4.71521874258E+01	1.15204742859E+02	-3.31330348212E+01	1.52598841563E+02
2.52800000000E+07	-3.53608680458E+01	-1.39997587714E+02	3.68159927217E+01	1.11122185176E+02	-4.71503500064E+01	1.14576286315E+02	-3.30516167426E+01	1.52789070389E+02
2.54750000000E+07	-3.56361526511E+01	-1.39187399235E+02	3.68104056364E+01	1.10451449943E+02	-4.71456658629E+01	1.13908107136E+02	-3.29772340560E+01	1.52926932092E+02
2.56700000000E+07	-3.60522390363E+01	-1.38130531738E+02	3.68092684657E+01	1.09777437898E+02	-4.71418687844E+01	1.13281461291E+02	-3.28820854651E+01	1.53029177855E+02
2.58650000000E+07	-3.64246479079E+01	-1.37586766738E+02	3.68073212440E+01	1.09116723557E+02	-4.71399363438E+01	1.12654313520E+02	-3.28046760748E+01	1.53137358607E+02
2.60600000000E+07	-3.67704029796E+01	-1.35829153252E+02	3.68067801546E+01	1.08457639984E+02	-4.71391234527E+01	1.12005122285E+02	-3.27179467657E+01	1.53292604449E+02
2.62550000000E+07	-3.71118281492E+01	-1.34877464370E+02	3.68069620379E+01	1.07779189552E+02	-4.71352123791E+01	1.11385212724E+02	-3.26421792811E+01	1.53342787870E+02
2.64500000000E+07	-3.75298977112E+01	-1.33638980548E+02	3.68042056813E+01	1.07112866475E+02	-4.71328825711E+01	1.10756105038E+02	-3.25590988775E+01	1.53424524468E+02
2.66450000000E+07	-3.77965287809E+01	-1.31762178507E+02	3.68023072516E+01	1.06463240454E+02	-4.71302699682E+01	1.10115909153E+02	-3.24872064744E+01	1.53506918318E+02
2.68400000000E+07	-3.80909484733E+01	-1.29587632459E+02	3.67998783077E+01	1.05807785190E+02	-4.71311564663E+01	1.09460345272E+02	-3.24005652172E+01	1.53508270062E+02
2.70350000000E+07	-3.85035598015E+01	-1.27792797712E+02	3.67945766788E+01	1.05148379423E+02	-4.71283968839E+01	1.08844345693E+02	-3.23364200931E+01	1.53570995846E+02
2.72300000000E+07	-3.88639120206E+01	-1.25560240415E+02	3.67937947231E+01	1.04498961484E+02	-4.71208484456E+01	1.08225765488E+02	-3.22584936914E+01	1.53560752318E+02
2.74250000000E+07	-3.90641483715E+01	-1.24128075785E+02	3.67910773957E+01	1.03808339222E+02	-4.71220859284E+01	1.07591586147E+02	-3.21848220420E+01	1.53571297175E+02
2.76200000000E+07	-3.94942831780E+01	-1.21628887370E+02	3.67869778993E+01	1.03179859976E+02	-4.71180520761E+01	1.06954200712E+02	-3.21100001635E+01	1.53536565886E+02
2.78150000000E+07	-3.97402292782E+01	-1.18909712662E+02	3.67882900278E+01	1.02531092213E+02	-4.71156772240E+01	1.06316928870E+02	-3.20327497975E+01	1.53586565681E+02
