# Hz S DB R 50
! CMT, M5045, 22160017, 22.4.3/2
! Date: 2/27/2023 00:30:52
! Data: Format (Calibration Info)
! Freq	S11:dB/Ang(F2)	S21:dB/Ang(F2)	S12:dB/Ang(F2)	S22:dB/Ang(F2)
5.00000000000E+06	-9.62063560262E+00	-7.08063042330E+01	3.60858400784E+01	3.68426970435E+01	-4.83368366158E+01	3.96115838355E+01	-1.56025062110E+01	7.18013305987E+01
5.19500000000E+06	-9.97478321611E+00	-7.16230361686E+01	3.61698933970E+01	3.46519888053E+01	-4.82090232935E+01	3.73671131331E+01	-1.62972278572E+01	7.12201926100E+01
5.39000000000E+06	-1.03170945628E+01	-7.23548098937E+01	3.62438965299E+01	3.25828026682E+01	-4.81341172768E+01	3.47891145040E+01	-1.69931676217E+01	7.10782564655E+01
5.58500000000E+06	-1.06517926653E+01	-7.30389923284E+01	3.63090896862E+01	3.06465712749E+01	-4.80930766108E+01	3.31482854508E+01	-1.76852485360E+01	7.09844252359E+01
5.78000000000E+06	-1.09751916292E+01	-7.36456970893E+01	3.63654380325E+01	2.87754160983E+01	-4.79750554118E+01	3.17450130795E+01	-1.83503319129E+01	7.11188776376E+01
5.97500000000E+06	-1.12904600608E+01	-7.42012632969E+01	3.64207563006E+01	2.70406712667E+01	-4.79527572284E+01	2.96659869975E+01	-1.90137113902E+01	7.15028401530E+01
6.17000000000E+06	-1.16027790647E+01	-7.47052400620E+01	3.64678015766E+01	2.53458766593E+01	-4.78882501835E+01	2.79676088941E+01	-1.96369365371E+01	7.19563201528E+01
6.36500000000E+06	-1.19106980293E+01	-7.52391467731E+01	3.65107077123E+01	2.37034630734E+01	-4.79178092021E+01	2.66330110231E+01	-2.02711820352E+01	7.26339485818E+01
6.56000000000E+06	-1.22062428922E+01	-7.56253335097E+01	3.65476850674E+01	2.21931945093E+01	-4.78170909838E+01	2.50665456849E+01	-2.09058871397E+01	7.34006743557E+01
6.75500000000E+06	-1.24984470815E+01	-7.60472872009E+01	3.65852951738E+01	2.07084265591E+01	-4.78179625383E+01	2.30554596270E+01	-2.14914979104E+01	7.46882398254E+01
6.95000000000E+06	-1.27816190378E+01	-7.64141702228E+01	3.66157145013E+01	1.92923047520E+01	-4.76807738133E+01	2.19800922727E+01	-2.21139454175E+01	7.57092910616E+01
7.14500000000E+06	-1.30688428953E+01	-7.67095273302E+01	3.66430835465E+01	1.79217104327E+01	-4.76713516750E+01	2.05652863806E+01	-2.26680788544E+01	7.70707729104E+01
7.34000000000E+06	-1.33358556207E+01	-7.70754178001E+01	3.66725659191E+01	1.65757854836E+01	-4.76280334494E+01	1.90404103248E+01	-2.32284179076E+01	7.85073554757E+01
7.53500000000E+06	-1.36135891903E+01	-7.73036039025E+01	3.66960267345E+01	1.53221365391E+01	-4.76632361597E+01	1.81537095944E+01	-2.37440352560E+01	8.02633481252E+01
7.73000000000E+06	-1.38776311420E+01	-7.76076174080E+01	3.67186480657E+01	1.40667775161E+01	-4.76188997819E+01	1.68378250463E+01	-2.42282295270E+01	8.19305879897E+01
7.92500000000E+06	-1.41470083374E+01	-7.77874762703E+01	3.67368151316E+01	1.29005676167E+01	-4.75881059791E+01	1.54380921987E+01	-2.47472021634E+01	8.39807236033E+01
8.12000000000E+06	-1.44041989778E+01	-7.80086140805E+01	3.67558472505E+01	1.17378409553E+01	-4.75657176396E+01	1.42928500742E+01	-2.51747188979E+01	8.60633574548E+01
8.31500000000E+06	-1.46631704781E+01	-7.82079577035E+01	3.67711289710E+01	1.06137949201E+01	-4.75043636010E+01	1.34250679342E+01	-2.56378131052E+01	8.85054409457E+01
8.51000000000E+06	-1.49123729551E+01	-7.83359960657E+01	3.67868917226E+01	9.53064985532E+00	-4.75012650285E+01	1.21860941410E+01	-2.60162817943E+01	9.04987411045E+01
8.70500000000E+06	-1.51708391149E+01	-7.84994639121E+01	3.67999379238E+01	8.46843014055E+00	-4.74824637035E+01	1.06770274423E+01	-2.63713274665E+01	9.32190889785E+01
8.90000000000E+06	-1.54115207878E+01	-7.85934237027E+01	3.68179318849E+01	7.42771053312E+00	-4.74582013988E+01	1.00435389770E+01	-2.67233396404E+01	9.55866419401E+01
9.09500000000E+06	-1.56618307955E+01	-7.86835326199E+01	3.68269359609E+01	6.42618964302E+00	-4.74708178798E+01	9.67085957589E+00	-2.69831224561E+01	9.80753397607E+01
9.29000000000E+06	-1.59086400678E+01	-7.87789703656E+01	3.68352109926E+01	5.43777547220E+00	-4.74770385147E+01	7.98889875469E+00	-2.72731658539E+01	1.00573625331E+02
9.48500000000E+06	-1.61423641972E+01	-7.88560000908E+01	3.68486918537E+01	4.50316046200E+00	-4.74163551621E+01	7.50622818447E+00	-2.75302859223E+01	1.02934633814E+02
9.68000000000E+06	-1.63843183747E+01	-7.88706883079E+01	3.68565437069E+01	3.56003809197E+00	-4.74128281426E+01	6.51225914803E+00	-2.77072801149E+01	1.05786009963E+02
9.87500000000E+06	-1.66198604620E+01	-7.89329880970E+01	3.68632627384E+01	2.64417714454E+00	-4.73140428437E+01	5.05289671934E+00	-2.79035667487E+01	1.07995947025E+02
1.00700000000E+07	-1.68529968651E+01	-7.89534936759E+01	3.68709838941E+01	1.74516685775E+00	-4.73424691822E+01	4.52319422826E+00	-2.79916023261E+01	1.10214625352E+02
1.02650000000E+07	-1.70867480541E+01	-7.89584672014E+01	3.68792595520E+01	8.63911937470E-01	-4.73365829233E+01	3.65448681823E+00	-2.81367451040E+01	1.12667828030E+02
1.04600000000E+07	-1.73136068329E+01	-7.89237597858E+01	3.68857127794E+01	1.56108944980E-02	-4.74072359692E+01	2.87291314015E+00	-2.81890940163E+01	1.14872756788E+02
1.06550000000E+07	-1.75419013379E+01	-7.89628245683E+01	3.68934684221E+01	-8.58113839640E-01	-4.73576697919E+01	2.02921872249E+00	-2.82825669285E+01	1.16681078279E+02
1.08500000000E+07	-1.77606065681E+01	-7.89578897193E+01	3.68990162776E+01	-1.69674016294E+00	-4.73519105730E+01	8.42647228177E-01	-2.83255852789E+01	1.18988861153E+02
1.10450000000E+07	-1.79868519343E+01	-7.89023544937E+01	3.69095768871E+01	-2.51951658443E+00	-4.73047800735E+01	1.59724558749E-01	-2.83247576306E+01	1.20833920171E+02
1.12400000000E+07	-1.82089517730E+01	-7.88970316802E+01	3.69140563545E+01	-3.34040030590E+00	-4.73573221047E+01	-2.60252219836E-01	-2.83716257351E+01	1.22424941432E+02
1.14350000000E+07	-1.84402810919E+01	-7.88371500864E+01	3.69163612699E+01	-4.14728204765E+00	-4.73738383081E+01	-1.52673197709E+00	-2.83660740575E+01	1.23861004336E+02
1.16300000000E+07	-1.86507303565E+01	-7.86936580385E+01	3.69263885423E+01	-4.95077004462E+00	-4.73148035049E+01	-1.92179231970E+00	-2.83897677286E+01	1.25186172865E+02
1.18250000000E+07	-1.88718845516E+01	-7.85673509185E+01	3.69298607650E+01	-5.73860316267E+00	-4.73150016005E+01	-2.75940251430E+00	-2.83697356199E+01	1.26987976386E+02
1.20200000000E+07	-1.90911751543E+01	-7.85041976558E+01	3.69332962380E+01	-6.53634353706E+00	-4.73303337865E+01	-3.66507886935E+00	-2.83477908713E+01	1.28218147853E+02
1.22150000000E+07	-1.93059077989E+01	-7.82814372759E+01	3.69327643458E+01	-7.30688256955E+00	-4.73849129021E+01	-4.43981326963E+00	-2.83670567619E+01	1.29342730331E+02
1.24100000000E+07	-1.95245887742E+01	-7.80446965881E+01	3.69329264441E+01	-8.02066300540E+00	-4.73042591696E+01	-5.75548133459E+00	-2.83290741502E+01	1.30732843162E+02
1.26050000000E+07	-1.97386120354E+01	-7.78998076526E+01	3.69350745460E+01	-8.73749869697E+00	-4.72607648474E+01	-6.49060463241E+00	-2.83967642512E+01	1.32190328086E+02
1.28000000000E+07	-1.99489398277E+01	-7.76358998949E+01	3.69400329232E+01	-9.45424128917E+00	-4.72008356673E+01	-6.52136866254E+00	-2.83829596519E+01	1.33225036390E+02
1.29950000000E+07	-2.01622913483E+01	-7.73665458701E+01	3.69410773580E+01	-1.01364047282E+01	-4.72529114553E+01	-7.70652740622E+00	-2.83034046641E+01	1.34204453476E+02
1.31900000000E+07	-2.03724027934E+01	-7.70276531590E+01	3.69452765513E+01	-1.08202339178E+01	-4.73109607895E+01	-8.24249554384E+00	-2.83435824932E+01	1.35143691870E+02
1.33850000000E+07	-2.05908810299E+01	-7.67770196092E+01	3.69453155846E+01	-1.15201197858E+01	-4.72831601266E+01	-9.09247051622E+00	-2.82487291559E+01	1.36016078422E+02
1.35800000000E+07	-2.07978042377E+01	-7.64446550330E+01	3.69508666561E+01	-1.21705647432E+01	-4.72684225435E+01	-9.65821388100E+00	-2.82868436527E+01	1.36853020371E+02
1.37750000000E+07	-2.09970302247E+01	-7.59810704967E+01	3.69501445356E+01	-1.28626503450E+01	-4.72191680084E+01	-1.02496016077E+01	-2.82460451861E+01	1.37541806181E+02
1.39700000000E+07	-2.12217478367E+01	-7.56034180114E+01	3.69495840376E+01	-1.35237953111E+01	-4.72511431773E+01	-1.11535691185E+01	-2.82018490912E+01	1.38311897625E+02
1.41650000000E+07	-2.14211487763E+01	-7.51901778089E+01	3.69514936968E+01	-1.41989023996E+01	-4.72830199131E+01	-1.19492239647E+01	-2.81893331118E+01	1.38956495618E+02
1.43600000000E+07	-2.16257395508E+01	-7.47131347929E+01	3.69545965833E+01	-1.48278618787E+01	-4.72702919752E+01	-1.25494453018E+01	-2.81804256547E+01	1.39496666324E+02
1.45550000000E+07	-2.18167572469E+01	-7.42664393167E+01	3.69560076526E+01	-1.54695647709E+01	-4.72082644615E+01	-1.27093243858E+01	-2.81579062118E+01	1.40371874939E+02
1.47500000000E+07	-2.20282336949E+01	-7.37786277224E+01	3.69569598238E+01	-1.61221212647E+01	-4.72098495161E+01	-1.34738612784E+01	-2.81386318873E+01	1.40623589473E+02
1.49450000000E+07	-2.22246336495E+01	-7.32383032528E+01	3.69544486095E+01	-1.67497546533E+01	-4.72040498323E+01	-1.41886762859E+01	-2.81411971549E+01	1.41222644066E+02
1.51400000000E+07	-2.24289816810E+01	-7.25990796740E+01	3.69560178653E+01	-1.73875649832E+01	-4.72554579846E+01	-1.49206310060E+01	-2.80848345091E+01	1.41963042442E+02
1.53350000000E+07	-2.26056261015E+01	-7.21049601634E+01	3.69587364637E+01	-1.80277557630E+01	-4.72081644565E+01	-1.49413394770E+01	-2.80917660316E+01	1.42521994455E+02
1.55300000000E+07	-2.28038441906E+01	-7.13790478745E+01	3.69577622778E+01	-1.86397864174E+01	-4.72100156069E+01	-1.58748795365E+01	-2.80928945749E+01	1.42491896947E+02
1.57250000000E+07	-2.30013864895E+01	-7.07968818155E+01	3.69578069016E+01	-1.92525943972E+01	-4.71749281768E+01	-1.62748154976E+01	-2.80607287693E+01	1.42883516954E+02
1.59200000000E+07	-2.31912413361E+01	-7.00147874921E+01	3.69593352951E+01	-1.98512819963E+01	-4.72004530467E+01	-1.74694785282E+01	-2.80159824963E+01	1.43118139215E+02
1.61150000000E+07	-2.33622545414E+01	-6.92653702866E+01	3.69588126624E+01	-2.04552073838E+01	-4.72521835295E+01	-1.75729348320E+01	-2.80626890505E+01	1.43367357849E+02
1.63100000000E+07	-2.35441767298E+01	-6.85431406630E+01	3.69614954532E+01	-2.10582964618E+01	-4.72516559780E+01	-1.83605188313E+01	-2.79852015458E+01	1.43816991795E+02
1.65050000000E+07	-2.37199715506E+01	-6.77579862942E+01	3.69574974047E+01	-2.16468538117E+01	-4.72504904023E+01	-1.85394002339E+01	-2.80568735853E+01	1.44303227953E+02
1.67000000000E+07	-2.39090973306E+01	-6.69380100687E+01	3.69592464997E+01	-2.22402775694E+01	-4.72487747300E+01	-1.97473352568E+01	-2.80456595243E+01	1.44595042476E+02
1.68950000000E+07	-2.40882536706E+01	-6.61907012691E+01	3.69574623808E+01	-2.28516145402E+01	-4.72307765781E+01	-2.01630764087E+01	-2.80484291282E+01	1.44780232707E+02
1.70900000000E+07	-2.42564144732E+01	-6.51696618195E+01	3.69580432594E+01	-2.34262542643E+01	-4.71809039248E+01	-2.06494666067E+01	-2.80493155892E+01	1.44898494308E+02
1.72850000000E+07	-2.44174836067E+01	-6.43190935701E+01	3.69563853527E+01	-2.40119255020E+01	-4.71537920180E+01	-2.14438021540E+01	-2.80375174810E+01	1.45396480702E+02
1.74800000000E+07	-2.45624013973E+01	-6.34574039623E+01	3.69568067653E+01	-2.45814143354E+01	-4.71929066562E+01	-2.13762491031E+01	-2.80289466946E+01	1.45463272216E+02
1.76750000000E+07	-2.47205082214E+01	-6.24397030362E+01	3.69530074415E+01	-2.51756646324E+01	-4.72247044145E+01	-2.20683212144E+01	-2.81063464352E+01	1.45488411020E+02
1.78700000000E+07	-2.48696156408E+01	-6.14169923263E+01	3.69562900148E+01	-2.57308766604E+01	-4.71848493110E+01	-2.29065778400E+01	-2.80663404608E+01	1.45265890841E+02
1.80650000000E+07	-2.50149037895E+01	-6.03518299435E+01	3.69540763546E+01	-2.62858656756E+01	-4.71912795125E+01	-2.32861989474E+01	-2.80803253854E+01	1.45965002545E+02
1.82600000000E+07	-2.51642526476E+01	-5.93671740198E+01	3.69536222707E+01	-2.68469941356E+01	-4.72047367321E+01	-2.40658629493E+01	-2.81159299592E+01	1.45775537353E+02
1.84550000000E+07	-2.52887789696E+01	-5.81894249273E+01	3.69515300138E+01	-2.74183094805E+01	-4.72205508478E+01	-2.42066315164E+01	-2.81099951398E+01	1.46066147978E+02
1.86500000000E+07	-2.54264493393E+01	-5.71134915397E+01	3.69476203344E+01	-2.79728405367E+01	-4.72028985827E+01	-2.49662806126E+01	-2.81138732019E+01	1.46169315680E+02
1.88450000000E+07	-2.55317194532E+01	-5.59779360778E+01	3.69501417755E+01	-2.85296343221E+01	-4.72337648066E+01	-2.55142780814E+01	-2.81371215664E+01	1.46530699592E+02
1.90400000000E+07	-2.56592847988E+01	-5.47507530674E+01	3.69482247747E+01	-2.91012979852E+01	-4.72334650512E+01	-2.67935527723E+01	-2.81696164045E+01	1.46507618772E+02
1.92350000000E+07	-2.57638921851E+01	-5.35867254099E+01	3.69471958458E+01	-2.96447023114E+01	-4.71834409976E+01	-2.65845926319E+01	-2.82284109540E+01	1.46554405449E+02
1.94300000000E+07	-2.58729855233E+01	-5.24147691678E+01	3.69451574432E+01	-3.01677363588E+01	-4.71736797244E+01	-2.72842518293E+01	-2.82150888906E+01	1.46810706663E+02
1.96250000000E+07	-2.59591526324E+01	-5.12432168278E+01	3.69464533132E+01	-3.07447107955E+01	-4.72010585762E+01	-2.80714804763E+01	-2.82254583967E+01	1.46411448839E+02
1.98200000000E+07	-2.60642836220E+01	-4.99857960108E+01	3.69429772856E+01	-3.12725543406E+01	-4.71777982802E+01	-2.81898253680E+01	-2.82594761478E+01	1.46726202016E+02
2.00150000000E+07	-2.61298080182E+01	-4.86262311686E+01	3.69396855975E+01	-3.18207258742E+01	-4.71894979207E+01	-2.90504362640E+01	-2.83016029208E+01	1.46714105112E+02
2.02100000000E+07	-2.62106960036E+01	-4.74681512113E+01	3.69422740943E+01	-3.23543122587E+01	-4.71591799324E+01	-2.94842149816E+01	-2.83196014270E+01	1.46874045457E+02
2.04050000000E+07	-2.62780618321E+01	-4.62341156616E+01	3.69363384373E+01	-3.28865720518E+01	-4.71523583147E+01	-2.97340435034E+01	-2.83440836850E+01	1.47157090519E+02
2.06000000000E+07	-2.63319229178E+01	-4.50749717107E+01	3.69381718350E+01	-3.34098933073E+01	-4.71934885409E+01	-3.01807864605E+01	-2.83953670916E+01	1.47207087485E+02
2.07950000000E+07	-2.63931677847E+01	-4.37161486242E+01	3.69339364123E+01	-3.39553674170E+01	-4.71647281331E+01	-3.11465600361E+01	-2.83925742370E+01	1.46991279209E+02
2.09900000000E+07	-2.64104110650E+01	-4.24700494831E+01	3.69323879183E+01	-3.44899410819E+01	-4.72242731700E+01	-3.18128805205E+01	-2.84418262318E+01	1.47119691743E+02
2.11850000000E+07	-2.64432303777E+01	-4.13504371917E+01	3.69340399935E+01	-3.50050768947E+01	-4.71984849060E+01	-3.19699811225E+01	-2.84940386273E+01	1.47185740687E+02
2.13800000000E+07	-2.64879290596E+01	-4.00606350713E+01	3.69308016277E+01	-3.55325469425E+01	-4.71546865720E+01	-3.23841813354E+01	-2.85107694789E+01	1.47262980012E+02
2.15750000000E+07	-2.65049197830E+01	-3.89261908100E+01	3.69272558299E+01	-3.60552128191E+01	-4.71862686702E+01	-3.31147474292E+01	-2.85682019907E+01	1.47222072139E+02
2.17700000000E+07	-2.65225798358E+01	-3.75027177315E+01	3.69278857327E+01	-3.65869264439E+01	-4.71005433172E+01	-3.34060644987E+01	-2.85644490854E+01	1.47284845255E+02
2.19650000000E+07	-2.65278933842E+01	-3.63075468365E+01	3.69235307549E+01	-3.70855006332E+01	-4.71308975802E+01	-3.39232660989E+01	-2.86245392032E+01	1.47507872967E+02
2.21600000000E+07	-2.65227708048E+01	-3.52565909812E+01	3.69230618474E+01	-3.76124302329E+01	-4.71682902674E+01	-3.45420569969E+01	-2.87201544193E+01	1.47321449285E+02
2.23550000000E+07	-2.65312508462E+01	-3.40738072931E+01	3.69187249250E+01	-3.81359189567E+01	-4.71531405653E+01	-3.50677574336E+01	-2.87128367853E+01	1.47537659479E+02
2.25500000000E+07	-2.65072618294E+01	-3.28755116993E+01	3.69173423218E+01	-3.86530840737E+01	-4.71332836807E+01	-3.50364163168E+01	-2.88082831033E+01	1.47517331778E+02
2.27450000000E+07	-2.64968429887E+01	-3.17538074463E+01	3.69173519549E+01	-3.91574183763E+01	-4.71574793220E+01	-3.57918351846E+01	-2.88270022854E+01	1.47570555825E+02
2.29400000000E+07	-2.64694521483E+01	-3.05988040003E+01	3.69170365292E+01	-3.96781725608E+01	-4.71509725877E+01	-3.63005315944E+01	-2.88796864905E+01	1.47599400794E+02
2.31350000000E+07	-2.64307924967E+01	-2.95100751635E+01	3.69151624369E+01	-4.01714684486E+01	-4.71085055774E+01	-3.68729180185E+01	-2.89014430583E+01	1.47553932914E+02
2.33300000000E+07	-2.63957301816E+01	-2.85942259360E+01	3.69095170098E+01	-4.06775734617E+01	-4.71434879848E+01	-3.72271153300E+01	-2.90050520151E+01	1.47501228172E+02
2.35250000000E+07	-2.63575622688E+01	-2.74192706010E+01	3.69073086103E+01	-4.11795953642E+01	-4.70956429179E+01	-3.78545229912E+01	-2.90499368645E+01	1.47353312541E+02
2.37200000000E+07	-2.63311372258E+01	-2.65893523899E+01	3.69042870129E+01	-4.16824275426E+01	-4.71060749821E+01	-3.80821277601E+01	-2.91088055096E+01	1.47745189545E+02
2.39150000000E+07	-2.62899736737E+01	-2.56481465817E+01	3.69060959511E+01	-4.21934493240E+01	-4.71440370960E+01	-3.83157576387E+01	-2.91805943900E+01	1.47671914011E+02
2.41100000000E+07	-2.62296844485E+01	-2.45531309111E+01	3.69008904281E+01	-4.26933964251E+01	-4.71204026659E+01	-3.93050202916E+01	-2.92246542370E+01	1.47423615399E+02
2.43050000000E+07	-2.61645499736E+01	-2.36219867438E+01	3.68995965971E+01	-4.31933057994E+01	-4.71372128193E+01	-3.99453013114E+01	-2.92879426878E+01	1.47697827957E+02
2.45000000000E+07	-2.61032187485E+01	-2.27445014109E+01	3.68941346022E+01	-4.36864392046E+01	-4.71234106530E+01	-4.03172332575E+01	-2.93656521860E+01	1.47897270957E+02
2.46950000000E+07	-2.60571729513E+01	-2.19670567669E+01	3.68931197450E+01	-4.41922799636E+01	-4.71053667478E+01	-4.06212704272E+01	-2.94036757825E+01	1.47681209426E+02
2.48900000000E+07	-2.59980034782E+01	-2.10878003737E+01	3.68940882685E+01	-4.46800972041E+01	-4.70959745179E+01	-4.11478390922E+01	-2.94677240129E+01	1.47792557851E+02
2.50850000000E+07	-2.59187806436E+01	-2.03218357259E+01	3.68903471989E+01	-4.51787449923E+01	-4.70988475469E+01	-4.15615985949E+01	-2.95091161286E+01	1.48007216473E+02
2.52800000000E+07	-2.58308641307E+01	-1.96184802257E+01	3.68873781629E+01	-4.56913521034E+01	-4.71051560115E+01	-4.23273850125E+01	-2.96580625252E+01	1.48182846337E+02
2.54750000000E+07	-2.57795662421E+01	-1.88863637738E+01	3.68842605806E+01	-4.61815708800E+01	-4.70894387632E+01	-4.23280789738E+01	-2.96543436357E+01	1.47890143122E+02
2.56700000000E+07	-2.57019368233E+01	-1.81956961021E+01	3.68825146315E+01	-4.66637212295E+01	-4.71227433393E+01	-4.30605864763E+01	-2.97679172531E+01	1.48250303957E+02
2.58650000000E+07	-2.56361613909E+01	-1.74990134945E+01	3.68796974097E+01	-4.71548553824E+01	-4.70467444361E+01	-4.35757647632E+01	-2.98437060879E+01	1.48142433725E+02
2.60600000000E+07	-2.55508046681E+01	-1.68987288073E+01	3.68796402035E+01	-4.76297303597E+01	-4.71124070819E+01	-4.36496306733E+01	-2.99068085906E+01	1.48479508478E+02
2.62550000000E+07	-2.54590604206E+01	-1.62313539450E+01	3.68781332111E+01	-4.81269464311E+01	-4.70863664336E+01	-4.44901775643E+01	-2.99279657172E+01	1.48098304858E+02
2.64500000000E+07	-2.53773358706E+01	-1.56248253220E+01	3.68741389247E+01	-4.86195547808E+01	-4.70640007934E+01	-4.50452688670E+01	-3.00513311818E+01	1.48388618155E+02
2.66450000000E+07	-2.53257672555E+01	-1.52006449381E+01	3.68716598186E+01	-4.90982894351E+01	-4.71105478302E+01	-4.50237043184E+01	-3.01293399880E+01	1.48586817514E+02
2.68400000000E+07	-2.52174958336E+01	-1.45179647602E+01	3.68705168065E+01	-4.95774495872E+01	-4.71120753415E+01	-4.55735148576E+01	-3.02358412923E+01	1.48719656118E+02
2.70350000000E+07	-2.51550372822E+01	-1.41532558186E+01	3.68643029461E+01	-5.00657998767E+01	-4.70913546347E+01	-4.62465519760E+01	-3.02733152904E+01	1.48915262648E+02
2.72300000000E+07	-2.50774028615E+01	-1.35557579178E+01	3.68625811997E+01	-5.05388638279E+01	-4.70836462488E+01	-4.65356946624E+01	-3.03282443663E+01	1.48945765494E+02
2.74250000000E+07	-2.50133045244E+01	-1.30657106705E+01	3.68590242296E+01	-5.10227003618E+01	-4.71034476977E+01	-4.66770314258E+01	-3.04363161281E+01	1.49389900962E+02
2.76200000000E+07	-2.49168800829E+01	-1.26898369677E+01	3.68586338300E+01	-5.15106723882E+01	-4.71024271885E+01	-4.76187014943E+01	-3.05337733838E+01	1.49198477954E+02
