# Hz S DB R 50
! CMT, M5045, 22160017, 22.4.3/2
! Date: 2/26/2023 21:46:20
! Data: Format (Calibration Info)
! Freq	S11:dB/Ang(F2)	S21:dB/Ang(F2)	S12:dB/Ang(F2)	S22:dB/Ang(F2)
5.00000000000E+06	-9.90305737771E+00	-7.53548944488E+01	3.64494182426E+01	3.67876068947E+01	-4.85636718924E+01	3.96308435468E+01	-1.48343796630E+01	7.55049694684E+01
5.19500000000E+06	-1.02587439736E+01	-7.62636899877E+01	3.65311994121E+01	3.46234514341E+01	-4.85939260762E+01	3.78262270276E+01	-1.55014027755E+01	7.50486722541E+01
5.39000000000E+06	-1.05998208468E+01	-7.70672978518E+01	3.66012329584E+01	3.25970742934E+01	-4.84921680632E+01	3.55315951529E+01	-1.61566496115E+01	7.45600761217E+01
5.58500000000E+06	-1.09302971307E+01	-7.78073278111E+01	3.66672401437E+01	3.06541001995E+01	-4.84261888569E+01	3.37269262787E+01	-1.67939372853E+01	7.44290163342E+01
5.78000000000E+06	-1.12528546238E+01	-7.84939338276E+01	3.67221485282E+01	2.88391373027E+01	-4.83615894578E+01	3.22966526715E+01	-1.74275153014E+01	7.43375359298E+01
5.97500000000E+06	-1.15667162545E+01	-7.91830271201E+01	3.67754917642E+01	2.70709826611E+01	-4.83066065897E+01	2.95365907244E+01	-1.80464423764E+01	7.43455230995E+01
6.17000000000E+06	-1.18743109936E+01	-7.97801042965E+01	3.68163938594E+01	2.54062802795E+01	-4.81587872931E+01	2.84205403495E+01	-1.86466145885E+01	7.43945424916E+01
6.36500000000E+06	-1.21738625264E+01	-8.03375839261E+01	3.68625166326E+01	2.38325075368E+01	-4.81857476294E+01	2.67611709790E+01	-1.92497682198E+01	7.48584319214E+01
6.56000000000E+06	-1.24606650468E+01	-8.08445067913E+01	3.68964360661E+01	2.23030872759E+01	-4.81270380730E+01	2.51810620077E+01	-1.98553533758E+01	7.52905669527E+01
6.75500000000E+06	-1.27379807797E+01	-8.13880771257E+01	3.69302992593E+01	2.08436660501E+01	-4.80667866882E+01	2.29638821959E+01	-2.04229603350E+01	7.58329799697E+01
6.95000000000E+06	-1.30170058024E+01	-8.18390504516E+01	3.69594273179E+01	1.94652111493E+01	-4.80011378743E+01	2.24269070096E+01	-2.09946521254E+01	7.64724327234E+01
7.14500000000E+06	-1.32934960709E+01	-8.23333739465E+01	3.69864038804E+01	1.80932937879E+01	-4.80742684402E+01	2.07792638992E+01	-2.15562917860E+01	7.75192189169E+01
7.34000000000E+06	-1.35539007421E+01	-8.26794303599E+01	3.70114828036E+01	1.68159163092E+01	-4.79188119277E+01	2.01211708229E+01	-2.21211566890E+01	7.81786872271E+01
7.53500000000E+06	-1.38065735538E+01	-8.31423433906E+01	3.70373848242E+01	1.55704742705E+01	-4.79270057493E+01	1.83211031781E+01	-2.26407525570E+01	7.92787067961E+01
7.73000000000E+06	-1.40725755735E+01	-8.35182286743E+01	3.70556441028E+01	1.43627991298E+01	-4.79333113960E+01	1.79303871960E+01	-2.31735440037E+01	8.06215931456E+01
7.92500000000E+06	-1.43233238674E+01	-8.39078775588E+01	3.70748094287E+01	1.31963621852E+01	-4.79073993743E+01	1.61368167164E+01	-2.37294131984E+01	8.19836717279E+01
8.12000000000E+06	-1.45637293032E+01	-8.42118834627E+01	3.70941915115E+01	1.20639354182E+01	-4.78312176480E+01	1.49875460150E+01	-2.42294406652E+01	8.32761281775E+01
8.31500000000E+06	-1.48025980468E+01	-8.46137752676E+01	3.71115072705E+01	1.09529418763E+01	-4.78991108880E+01	1.39685454273E+01	-2.47212548404E+01	8.47266585678E+01
8.51000000000E+06	-1.50478671190E+01	-8.49405902306E+01	3.71238585850E+01	9.89955858870E+00	-4.78148826822E+01	1.29674333609E+01	-2.51919822263E+01	8.63521546742E+01
8.70500000000E+06	-1.52825309165E+01	-8.52621708950E+01	3.71428502233E+01	8.86612668237E+00	-4.79052242802E+01	1.13990155573E+01	-2.57059468719E+01	8.85381006226E+01
8.90000000000E+06	-1.55120299433E+01	-8.55283833468E+01	3.71537286231E+01	7.84214168496E+00	-4.77712640781E+01	1.13599219814E+01	-2.61243591511E+01	9.00471446389E+01
9.09500000000E+06	-1.57441965565E+01	-8.58527097776E+01	3.71646766999E+01	6.85546098308E+00	-4.77867955203E+01	9.63251303259E+00	-2.65580882815E+01	9.19855102175E+01
9.29000000000E+06	-1.59648487094E+01	-8.61162114523E+01	3.71746295517E+01	5.92092269224E+00	-4.77636365634E+01	9.05295302949E+00	-2.69710817387E+01	9.41293306414E+01
9.48500000000E+06	-1.62006084088E+01	-8.64376104113E+01	3.71851166420E+01	4.96329710464E+00	-4.77575307190E+01	8.00633958064E+00	-2.74032522948E+01	9.63980930214E+01
9.68000000000E+06	-1.64161131873E+01	-8.66954783674E+01	3.71972536164E+01	4.05205110122E+00	-4.78090642972E+01	6.73334990384E+00	-2.77643714375E+01	9.87004756497E+01
9.87500000000E+06	-1.66410736593E+01	-8.69132341333E+01	3.72057023484E+01	3.15884856574E+00	-4.77557780383E+01	6.27209584464E+00	-2.81601470789E+01	1.00900052224E+02
1.00700000000E+07	-1.68579696943E+01	-8.72468290058E+01	3.72154524051E+01	2.26591348788E+00	-4.77286171496E+01	5.10260076988E+00	-2.84835097324E+01	1.03839645900E+02
1.02650000000E+07	-1.70803692350E+01	-8.74019950478E+01	3.72221278319E+01	1.40016997923E+00	-4.77061202723E+01	4.49858986694E+00	-2.87986326394E+01	1.06483863656E+02
1.04600000000E+07	-1.72935114409E+01	-8.75782301887E+01	3.72305171255E+01	5.54882063451E-01	-4.77895570464E+01	4.05515255960E+00	-2.90452797443E+01	1.09202726246E+02
1.06550000000E+07	-1.75051188232E+01	-8.77646968779E+01	3.72345449366E+01	-2.67968743364E-01	-4.76505999922E+01	2.73816111088E+00	-2.92940471532E+01	1.12399612816E+02
1.08500000000E+07	-1.77001357542E+01	-8.79322634035E+01	3.72438287519E+01	-1.09613336884E+00	-4.76324503634E+01	1.70755588019E+00	-2.94556973202E+01	1.14765830909E+02
1.10450000000E+07	-1.78994141959E+01	-8.81182235056E+01	3.72442769076E+01	-1.89169532108E+00	-4.76466834515E+01	1.44500478800E+00	-2.96548833028E+01	1.17923613698E+02
1.12400000000E+07	-1.80939922544E+01	-8.83284729076E+01	3.72548687853E+01	-2.69223614594E+00	-4.77162808141E+01	6.63340477784E-01	-2.96965637617E+01	1.20181039021E+02
1.14350000000E+07	-1.82913693798E+01	-8.85423496614E+01	3.72600124197E+01	-3.46670909079E+00	-4.76480440333E+01	-3.42488571339E-01	-2.98418044326E+01	1.22526892973E+02
1.16300000000E+07	-1.84796092281E+01	-8.87394916044E+01	3.72678959080E+01	-4.23745331296E+00	-4.76556510302E+01	-1.14872134813E+00	-2.99347863009E+01	1.24686943956E+02
1.18250000000E+07	-1.86696084591E+01	-8.89454359494E+01	3.72697037558E+01	-5.02846015866E+00	-4.77090381622E+01	-2.03103627389E+00	-3.00692438978E+01	1.27191521032E+02
1.20200000000E+07	-1.88614152877E+01	-8.91088219398E+01	3.72776035928E+01	-5.78839408599E+00	-4.76173199113E+01	-3.12702492586E+00	-3.01514948759E+01	1.29531262750E+02
1.22150000000E+07	-1.90419917703E+01	-8.93372996005E+01	3.72821497402E+01	-6.53913156371E+00	-4.76516055083E+01	-3.80657758495E+00	-3.02262009377E+01	1.31636375594E+02
1.24100000000E+07	-1.92525345052E+01	-8.94576978727E+01	3.72796015236E+01	-7.25325604553E+00	-4.76394834479E+01	-4.42886682461E+00	-3.02916831743E+01	1.34247020021E+02
1.26050000000E+07	-1.94391828224E+01	-8.95990318131E+01	3.72816887721E+01	-7.95842038939E+00	-4.76447780512E+01	-4.75844280775E+00	-3.02818291733E+01	1.36398678093E+02
1.28000000000E+07	-1.96359811972E+01	-8.97695398551E+01	3.72858055654E+01	-8.62023586181E+00	-4.76398800299E+01	-5.87219762471E+00	-3.03488641976E+01	1.38621753781E+02
1.29950000000E+07	-1.98132480899E+01	-8.98615153530E+01	3.72913693534E+01	-9.29994650985E+00	-4.76099307200E+01	-6.08157844349E+00	-3.03276323730E+01	1.40380783797E+02
1.31900000000E+07	-2.00036536762E+01	-9.00532999640E+01	3.72943295501E+01	-9.96036541363E+00	-4.76431148041E+01	-7.28170178024E+00	-3.03058893115E+01	1.42567966093E+02
1.33850000000E+07	-2.01923216873E+01	-9.01798693178E+01	3.72959145122E+01	-1.06453570707E+01	-4.76250921371E+01	-7.93994038716E+00	-3.03320800822E+01	1.44036851916E+02
1.35800000000E+07	-2.03857759237E+01	-9.02470508575E+01	3.72997296338E+01	-1.12833340949E+01	-4.76016723132E+01	-8.31559952839E+00	-3.02890088878E+01	1.46065963890E+02
1.37750000000E+07	-2.05661196533E+01	-9.03624517783E+01	3.73067683468E+01	-1.19205342842E+01	-4.76431821812E+01	-9.11667123361E+00	-3.02884441495E+01	1.47897432881E+02
1.39700000000E+07	-2.07441142469E+01	-9.04200059370E+01	3.73095513771E+01	-1.25841787098E+01	-4.75387245723E+01	-9.85556908504E+00	-3.01651326681E+01	1.49570917226E+02
1.41650000000E+07	-2.09361939148E+01	-9.04594502582E+01	3.73118378094E+01	-1.32286181959E+01	-4.76138404567E+01	-1.02687336232E+01	-3.01544839947E+01	1.50988737040E+02
1.43600000000E+07	-2.11184903555E+01	-9.05867023814E+01	3.73163334469E+01	-1.38678877850E+01	-4.75914990113E+01	-1.07901697239E+01	-3.01602547231E+01	1.53073735287E+02
1.45550000000E+07	-2.13173094947E+01	-9.06167834397E+01	3.73182099441E+01	-1.44892076076E+01	-4.76432415567E+01	-1.16383532455E+01	-3.01245801963E+01	1.54157139006E+02
1.47500000000E+07	-2.14826498629E+01	-9.05953293203E+01	3.73212635148E+01	-1.51043743916E+01	-4.76414267804E+01	-1.21636621490E+01	-2.99977067680E+01	1.55609529418E+02
1.49450000000E+07	-2.16747353265E+01	-9.06765056399E+01	3.73226051302E+01	-1.57431296601E+01	-4.75963293094E+01	-1.28249451679E+01	-3.00241916014E+01	1.56640438220E+02
1.51400000000E+07	-2.18544243389E+01	-9.06970767796E+01	3.73254218950E+01	-1.63456183475E+01	-4.75928052048E+01	-1.40544086086E+01	-2.98826765266E+01	1.58184609268E+02
1.53350000000E+07	-2.20449959560E+01	-9.07027445789E+01	3.73279561030E+01	-1.69511427598E+01	-4.76171739229E+01	-1.43212487997E+01	-2.99522324956E+01	1.59553540168E+02
1.55300000000E+07	-2.22272638148E+01	-9.07686000836E+01	3.73302627236E+01	-1.75486997734E+01	-4.75875543944E+01	-1.49172611970E+01	-2.98386286731E+01	1.60545956157E+02
1.57250000000E+07	-2.24016565015E+01	-9.07093227271E+01	3.73289982254E+01	-1.81398723849E+01	-4.76243919932E+01	-1.52130963292E+01	-2.97500464185E+01	1.61770208629E+02
1.59200000000E+07	-2.25890801944E+01	-9.06857514398E+01	3.73367528084E+01	-1.87383069121E+01	-4.76675191156E+01	-1.59838911451E+01	-2.97329900912E+01	1.62804592064E+02
1.61150000000E+07	-2.27763283305E+01	-9.06866975188E+01	3.73311176116E+01	-1.93338061911E+01	-4.75952191895E+01	-1.64180790634E+01	-2.96628781849E+01	1.63772184693E+02
1.63100000000E+07	-2.29479027588E+01	-9.06391635689E+01	3.73342321308E+01	-1.99232131849E+01	-4.76582479129E+01	-1.75129152807E+01	-2.95654044254E+01	1.64799232009E+02
1.65050000000E+07	-2.31251133027E+01	-9.05949433452E+01	3.73384219083E+01	-2.04997435040E+01	-4.75999737021E+01	-1.75980877117E+01	-2.95137773606E+01	1.65694485418E+02
1.67000000000E+07	-2.33201215999E+01	-9.05125173419E+01	3.73385556414E+01	-2.10625672142E+01	-4.76166483708E+01	-1.80836820553E+01	-2.95238972647E+01	1.66679336971E+02
1.68950000000E+07	-2.34877292165E+01	-9.04875172428E+01	3.73423032601E+01	-2.16436985167E+01	-4.76388206239E+01	-1.86682393275E+01	-2.94150592703E+01	1.67497789553E+02
1.70900000000E+07	-2.36727734455E+01	-9.03622382272E+01	3.73445488203E+01	-2.22207717898E+01	-4.75853378209E+01	-1.96107995919E+01	-2.93482091144E+01	1.68234370067E+02
1.72850000000E+07	-2.38590655721E+01	-9.03378782983E+01	3.73457522688E+01	-2.28127301266E+01	-4.76006440355E+01	-2.01493414849E+01	-2.93119292691E+01	1.69097182289E+02
1.74800000000E+07	-2.40344856790E+01	-9.00990587064E+01	3.73438348819E+01	-2.33468728823E+01	-4.76518972079E+01	-2.02849926589E+01	-2.92750957641E+01	1.69747385666E+02
1.76750000000E+07	-2.42270123585E+01	-9.01821875000E+01	3.73439020399E+01	-2.39270055943E+01	-4.75168089729E+01	-2.10601710833E+01	-2.92120760734E+01	1.70712119479E+02
1.78700000000E+07	-2.44075113273E+01	-9.00384342878E+01	3.73488611876E+01	-2.44909028628E+01	-4.76355538417E+01	-2.13131091611E+01	-2.92005655842E+01	1.71638022435E+02
1.80650000000E+07	-2.45780342440E+01	-8.97843211448E+01	3.73491883647E+01	-2.50426641810E+01	-4.76179844317E+01	-2.20603741882E+01	-2.90797066581E+01	1.72136766459E+02
1.82600000000E+07	-2.47553901104E+01	-8.97629694687E+01	3.73494473012E+01	-2.55827401240E+01	-4.75972495395E+01	-2.21776032963E+01	-2.90311035334E+01	1.73286931456E+02
1.84550000000E+07	-2.49413968189E+01	-8.95305186215E+01	3.73506113322E+01	-2.61340520158E+01	-4.75369819628E+01	-2.34281109135E+01	-2.90195472407E+01	1.73665757084E+02
1.86500000000E+07	-2.51279583968E+01	-8.93659593913E+01	3.73502052858E+01	-2.66845208116E+01	-4.76232201214E+01	-2.33655774658E+01	-2.89478509046E+01	1.74349882422E+02
1.88450000000E+07	-2.53013964720E+01	-8.92194077310E+01	3.73529540345E+01	-2.72370927325E+01	-4.75476249368E+01	-2.40667064353E+01	-2.89005416752E+01	1.75162843942E+02
1.90400000000E+07	-2.54954833389E+01	-8.89239048150E+01	3.73537027943E+01	-2.77682277708E+01	-4.75451462588E+01	-2.48923621634E+01	-2.88410954843E+01	1.75657105600E+02
1.92350000000E+07	-2.56822329420E+01	-8.86443566779E+01	3.73509728565E+01	-2.83037889431E+01	-4.76225946026E+01	-2.53310744700E+01	-2.88094154085E+01	1.75885877219E+02
1.94300000000E+07	-2.58539420328E+01	-8.85793303980E+01	3.73547731863E+01	-2.88444574117E+01	-4.75750610521E+01	-2.59121218433E+01	-2.87508923904E+01	1.76415365291E+02
1.96250000000E+07	-2.60348083460E+01	-8.82783623337E+01	3.73554464089E+01	-2.93896507126E+01	-4.75369691236E+01	-2.61451118686E+01	-2.86873622700E+01	1.77555546410E+02
1.98200000000E+07	-2.62138854614E+01	-8.80441622487E+01	3.73579712456E+01	-2.99124552648E+01	-4.76154574456E+01	-2.66043289947E+01	-2.86982106358E+01	1.77874960263E+02
2.00150000000E+07	-2.64014671590E+01	-8.77670879392E+01	3.73554069674E+01	-3.04523571335E+01	-4.75922501688E+01	-2.71371484366E+01	-2.85899235403E+01	1.78720094788E+02
2.02100000000E+07	-2.65630723703E+01	-8.73130993007E+01	3.73559916202E+01	-3.09520763568E+01	-4.75764581067E+01	-2.77109330625E+01	-2.85718074154E+01	1.79120183527E+02
2.04050000000E+07	-2.67613891427E+01	-8.70895993533E+01	3.73589267222E+01	-3.14906858070E+01	-4.75764858018E+01	-2.84363749031E+01	-2.85608670335E+01	1.79700561471E+02
2.06000000000E+07	-2.69363090197E+01	-8.67680530481E+01	3.73559997293E+01	-3.20102814231E+01	-4.76113030096E+01	-2.89905441484E+01	-2.84945072534E+01	-1.79910895772E+02
2.07950000000E+07	-2.71232834643E+01	-8.62651158889E+01	3.73614463585E+01	-3.25245128568E+01	-4.76230085801E+01	-2.92539824735E+01	-2.84317750241E+01	-1.79611357364E+02
2.09900000000E+07	-2.73153450394E+01	-8.58881290581E+01	3.73590904667E+01	-3.30519053575E+01	-4.75977931931E+01	-2.96473994804E+01	-2.84435438959E+01	-1.78939192686E+02
2.11850000000E+07	-2.74865078508E+01	-8.55399017143E+01	3.73595226167E+01	-3.35799277562E+01	-4.75611567501E+01	-3.00881970882E+01	-2.83425189219E+01	-1.78640038110E+02
2.13800000000E+07	-2.76782726051E+01	-8.51183884950E+01	3.73614853532E+01	-3.40740487204E+01	-4.75349469815E+01	-3.11978890291E+01	-2.83031413062E+01	-1.78348792193E+02
2.15750000000E+07	-2.78558581957E+01	-8.47468592221E+01	3.73629887104E+01	-3.45991045629E+01	-4.75756155828E+01	-3.16369742114E+01	-2.82899787585E+01	-1.77670653449E+02
2.17700000000E+07	-2.80450829375E+01	-8.42760895671E+01	3.73615658896E+01	-3.51371586373E+01	-4.75555616671E+01	-3.19055471803E+01	-2.82651021498E+01	-1.77129706052E+02
2.19650000000E+07	-2.82416254677E+01	-8.37369593448E+01	3.73595940139E+01	-3.56259582926E+01	-4.76088627770E+01	-3.22661569420E+01	-2.82343662752E+01	-1.76955340279E+02
2.21600000000E+07	-2.83706068255E+01	-8.33594500089E+01	3.73610822206E+01	-3.61323202872E+01	-4.76644266075E+01	-3.28996770122E+01	-2.81884957427E+01	-1.76446225672E+02
2.23550000000E+07	-2.85779507321E+01	-8.28526578402E+01	3.73626061868E+01	-3.66235657999E+01	-4.75638665735E+01	-3.32471484414E+01	-2.81025335870E+01	-1.75725743122E+02
2.25500000000E+07	-2.87547772047E+01	-8.21841021963E+01	3.73620972602E+01	-3.71563476795E+01	-4.76201997215E+01	-3.39014956979E+01	-2.80933014574E+01	-1.75338018360E+02
2.27450000000E+07	-2.89322596008E+01	-8.15596968001E+01	3.73634433111E+01	-3.76575569707E+01	-4.75742947695E+01	-3.44160580936E+01	-2.80183166973E+01	-1.75073587557E+02
2.29400000000E+07	-2.90998561094E+01	-8.10154005184E+01	3.73650423998E+01	-3.81410940245E+01	-4.76128494452E+01	-3.42764334563E+01	-2.79882758823E+01	-1.74249016199E+02
2.31350000000E+07	-2.92829878046E+01	-8.03437667750E+01	3.73649637116E+01	-3.86454840561E+01	-4.75743878594E+01	-3.50237174810E+01	-2.79403591377E+01	-1.74444669216E+02
2.33300000000E+07	-2.94444417201E+01	-7.96974550502E+01	3.73635774260E+01	-3.91359178976E+01	-4.76312783809E+01	-3.54377847875E+01	-2.79069673839E+01	-1.73568005457E+02
2.35250000000E+07	-2.96430294478E+01	-7.89503698518E+01	3.73608383692E+01	-3.96512332570E+01	-4.76048668293E+01	-3.56213873030E+01	-2.78765877262E+01	-1.73090257033E+02
2.37200000000E+07	-2.97913440580E+01	-7.82944218496E+01	3.73610097114E+01	-4.01473398568E+01	-4.76188417801E+01	-3.64433331093E+01	-2.78828713352E+01	-1.72917621144E+02
2.39150000000E+07	-2.99713290390E+01	-7.75811922713E+01	3.73588951649E+01	-4.06283794175E+01	-4.76210371874E+01	-3.67753971089E+01	-2.78558172277E+01	-1.72512931425E+02
2.41100000000E+07	-3.01539945075E+01	-7.67855808741E+01	3.73636163785E+01	-4.11393017780E+01	-4.75768936272E+01	-3.73954125775E+01	-2.77911730186E+01	-1.72094742281E+02
2.43050000000E+07	-3.03437955296E+01	-7.59151599922E+01	3.73619267519E+01	-4.16247631885E+01	-4.76189400263E+01	-3.83011918806E+01	-2.77626939608E+01	-1.71668353552E+02
2.45000000000E+07	-3.04741468996E+01	-7.51284624870E+01	3.73621701608E+01	-4.21151838779E+01	-4.75504795229E+01	-3.83072002047E+01	-2.77241300246E+01	-1.71483104848E+02
2.46950000000E+07	-3.06348351784E+01	-7.43338450283E+01	3.73601045946E+01	-4.26024770396E+01	-4.76219372390E+01	-3.91739642984E+01	-2.76900442833E+01	-1.71121201559E+02
2.48900000000E+07	-3.07874746925E+01	-7.33996450221E+01	3.73639900984E+01	-4.30864447410E+01	-4.76367479990E+01	-3.94651102993E+01	-2.76533373603E+01	-1.70856074724E+02
2.50850000000E+07	-3.09901352207E+01	-7.23739057792E+01	3.73632395858E+01	-4.35775655697E+01	-4.75507086865E+01	-3.98740634160E+01	-2.76242306530E+01	-1.70621740086E+02
2.52800000000E+07	-3.11256883470E+01	-7.13756363624E+01	3.73601913783E+01	-4.40659237383E+01	-4.75791736976E+01	-3.99616415197E+01	-2.75875632533E+01	-1.70017818560E+02
2.54750000000E+07	-3.12724929607E+01	-7.04830671985E+01	3.73619012002E+01	-4.45443544989E+01	-4.76012440416E+01	-4.06084319995E+01	-2.75772925066E+01	-1.69440511664E+02
2.56700000000E+07	-3.14187358939E+01	-6.95568891787E+01	3.73597834242E+01	-4.50420304133E+01	-4.75788280956E+01	-4.11008198290E+01	-2.74933633889E+01	-1.69192701153E+02
2.58650000000E+07	-3.15622881140E+01	-6.84425007421E+01	3.73630553962E+01	-4.55310574090E+01	-4.76062182856E+01	-4.17711429845E+01	-2.74699323069E+01	-1.69044257424E+02
2.60600000000E+07	-3.16709011317E+01	-6.74728079152E+01	3.73588442102E+01	-4.60131753104E+01	-4.76903742598E+01	-4.18675438380E+01	-2.74506054493E+01	-1.68328670854E+02
2.62550000000E+07	-3.18600152172E+01	-6.61326063132E+01	3.73584328285E+01	-4.64814152173E+01	-4.75702740335E+01	-4.26879871576E+01	-2.74174283586E+01	-1.68283016142E+02
2.64500000000E+07	-3.19613373005E+01	-6.49449290032E+01	3.73597780610E+01	-4.69694268164E+01	-4.76080146541E+01	-4.31971120531E+01	-2.74199644719E+01	-1.68089881015E+02
2.66450000000E+07	-3.20599868156E+01	-6.37572643209E+01	3.73634222540E+01	-4.74370336434E+01	-4.75688801913E+01	-4.39874260146E+01	-2.73764236541E+01	-1.67687505179E+02
2.68400000000E+07	-3.22015464014E+01	-6.26838836597E+01	3.73630250401E+01	-4.79218486177E+01	-4.76145277140E+01	-4.40493949048E+01	-2.72856461330E+01	-1.67607413991E+02
2.70350000000E+07	-3.22796020031E+01	-6.15368527065E+01	3.73611465672E+01	-4.83968775920E+01	-4.75986663600E+01	-4.44093889560E+01	-2.72831084453E+01	-1.66871538014E+02
2.72300000000E+07	-3.23961241572E+01	-6.03159635178E+01	3.73605185793E+01	-4.88853183591E+01	-4.76313658279E+01	-4.49484096074E+01	-2.72261058075E+01	-1.66953358592E+02
2.74250000000E+07	-3.25104219558E+01	-5.89661744144E+01	3.73613313236E+01	-4.93521519565E+01	-4.76642498628E+01	-4.53508345354E+01	-2.71962376287E+01	-1.66680236393E+02
2.76200000000E+07	-3.25766735198E+01	-5.77598012846E+01	3.73596166063E+01	-4.98361166491E+01	-4.76126433807E+01	-4.61185818794E+01	-2.71820809570E+01	-1.66362110094E+02
