# Hz S DB R 50
! CMT, M5045, 22160017, 22.3.3/2
! Date: 10/8/2022 17:44:39
! Data: Format (Calibration Info)
! Freq	S11:dB/Ang(F2)	S21:dB/Ang(F2)	S12:dB/Ang(F2)	S22:dB/Ang(F2)
5.00000000000E+06	-1.01693791902E+01	-9.12148314041E+01	3.64501443906E+01	-1.49695363260E+02	-4.85370800086E+01	-1.46752391793E+02	-1.40742848011E+01	6.85545003357E+01
5.19500000000E+06	-1.05150290222E+01	-9.26229115298E+01	3.65215707469E+01	-1.51945860100E+02	-4.84603001653E+01	-1.49037089953E+02	-1.46420574474E+01	6.73596215312E+01
5.39000000000E+06	-1.08432631142E+01	-9.39947024954E+01	3.65856173570E+01	-1.54112450328E+02	-4.83962900271E+01	-1.51254255816E+02	-1.51997837162E+01	6.62748414378E+01
5.58500000000E+06	-1.11625308897E+01	-9.53157218300E+01	3.66437604748E+01	-1.56195557751E+02	-4.83323829253E+01	-1.53351075481E+02	-1.57450327679E+01	6.52827351734E+01
5.78000000000E+06	-1.14647475607E+01	-9.66049586707E+01	3.66965920300E+01	-1.58161782302E+02	-4.82701945873E+01	-1.55270040221E+02	-1.62798886352E+01	6.43633661045E+01
5.97500000000E+06	-1.17654042928E+01	-9.77413667998E+01	3.67391889591E+01	-1.60024857834E+02	-4.82188373775E+01	-1.57170860384E+02	-1.68063092755E+01	6.35041612494E+01
6.17000000000E+06	-1.20479067245E+01	-9.89842362198E+01	3.67791199731E+01	-1.61829251558E+02	-4.81728378534E+01	-1.58956597377E+02	-1.73227180676E+01	6.27331476694E+01
6.36500000000E+06	-1.23224510127E+01	-1.00111586600E+02	3.68200837328E+01	-1.63564819163E+02	-4.81381532082E+01	-1.60706150379E+02	-1.78326318344E+01	6.19921930638E+01
6.56000000000E+06	-1.25902719097E+01	-1.01228434054E+02	3.68558828732E+01	-1.65231515635E+02	-4.80918514013E+01	-1.62366747876E+02	-1.83335458037E+01	6.13198534135E+01
6.75500000000E+06	-1.28546978839E+01	-1.02280272754E+02	3.68817636346E+01	-1.66817289131E+02	-4.80603475989E+01	-1.63994100488E+02	-1.88259621247E+01	6.06861604593E+01
6.95000000000E+06	-1.31107970448E+01	-1.03342026387E+02	3.69107217543E+01	-1.68359544682E+02	-4.80299168870E+01	-1.65491105352E+02	-1.93175494969E+01	6.01124562948E+01
7.14500000000E+06	-1.33557463093E+01	-1.04381202398E+02	3.69336094344E+01	-1.69831561516E+02	-4.79966641485E+01	-1.66977328866E+02	-1.98032481155E+01	5.95736444103E+01
7.34000000000E+06	-1.35977791927E+01	-1.05387064325E+02	3.69556362870E+01	-1.71295923802E+02	-4.79737651194E+01	-1.68397554138E+02	-2.02843223489E+01	5.90447335344E+01
7.53500000000E+06	-1.38303542439E+01	-1.06398617360E+02	3.69753899207E+01	-1.72697931482E+02	-4.79496047668E+01	-1.69807394371E+02	-2.07611318935E+01	5.85975545911E+01
7.73000000000E+06	-1.40582685250E+01	-1.07362499341E+02	3.69930235311E+01	-1.74041700354E+02	-4.79238752134E+01	-1.71166943485E+02	-2.12332720714E+01	5.81654514874E+01
7.92500000000E+06	-1.42802236396E+01	-1.08324644276E+02	3.70107143341E+01	-1.75372899669E+02	-4.79007560012E+01	-1.72483021152E+02	-2.17039702388E+01	5.77437672558E+01
8.12000000000E+06	-1.44936973200E+01	-1.09313801450E+02	3.70294100639E+01	-1.76674875030E+02	-4.78824022513E+01	-1.73747746635E+02	-2.21740037128E+01	5.73937514766E+01
8.31500000000E+06	-1.47047292612E+01	-1.10279152431E+02	3.70425977704E+01	-1.77909237962E+02	-4.78628594051E+01	-1.75006835206E+02	-2.26432168351E+01	5.70374306328E+01
8.51000000000E+06	-1.49218827879E+01	-1.11240103062E+02	3.70538167331E+01	-1.79140976005E+02	-4.78488466815E+01	-1.76200532430E+02	-2.31173372504E+01	5.67162432586E+01
8.70500000000E+06	-1.51275501187E+01	-1.12120808117E+02	3.70666439974E+01	1.79685872752E+02	-4.78300768321E+01	-1.77386310648E+02	-2.35904165306E+01	5.64124921536E+01
8.90000000000E+06	-1.53159130153E+01	-1.13021347136E+02	3.70816454801E+01	1.78515328621E+02	-4.78195055492E+01	-1.78509864049E+02	-2.40588858368E+01	5.61282316812E+01
9.09500000000E+06	-1.55236583945E+01	-1.14001878451E+02	3.70907127272E+01	1.77338215137E+02	-4.78081121513E+01	-1.79640509523E+02	-2.45351269895E+01	5.58787298926E+01
9.29000000000E+06	-1.57121739925E+01	-1.14838687232E+02	3.70998817916E+01	1.76249506401E+02	-4.77928750210E+01	1.79211551145E+02	-2.50171339882E+01	5.56605657526E+01
9.48500000000E+06	-1.59038350612E+01	-1.15805809562E+02	3.71083161457E+01	1.75140823460E+02	-4.77901641091E+01	1.78134707959E+02	-2.55007071168E+01	5.54542033656E+01
9.68000000000E+06	-1.60950523549E+01	-1.16646793204E+02	3.71151086587E+01	1.74070700015E+02	-4.77762308253E+01	1.77072506045E+02	-2.59978963807E+01	5.52705467587E+01
9.87500000000E+06	-1.62814080431E+01	-1.17583216139E+02	3.71249290948E+01	1.73011209794E+02	-4.77633235535E+01	1.76035000066E+02	-2.64951319062E+01	5.51158639295E+01
1.00700000000E+07	-1.64560947715E+01	-1.18432205632E+02	3.71335546553E+01	1.71964736131E+02	-4.77572035706E+01	1.75010375342E+02	-2.70311103827E+01	5.49197750713E+01
1.02650000000E+07	-1.66485901153E+01	-1.19355108984E+02	3.71385872346E+01	1.70940710453E+02	-4.77476977405E+01	1.73988721245E+02	-2.75745760855E+01	5.50289416549E+01
1.04600000000E+07	-1.68274542903E+01	-1.20168337015E+02	3.71440265173E+01	1.69928554924E+02	-4.77318650300E+01	1.73036381929E+02	-2.81177645308E+01	5.51832373089E+01
1.06550000000E+07	-1.70054441939E+01	-1.20986425744E+02	3.71448363245E+01	1.68974139015E+02	-4.77279546153E+01	1.71999513000E+02	-2.86573611249E+01	5.54280000168E+01
1.08500000000E+07	-1.71736368058E+01	-1.21817056799E+02	3.71501016796E+01	1.67999786557E+02	-4.77199819588E+01	1.71048791995E+02	-2.91983399964E+01	5.57668421018E+01
1.10450000000E+07	-1.73384032706E+01	-1.22625403797E+02	3.71524634921E+01	1.67028835401E+02	-4.77102267232E+01	1.70014583793E+02	-2.97315318821E+01	5.61238988612E+01
1.12400000000E+07	-1.75007547749E+01	-1.23462386118E+02	3.71584357843E+01	1.66088936009E+02	-4.77042416006E+01	1.69071891522E+02	-3.02869750178E+01	5.65230794637E+01
1.14350000000E+07	-1.76545643369E+01	-1.24257899250E+02	3.71629854839E+01	1.65160871739E+02	-4.76920987691E+01	1.68101815841E+02	-3.08523371835E+01	5.69805824901E+01
1.16300000000E+07	-1.78179308736E+01	-1.25176576636E+02	3.71641100670E+01	1.64232394753E+02	-4.76941127534E+01	1.67162593475E+02	-3.14403152126E+01	5.74312255657E+01
1.18250000000E+07	-1.79658258058E+01	-1.25972420543E+02	3.71754017375E+01	1.63273034945E+02	-4.76809602530E+01	1.66215466592E+02	-3.20326327515E+01	5.79952534236E+01
1.20200000000E+07	-1.81192266611E+01	-1.26831517181E+02	3.71774307290E+01	1.62358375051E+02	-4.76750621254E+01	1.65262019943E+02	-3.26526508411E+01	5.86493793219E+01
1.22150000000E+07	-1.82768578519E+01	-1.27714064801E+02	3.71776176753E+01	1.61445772690E+02	-4.76733936519E+01	1.64338622599E+02	-3.32987793009E+01	5.94646892802E+01
1.24100000000E+07	-1.84263750464E+01	-1.28481248319E+02	3.71754714690E+01	1.60569275933E+02	-4.76715251683E+01	1.63428861255E+02	-3.39688981176E+01	6.04294739863E+01
1.26050000000E+07	-1.85732804291E+01	-1.29364765580E+02	3.71842517914E+01	1.59673690254E+02	-4.76700709179E+01	1.62599959806E+02	-3.46842324771E+01	6.15400361378E+01
1.28000000000E+07	-1.87241962199E+01	-1.30138210933E+02	3.71876897058E+01	1.58814279085E+02	-4.76601217709E+01	1.61681955436E+02	-3.54011753855E+01	6.28886206064E+01
1.29950000000E+07	-1.88727909037E+01	-1.30988589151E+02	3.71858403044E+01	1.57977766701E+02	-4.76643937530E+01	1.60777330897E+02	-3.61553586604E+01	6.46699138814E+01
1.31900000000E+07	-1.90193766287E+01	-1.31781955310E+02	3.71866413969E+01	1.57151588680E+02	-4.76585526329E+01	1.59895614881E+02	-3.69685720247E+01	6.66581780594E+01
1.33850000000E+07	-1.91673928016E+01	-1.32670870159E+02	3.71870520618E+01	1.56309246417E+02	-4.76527582033E+01	1.59073677924E+02	-3.77848779094E+01	6.91966099875E+01
1.35800000000E+07	-1.93028756202E+01	-1.33431469462E+02	3.71960912801E+01	1.55505818370E+02	-4.76527729889E+01	1.58270370938E+02	-3.86800974959E+01	7.22339623873E+01
1.37750000000E+07	-1.94479811844E+01	-1.34162932307E+02	3.71945522696E+01	1.54652646675E+02	-4.76522006956E+01	1.57442830265E+02	-3.95540969810E+01	7.58986030254E+01
1.39700000000E+07	-1.95807558170E+01	-1.34888661464E+02	3.71985628246E+01	1.53866067796E+02	-4.76500762757E+01	1.56635731868E+02	-4.04637370340E+01	8.02229070754E+01
1.41650000000E+07	-1.97113029236E+01	-1.35622338707E+02	3.72036173266E+01	1.53095478664E+02	-4.76486817478E+01	1.55824691692E+02	-4.13537318331E+01	8.58601995288E+01
1.43600000000E+07	-1.98540515319E+01	-1.36438359771E+02	3.71995943571E+01	1.52265834415E+02	-4.76466130663E+01	1.55022916702E+02	-4.21941993078E+01	9.23701149574E+01
1.45550000000E+07	-1.99761549470E+01	-1.37241531262E+02	3.72058751390E+01	1.51456712578E+02	-4.76442810169E+01	1.54223256416E+02	-4.29832127107E+01	1.00349822956E+02
1.47500000000E+07	-2.01207106184E+01	-1.38022969290E+02	3.72056263686E+01	1.50688524791E+02	-4.76429429663E+01	1.53445862717E+02	-4.35426391276E+01	1.09370436626E+02
1.49450000000E+07	-2.02436115392E+01	-1.38636958126E+02	3.72108972880E+01	1.49892642569E+02	-4.76356539810E+01	1.52655842688E+02	-4.39222985164E+01	1.19199247937E+02
1.51400000000E+07	-2.03772386409E+01	-1.39433363908E+02	3.72097190747E+01	1.49109434763E+02	-4.76346991091E+01	1.51917047487E+02	-4.39684852350E+01	1.29249013417E+02
1.53350000000E+07	-2.05027769666E+01	-1.40131591977E+02	3.72135387421E+01	1.48361914399E+02	-4.76372741905E+01	1.51101431386E+02	-4.37546425897E+01	1.39046493956E+02
1.55300000000E+07	-2.06532254202E+01	-1.40950723414E+02	3.72103199426E+01	1.47565141567E+02	-4.76337434849E+01	1.50360154925E+02	-4.33307176538E+01	1.47687342074E+02
1.57250000000E+07	-2.07600476577E+01	-1.41682773889E+02	3.72112829736E+01	1.46793611366E+02	-4.76360861330E+01	1.49575725014E+02	-4.27293069162E+01	1.55212904867E+02
1.59200000000E+07	-2.08902073187E+01	-1.42391920935E+02	3.72158766275E+01	1.46044519349E+02	-4.76300613602E+01	1.48833799321E+02	-4.20480947140E+01	1.61646687210E+02
1.61150000000E+07	-2.10281168785E+01	-1.42994031243E+02	3.72148487970E+01	1.45295946153E+02	-4.76294095749E+01	1.48091292762E+02	-4.13258993874E+01	1.66734163368E+02
1.63100000000E+07	-2.11378507780E+01	-1.43803884015E+02	3.72169411888E+01	1.44522319497E+02	-4.76277300885E+01	1.47330251492E+02	-4.06680202923E+01	1.71021724737E+02
1.65050000000E+07	-2.12519046158E+01	-1.44535585216E+02	3.72214436735E+01	1.43764788480E+02	-4.76248713862E+01	1.46628379693E+02	-3.99548948192E+01	1.74726278859E+02
1.67000000000E+07	-2.13910358316E+01	-1.45131781365E+02	3.72214948476E+01	1.43031914551E+02	-4.76320964630E+01	1.45889348653E+02	-3.92873767714E+01	1.77603201149E+02
1.68950000000E+07	-2.14855112354E+01	-1.45797322426E+02	3.72251336924E+01	1.42306009620E+02	-4.76275640374E+01	1.45133973697E+02	-3.86526613785E+01	-1.79973963519E+02
1.70900000000E+07	-2.16097285951E+01	-1.46504042031E+02	3.72239437306E+01	1.41545316525E+02	-4.76229359708E+01	1.44430221974E+02	-3.80728713785E+01	-1.78026549032E+02
1.72850000000E+07	-2.17233479357E+01	-1.47185603389E+02	3.72261915668E+01	1.40816196114E+02	-4.76225766428E+01	1.43701297400E+02	-3.75138712817E+01	-1.76381185109E+02
1.74800000000E+07	-2.18418648086E+01	-1.47881455518E+02	3.72244567950E+01	1.40091710998E+02	-4.76204478174E+01	1.42981758248E+02	-3.70054656760E+01	-1.75006431737E+02
1.76750000000E+07	-2.19676976280E+01	-1.48530606976E+02	3.72252214647E+01	1.39357779465E+02	-4.76231829770E+01	1.42261886934E+02	-3.65109505323E+01	-1.73875440915E+02
1.78700000000E+07	-2.20783097284E+01	-1.49215115577E+02	3.72291239118E+01	1.38612027106E+02	-4.76201044680E+01	1.41563682827E+02	-3.60621692834E+01	-1.72911017149E+02
1.80650000000E+07	-2.21919005332E+01	-1.49862290168E+02	3.72266801542E+01	1.37897475829E+02	-4.76216918068E+01	1.40804240103E+02	-3.56289492500E+01	-1.72097345205E+02
1.82600000000E+07	-2.22883697046E+01	-1.50614579772E+02	3.72304935162E+01	1.37160971545E+02	-4.76183811894E+01	1.40141610030E+02	-3.52163023475E+01	-1.71401489732E+02
1.84550000000E+07	-2.24086847715E+01	-1.51240795739E+02	3.72312666790E+01	1.36477572278E+02	-4.76172824005E+01	1.39436833070E+02	-3.48357888938E+01	-1.70793853678E+02
1.86500000000E+07	-2.25323321291E+01	-1.51946612551E+02	3.72260269009E+01	1.35754348093E+02	-4.76175457849E+01	1.38732685736E+02	-3.44742790078E+01	-1.70347915036E+02
1.88450000000E+07	-2.26347050520E+01	-1.52592396471E+02	3.72294985665E+01	1.35045384704E+02	-4.76137046931E+01	1.38032800720E+02	-3.41059405477E+01	-1.69843830055E+02
1.90400000000E+07	-2.27385104441E+01	-1.53297880224E+02	3.72314323261E+01	1.34320097492E+02	-4.76144145820E+01	1.37355794825E+02	-3.37776502390E+01	-1.69600646619E+02
1.92350000000E+07	-2.28482103569E+01	-1.53837779828E+02	3.72341733255E+01	1.33618652808E+02	-4.76138749050E+01	1.36664707434E+02	-3.34501610036E+01	-1.69310136449E+02
1.94300000000E+07	-2.29680596653E+01	-1.54524018236E+02	3.72352353537E+01	1.32905589656E+02	-4.76132502912E+01	1.35962675238E+02	-3.31559245310E+01	-1.69057264422E+02
1.96250000000E+07	-2.30680267261E+01	-1.55116942609E+02	3.72339730095E+01	1.32189503176E+02	-4.76189555850E+01	1.35282922840E+02	-3.28635351470E+01	-1.68853513391E+02
1.98200000000E+07	-2.31601225742E+01	-1.55803245374E+02	3.72367899766E+01	1.31485002819E+02	-4.76175714760E+01	1.34607895079E+02	-3.25887432918E+01	-1.68782671910E+02
2.00150000000E+07	-2.32620611101E+01	-1.56400209515E+02	3.72309393150E+01	1.30797152789E+02	-4.76143652072E+01	1.33916379488E+02	-3.23173166194E+01	-1.68701341351E+02
2.02100000000E+07	-2.33740195174E+01	-1.57067169225E+02	3.72341874867E+01	1.30083511304E+02	-4.76152265942E+01	1.33251116870E+02	-3.20583679920E+01	-1.68609475709E+02
2.04050000000E+07	-2.34462542257E+01	-1.57582219697E+02	3.72377849346E+01	1.29422429346E+02	-4.76145246836E+01	1.32540943378E+02	-3.18045095687E+01	-1.68633539069E+02
2.06000000000E+07	-2.35540278075E+01	-1.58230478566E+02	3.72384706325E+01	1.28703436633E+02	-4.76181696966E+01	1.31866454382E+02	-3.15750495580E+01	-1.68606661718E+02
2.07950000000E+07	-2.36796762161E+01	-1.58851613445E+02	3.72388776909E+01	1.28018949662E+02	-4.76154686567E+01	1.31204906018E+02	-3.13450069464E+01	-1.68680046854E+02
2.09900000000E+07	-2.37774745926E+01	-1.59474288713E+02	3.72390318725E+01	1.27334591260E+02	-4.76117141471E+01	1.30568312707E+02	-3.11191426150E+01	-1.68712751493E+02
2.11850000000E+07	-2.38659302008E+01	-1.60049689173E+02	3.72363821670E+01	1.26635910425E+02	-4.76146812450E+01	1.29945943787E+02	-3.09073925862E+01	-1.68778952833E+02
2.13800000000E+07	-2.39500068354E+01	-1.60721236043E+02	3.72404275012E+01	1.25951318204E+02	-4.76152940924E+01	1.29220284446E+02	-3.06978174053E+01	-1.68902731816E+02
2.15750000000E+07	-2.40606921028E+01	-1.61276292419E+02	3.72385834750E+01	1.25261505002E+02	-4.76091607062E+01	1.28560071555E+02	-3.04982989569E+01	-1.69007593135E+02
2.17700000000E+07	-2.41578120035E+01	-1.61812796526E+02	3.72391476794E+01	1.24558058364E+02	-4.76078788891E+01	1.27892579446E+02	-3.03082783701E+01	-1.69140409640E+02
2.19650000000E+07	-2.42582569466E+01	-1.62513259676E+02	3.72385300649E+01	1.23874436385E+02	-4.76087830540E+01	1.27212385802E+02	-3.01276474968E+01	-1.69321946088E+02
2.21600000000E+07	-2.43608160685E+01	-1.63129316229E+02	3.72401178380E+01	1.23223819213E+02	-4.76129088564E+01	1.26622578124E+02	-2.99444978199E+01	-1.69480597772E+02
2.23550000000E+07	-2.44411859672E+01	-1.63724868152E+02	3.72403586726E+01	1.22548094966E+02	-4.76130702131E+01	1.25919969720E+02	-2.97662517623E+01	-1.69679260517E+02
2.25500000000E+07	-2.45275561677E+01	-1.64201781137E+02	3.72434693524E+01	1.21864558271E+02	-4.76119611488E+01	1.25286873928E+02	-2.95970509506E+01	-1.69861286564E+02
2.27450000000E+07	-2.46161486970E+01	-1.64851517097E+02	3.72372256440E+01	1.21199285644E+02	-4.76124827984E+01	1.24616387075E+02	-2.94336821548E+01	-1.70072611254E+02
2.29400000000E+07	-2.47014847491E+01	-1.65405422786E+02	3.72358301375E+01	1.20493403545E+02	-4.76127056129E+01	1.23966630323E+02	-2.92701097255E+01	-1.70275881376E+02
2.31350000000E+07	-2.48070217736E+01	-1.65997793982E+02	3.72387364661E+01	1.19833631836E+02	-4.76103992837E+01	1.23308681936E+02	-2.91196751882E+01	-1.70517590301E+02
2.33300000000E+07	-2.49022999251E+01	-1.66452984240E+02	3.72369878965E+01	1.19165253276E+02	-4.76134561821E+01	1.22662968327E+02	-2.89670247155E+01	-1.70737129944E+02
2.35250000000E+07	-2.49797242916E+01	-1.67116065577E+02	3.72397034269E+01	1.18490403937E+02	-4.76091773221E+01	1.22019440757E+02	-2.88218284317E+01	-1.70988454586E+02
2.37200000000E+07	-2.50925649685E+01	-1.67771374648E+02	3.72362149092E+01	1.17836761535E+02	-4.76117168289E+01	1.21376539712E+02	-2.86762223592E+01	-1.71237563168E+02
2.39150000000E+07	-2.51496046775E+01	-1.68210136850E+02	3.72417818821E+01	1.17173213603E+02	-4.76143717654E+01	1.20679838900E+02	-2.85303004321E+01	-1.71492562826E+02
2.41100000000E+07	-2.52462760668E+01	-1.68876508687E+02	3.72420557264E+01	1.16477398546E+02	-4.76124357690E+01	1.20062532092E+02	-2.83961591797E+01	-1.71767087647E+02
2.43050000000E+07	-2.53379632611E+01	-1.69539577737E+02	3.72400244699E+01	1.15808849958E+02	-4.76082039001E+01	1.19426016270E+02	-2.82590051710E+01	-1.72035709820E+02
2.45000000000E+07	-2.54297645332E+01	-1.70012651362E+02	3.72377252417E+01	1.15166942586E+02	-4.76119704304E+01	1.18785773757E+02	-2.81279753611E+01	-1.72308104898E+02
2.46950000000E+07	-2.55102966660E+01	-1.70531279942E+02	3.72380302011E+01	1.14490853296E+02	-4.76125751343E+01	1.18180433491E+02	-2.80002344179E+01	-1.72576940316E+02
2.48900000000E+07	-2.55985895873E+01	-1.71089188202E+02	3.72367427792E+01	1.13820013816E+02	-4.76091782076E+01	1.17498730977E+02	-2.78756276437E+01	-1.72890764431E+02
2.50850000000E+07	-2.56652447226E+01	-1.71633860603E+02	3.72405482647E+01	1.13173269331E+02	-4.76089765801E+01	1.16883224071E+02	-2.77519773458E+01	-1.73178224393E+02
2.52800000000E+07	-2.57529770854E+01	-1.72189848290E+02	3.72396712138E+01	1.12485189602E+02	-4.76079638867E+01	1.16201121081E+02	-2.76312686073E+01	-1.73484176778E+02
2.54750000000E+07	-2.58294394797E+01	-1.72712778068E+02	3.72386697844E+01	1.11856531731E+02	-4.76097735201E+01	1.15595594943E+02	-2.75177024350E+01	-1.73753531059E+02
2.56700000000E+07	-2.59214431484E+01	-1.73318749016E+02	3.72384918314E+01	1.11195740421E+02	-4.76129507359E+01	1.14947007779E+02	-2.73951655492E+01	-1.74131050153E+02
2.58650000000E+07	-2.60180697695E+01	-1.73796671445E+02	3.72388781711E+01	1.10521196476E+02	-4.76126906372E+01	1.14322442577E+02	-2.72830454247E+01	-1.74437501452E+02
2.60600000000E+07	-2.60920629706E+01	-1.74411008792E+02	3.72360033349E+01	1.09865999537E+02	-4.76091620282E+01	1.13687447378E+02	-2.71701249315E+01	-1.74774288023E+02
2.62550000000E+07	-2.61703681650E+01	-1.74962253257E+02	3.72374421987E+01	1.09195683448E+02	-4.76161473034E+01	1.13063810715E+02	-2.70643446593E+01	-1.75101771108E+02
2.64500000000E+07	-2.62416730167E+01	-1.75468178993E+02	3.72397786895E+01	1.08566711447E+02	-4.76074123483E+01	1.12439455432E+02	-2.69567906101E+01	-1.75430860835E+02
2.66450000000E+07	-2.63414895263E+01	-1.75996599465E+02	3.72385774993E+01	1.07912688325E+02	-4.76112900784E+01	1.11825451527E+02	-2.68497174870E+01	-1.75786787992E+02
2.68400000000E+07	-2.64184051002E+01	-1.76623239579E+02	3.72379604909E+01	1.07241001394E+02	-4.76105180715E+01	1.11190484597E+02	-2.67470721650E+01	-1.76149578571E+02
2.70350000000E+07	-2.65016062481E+01	-1.77049606277E+02	3.72412318892E+01	1.06578303967E+02	-4.76104137114E+01	1.10579266322E+02	-2.66518548056E+01	-1.76486144942E+02
2.72300000000E+07	-2.65510201722E+01	-1.77539922757E+02	3.72389466268E+01	1.05929518190E+02	-4.76126052775E+01	1.09933515786E+02	-2.65493139007E+01	-1.76862674826E+02
2.74250000000E+07	-2.66397550338E+01	-1.78006672078E+02	3.72410708731E+01	1.05283414221E+02	-4.76148492726E+01	1.09307770805E+02	-2.64563681770E+01	-1.77231295275E+02
2.76200000000E+07	-2.67311434830E+01	-1.78691375010E+02	3.72349560924E+01	1.04651938631E+02	-4.76118119555E+01	1.08692534253E+02	-2.63575755733E+01	-1.77588149558E+02
2.78150000000E+07	-2.68059943764E+01	-1.78983303771E+02	3.72372233147E+01	1.03973958709E+02	-4.76140653267E+01	1.08022432426E+02	-2.62646346416E+01	-1.77945109785E+02
