# Hz S DB R 50
! CMT, M5045, 22160017, 22.4.3/2
! Date: 2/26/2023 22:18:03
! Data: Format (Calibration Info)
! Freq	S11:dB/Ang(F2)	S21:dB/Ang(F2)	S12:dB/Ang(F2)	S22:dB/Ang(F2)
5.00000000000E+06	-9.75194886376E+00	-7.62586630556E+01	3.63876133145E+01	3.63970480060E+01	-4.86188349392E+01	3.96321083987E+01	-1.50069528241E+01	7.11912447547E+01
5.19500000000E+06	-1.01056585629E+01	-7.72747876021E+01	3.64672655016E+01	3.42382103972E+01	-4.84704811807E+01	3.76335241063E+01	-1.56621666221E+01	7.04193957523E+01
5.39000000000E+06	-1.04376423809E+01	-7.81383107303E+01	3.65396184596E+01	3.22240024368E+01	-4.83363687751E+01	3.48489492925E+01	-1.63052983004E+01	6.96271941113E+01
5.58500000000E+06	-1.07711275928E+01	-7.90459395385E+01	3.66005169715E+01	3.02764377860E+01	-4.82708520853E+01	3.30864327041E+01	-1.69664799606E+01	6.91765753359E+01
5.78000000000E+06	-1.10812339287E+01	-7.97819321060E+01	3.66597350809E+01	2.85046171942E+01	-4.82236218068E+01	3.12904580661E+01	-1.75989305619E+01	6.87688626782E+01
5.97500000000E+06	-1.13937109794E+01	-8.05812946444E+01	3.67104552248E+01	2.67338473396E+01	-4.81111956702E+01	2.95439135560E+01	-1.82427855539E+01	6.86639958524E+01
6.17000000000E+06	-1.17021709379E+01	-8.12342111028E+01	3.67559307714E+01	2.51220364688E+01	-4.80870874871E+01	2.81375380464E+01	-1.88377571808E+01	6.83794541045E+01
6.36500000000E+06	-1.19949124479E+01	-8.19717802021E+01	3.67953129579E+01	2.35103118503E+01	-4.81033694763E+01	2.66741295483E+01	-1.94450993338E+01	6.83697906968E+01
6.56000000000E+06	-1.22790696785E+01	-8.25889097836E+01	3.68319080848E+01	2.20257399550E+01	-4.79969323962E+01	2.45105705270E+01	-2.00666661857E+01	6.84561515880E+01
6.75500000000E+06	-1.25624124167E+01	-8.31899250236E+01	3.68663873898E+01	2.05663845027E+01	-4.80218592148E+01	2.38033668832E+01	-2.06628822987E+01	6.86023781292E+01
6.95000000000E+06	-1.28364372042E+01	-8.37908070549E+01	3.68998069559E+01	1.91720799236E+01	-4.79780728413E+01	2.18526936846E+01	-2.12642007614E+01	6.88597089144E+01
7.14500000000E+06	-1.31067327928E+01	-8.43883809723E+01	3.69224092233E+01	1.78122142303E+01	-4.79990852615E+01	2.02461752069E+01	-2.18296175257E+01	6.91349941291E+01
7.34000000000E+06	-1.33713790530E+01	-8.48972423272E+01	3.69479286976E+01	1.65344414150E+01	-4.78968508252E+01	1.88497506268E+01	-2.24436032877E+01	6.97601440539E+01
7.53500000000E+06	-1.36316189476E+01	-8.53829922147E+01	3.69732004839E+01	1.53045204576E+01	-4.78627307748E+01	1.82595298823E+01	-2.30047459105E+01	7.04333801519E+01
7.73000000000E+06	-1.38896059027E+01	-8.58556321430E+01	3.69937085293E+01	1.41226197362E+01	-4.78036676728E+01	1.68453204579E+01	-2.35854003666E+01	7.09911452644E+01
7.92500000000E+06	-1.41390492816E+01	-8.63803897243E+01	3.70119338009E+01	1.29378004878E+01	-4.78549912399E+01	1.64541156010E+01	-2.41181285019E+01	7.18403262884E+01
8.12000000000E+06	-1.43812235793E+01	-8.68533128117E+01	3.70317608707E+01	1.18241659726E+01	-4.78850990328E+01	1.46829628484E+01	-2.47106781264E+01	7.29570364611E+01
8.31500000000E+06	-1.46254884855E+01	-8.73402361409E+01	3.70466494926E+01	1.07033006438E+01	-4.78720631895E+01	1.35082012821E+01	-2.52493157996E+01	7.39036190266E+01
8.51000000000E+06	-1.48623376282E+01	-8.77183947546E+01	3.70640004475E+01	9.64700241417E+00	-4.77851547966E+01	1.28703613167E+01	-2.58203396876E+01	7.49078888669E+01
8.70500000000E+06	-1.51024801175E+01	-8.81411762141E+01	3.70740600486E+01	8.62097648309E+00	-4.78172739040E+01	1.15577294118E+01	-2.63782881872E+01	7.63709661946E+01
8.90000000000E+06	-1.53276915300E+01	-8.85302237279E+01	3.70926762362E+01	7.62516502029E+00	-4.77259392614E+01	1.05334443890E+01	-2.69251174469E+01	7.76774446832E+01
9.09500000000E+06	-1.55666489082E+01	-8.89342603465E+01	3.71029411858E+01	6.64697056781E+00	-4.77238060215E+01	9.79920374621E+00	-2.74091309264E+01	7.93517389411E+01
9.29000000000E+06	-1.57949242041E+01	-8.94053882092E+01	3.71129496910E+01	5.69531719430E+00	-4.76900644196E+01	9.02068543441E+00	-2.79821179936E+01	8.08558587754E+01
9.48500000000E+06	-1.60224947021E+01	-8.97601275422E+01	3.71248477085E+01	4.77591188499E+00	-4.77878276553E+01	8.02686309843E+00	-2.84845107109E+01	8.27681992315E+01
9.68000000000E+06	-1.62452822082E+01	-9.01426195562E+01	3.71337705222E+01	3.84179666615E+00	-4.77149661031E+01	6.84148188596E+00	-2.90169105201E+01	8.48665456732E+01
9.87500000000E+06	-1.64662144312E+01	-9.05436841656E+01	3.71451350572E+01	2.94460070965E+00	-4.77028057519E+01	5.93359722639E+00	-2.94681770763E+01	8.66916395359E+01
1.00700000000E+07	-1.66886627089E+01	-9.09203062787E+01	3.71558480913E+01	2.06796496733E+00	-4.76671249575E+01	5.56873006829E+00	-3.00091067340E+01	8.93844607219E+01
1.02650000000E+07	-1.69049143873E+01	-9.12583434053E+01	3.71607371941E+01	1.19830052445E+00	-4.76194584753E+01	4.58536835125E+00	-3.04188530503E+01	9.14449721642E+01
1.04600000000E+07	-1.71261708860E+01	-9.15819451662E+01	3.71682664832E+01	3.73981317664E-01	-4.77319815431E+01	3.34218424487E+00	-3.09308007653E+01	9.43918523375E+01
1.06550000000E+07	-1.73375773695E+01	-9.19489873655E+01	3.71739406341E+01	-4.65681409979E-01	-4.76756452027E+01	2.18185200242E+00	-3.13520626717E+01	9.72410067098E+01
1.08500000000E+07	-1.75382695847E+01	-9.22385239891E+01	3.71827211948E+01	-1.28270786460E+00	-4.76349534207E+01	1.95465154347E+00	-3.17577800734E+01	9.99284615313E+01
1.10450000000E+07	-1.77509662895E+01	-9.26127948619E+01	3.71881647367E+01	-2.10776355586E+00	-4.76470615890E+01	6.68776095198E-01	-3.19889822813E+01	1.03732071535E+02
1.12400000000E+07	-1.79549921686E+01	-9.29231410043E+01	3.71955543912E+01	-2.89378245481E+00	-4.76088019118E+01	1.45212397910E-01	-3.22803627913E+01	1.06588199000E+02
1.14350000000E+07	-1.81583252802E+01	-9.32420224526E+01	3.72012852490E+01	-3.66961078855E+00	-4.76351274077E+01	-6.95788364444E-01	-3.26097030681E+01	1.09331703141E+02
1.16300000000E+07	-1.83590014638E+01	-9.35678356278E+01	3.72073452263E+01	-4.43920191487E+00	-4.76561592800E+01	-1.67200909799E+00	-3.28087830631E+01	1.12212126491E+02
1.18250000000E+07	-1.85518508948E+01	-9.38265931156E+01	3.72134269410E+01	-5.22478113816E+00	-4.76057052220E+01	-2.48924510004E+00	-3.29959160612E+01	1.15608558146E+02
1.20200000000E+07	-1.87457926007E+01	-9.41784039989E+01	3.72176536609E+01	-5.98785339017E+00	-4.75124824322E+01	-2.74281976731E+00	-3.32179356123E+01	1.19073031728E+02
1.22150000000E+07	-1.89443694783E+01	-9.44731548622E+01	3.72188702938E+01	-6.72556831263E+00	-4.76479983458E+01	-3.54411929698E+00	-3.34618154454E+01	1.22646281160E+02
1.24100000000E+07	-1.91516007545E+01	-9.47726486883E+01	3.72205069581E+01	-7.45583256526E+00	-4.76408752640E+01	-4.31643036938E+00	-3.36335921510E+01	1.25026476807E+02
1.26050000000E+07	-1.93444869118E+01	-9.50530217215E+01	3.72256674443E+01	-8.15402870481E+00	-4.75437979002E+01	-4.77337858519E+00	-3.36855707001E+01	1.28793882888E+02
1.28000000000E+07	-1.95442989360E+01	-9.53335898800E+01	3.72267076137E+01	-8.82875822286E+00	-4.75973754782E+01	-6.07039505466E+00	-3.38260846422E+01	1.32352581459E+02
1.29950000000E+07	-1.97386629669E+01	-9.55763486562E+01	3.72295083027E+01	-9.47374421035E+00	-4.75503331677E+01	-6.60273206596E+00	-3.37946851622E+01	1.35001266786E+02
1.31900000000E+07	-1.99253241666E+01	-9.58209723025E+01	3.72352936343E+01	-1.01561452209E+01	-4.76034160077E+01	-7.17206688004E+00	-3.38248689625E+01	1.37929000368E+02
1.33850000000E+07	-2.01431393892E+01	-9.61182172257E+01	3.72397458110E+01	-1.08149877351E+01	-4.76531421944E+01	-7.78817897998E+00	-3.37558138241E+01	1.40515969652E+02
1.35800000000E+07	-2.03305742692E+01	-9.63705599932E+01	3.72420076760E+01	-1.14836257258E+01	-4.76008186796E+01	-8.66859677885E+00	-3.38957450643E+01	1.43918888932E+02
1.37750000000E+07	-2.05288520393E+01	-9.65394110144E+01	3.72449716926E+01	-1.21163202244E+01	-4.75985452274E+01	-9.44586477840E+00	-3.38403388889E+01	1.46502150601E+02
1.39700000000E+07	-2.07136776792E+01	-9.68213979426E+01	3.72505486401E+01	-1.27890386362E+01	-4.75552168220E+01	-9.97095104149E+00	-3.36589380797E+01	1.48934093669E+02
1.41650000000E+07	-2.09126660135E+01	-9.70318773432E+01	3.72519670883E+01	-1.33962802124E+01	-4.74716741414E+01	-1.03487309753E+01	-3.35991201142E+01	1.52378410195E+02
1.43600000000E+07	-2.11133703196E+01	-9.71772755665E+01	3.72572594358E+01	-1.40332961786E+01	-4.75938503091E+01	-1.09409572416E+01	-3.35343393873E+01	1.53455838275E+02
1.45550000000E+07	-2.12937673984E+01	-9.74708137434E+01	3.72587139006E+01	-1.46750526894E+01	-4.75688584342E+01	-1.18559216131E+01	-3.34997309695E+01	1.56434586273E+02
1.47500000000E+07	-2.15033487532E+01	-9.76516828773E+01	3.72611430117E+01	-1.53062942021E+01	-4.75273251732E+01	-1.28482133825E+01	-3.33419777065E+01	1.58359892862E+02
1.49450000000E+07	-2.16980848261E+01	-9.77757770448E+01	3.72643228708E+01	-1.59111896333E+01	-4.75285948476E+01	-1.29934572643E+01	-3.32948806662E+01	1.60626758451E+02
1.51400000000E+07	-2.18852886823E+01	-9.79616546665E+01	3.72687761144E+01	-1.65124094123E+01	-4.75781226135E+01	-1.34921639012E+01	-3.32217033502E+01	1.61534680826E+02
1.53350000000E+07	-2.20771104540E+01	-9.82288894947E+01	3.72715089234E+01	-1.71409397652E+01	-4.74791567941E+01	-1.45601543060E+01	-3.30359610625E+01	1.63640127976E+02
1.55300000000E+07	-2.22791819997E+01	-9.83472715664E+01	3.72700838859E+01	-1.77568044254E+01	-4.75741201111E+01	-1.49755510192E+01	-3.29797118389E+01	1.65225454327E+02
1.57250000000E+07	-2.24759752854E+01	-9.84670167931E+01	3.72726852892E+01	-1.83361725207E+01	-4.75694728663E+01	-1.54944034341E+01	-3.27274140745E+01	1.66726732723E+02
1.59200000000E+07	-2.26664752073E+01	-9.85287378338E+01	3.72749204558E+01	-1.89420504372E+01	-4.75323543799E+01	-1.62473488748E+01	-3.26937659375E+01	1.68734926729E+02
1.61150000000E+07	-2.28623373521E+01	-9.87328093578E+01	3.72761480786E+01	-1.95282775857E+01	-4.75662266960E+01	-1.62683008845E+01	-3.25569294248E+01	1.69921885910E+02
1.63100000000E+07	-2.30648242547E+01	-9.88841474439E+01	3.72773655337E+01	-2.01096031341E+01	-4.75390995208E+01	-1.73449948603E+01	-3.25106699878E+01	1.71435740002E+02
1.65050000000E+07	-2.32757577965E+01	-9.90262360906E+01	3.72771339571E+01	-2.06961110488E+01	-4.75644707308E+01	-1.77875328778E+01	-3.23105323999E+01	1.73096289161E+02
1.67000000000E+07	-2.34568663352E+01	-9.90381415899E+01	3.72808925450E+01	-2.12796118470E+01	-4.75961016601E+01	-1.86091533349E+01	-3.22848568999E+01	1.73533336739E+02
1.68950000000E+07	-2.36671538710E+01	-9.92466904491E+01	3.72830348483E+01	-2.18574035717E+01	-4.75560708294E+01	-1.93491380703E+01	-3.21536740640E+01	1.74703313186E+02
1.70900000000E+07	-2.38670496168E+01	-9.93414846438E+01	3.72831754863E+01	-2.24187177657E+01	-4.74883403623E+01	-1.96786782849E+01	-3.20035778907E+01	1.76112454515E+02
1.72850000000E+07	-2.40696508084E+01	-9.94037531572E+01	3.72850682899E+01	-2.29953544294E+01	-4.75585618563E+01	-2.01045528510E+01	-3.19181016056E+01	1.76894601324E+02
1.74800000000E+07	-2.42760100606E+01	-9.95179964972E+01	3.72855619479E+01	-2.35375451427E+01	-4.75107232621E+01	-2.06742614012E+01	-3.18452123152E+01	1.78154912542E+02
1.76750000000E+07	-2.44772384761E+01	-9.95187733376E+01	3.72895323247E+01	-2.41214303225E+01	-4.75423475643E+01	-2.09918441138E+01	-3.17548838829E+01	1.79551143577E+02
1.78700000000E+07	-2.46749541245E+01	-9.95998534077E+01	3.72881312872E+01	-2.46654096279E+01	-4.75558218214E+01	-2.19602482455E+01	-3.16010133277E+01	1.79925449213E+02
1.80650000000E+07	-2.48828376011E+01	-9.96202899913E+01	3.72920601142E+01	-2.52341133917E+01	-4.75932296152E+01	-2.23073640503E+01	-3.14877178349E+01	-1.79087114517E+02
1.82600000000E+07	-2.50846040384E+01	-9.97218691975E+01	3.72904116427E+01	-2.57964232120E+01	-4.75075926069E+01	-2.26871074218E+01	-3.14490873249E+01	-1.78082727313E+02
1.84550000000E+07	-2.52905187520E+01	-9.97296076229E+01	3.72941210112E+01	-2.63159387869E+01	-4.75110018457E+01	-2.32034036276E+01	-3.12484727818E+01	-1.77166388586E+02
1.86500000000E+07	-2.54933350448E+01	-9.96895972497E+01	3.72906992106E+01	-2.68903997613E+01	-4.75530967441E+01	-2.39756165669E+01	-3.11794169506E+01	-1.76660979630E+02
1.88450000000E+07	-2.57114423976E+01	-9.97392589181E+01	3.72969280819E+01	-2.74251856677E+01	-4.76061963804E+01	-2.41786174787E+01	-3.11284252236E+01	-1.75477055923E+02
1.90400000000E+07	-2.59119022285E+01	-9.98102956353E+01	3.72966866160E+01	-2.79627863307E+01	-4.75499525856E+01	-2.50961098235E+01	-3.10746761503E+01	-1.74862597160E+02
1.92350000000E+07	-2.61142864682E+01	-9.98203129205E+01	3.72967610005E+01	-2.85094539834E+01	-4.74816205604E+01	-2.50185490963E+01	-3.08974665598E+01	-1.73741230550E+02
1.94300000000E+07	-2.63485352158E+01	-9.95547149529E+01	3.72969125840E+01	-2.90401312318E+01	-4.75257491654E+01	-2.60153037334E+01	-3.08452890320E+01	-1.73708027492E+02
1.96250000000E+07	-2.65533013586E+01	-9.97142109147E+01	3.72989864361E+01	-2.95842023299E+01	-4.75230334475E+01	-2.67116276842E+01	-3.07668547945E+01	-1.72726810706E+02
1.98200000000E+07	-2.67790629915E+01	-9.96209184059E+01	3.72946900275E+01	-3.01369033977E+01	-4.75015500030E+01	-2.71411875811E+01	-3.06907882763E+01	-1.72100541066E+02
2.00150000000E+07	-2.69684296253E+01	-9.94421444683E+01	3.72998224282E+01	-3.06346613845E+01	-4.75592029586E+01	-2.75420457447E+01	-3.05696543490E+01	-1.71533108183E+02
2.02100000000E+07	-2.72085469094E+01	-9.93534016925E+01	3.72997815701E+01	-3.11538582338E+01	-4.75688320566E+01	-2.75705091425E+01	-3.04497149857E+01	-1.70976625602E+02
2.04050000000E+07	-2.74289798322E+01	-9.93003126244E+01	3.72995280931E+01	-3.16779627723E+01	-4.74943492543E+01	-2.84117819086E+01	-3.04200241207E+01	-1.70500932321E+02
2.06000000000E+07	-2.76651285591E+01	-9.90733374110E+01	3.73004183550E+01	-3.22247983220E+01	-4.74996833374E+01	-2.89524657241E+01	-3.03224560378E+01	-1.69572914896E+02
2.07950000000E+07	-2.78711850342E+01	-9.89305783652E+01	3.73004991170E+01	-3.27325436487E+01	-4.75378255954E+01	-2.92673524113E+01	-3.02218462781E+01	-1.69276097745E+02
2.09900000000E+07	-2.81078666578E+01	-9.87663629971E+01	3.73006005567E+01	-3.32611050187E+01	-4.75219070307E+01	-2.98601106863E+01	-3.02414161017E+01	-1.68884310265E+02
2.11850000000E+07	-2.83479232248E+01	-9.85062262810E+01	3.72984094743E+01	-3.37735463904E+01	-4.75717328113E+01	-3.04652504039E+01	-3.00783894240E+01	-1.68193176673E+02
2.13800000000E+07	-2.85976843915E+01	-9.83943388264E+01	3.73021231989E+01	-3.42987967851E+01	-4.74883741784E+01	-3.09496114123E+01	-2.99676061853E+01	-1.67622519461E+02
2.15750000000E+07	-2.88095074386E+01	-9.82797206092E+01	3.73027433299E+01	-3.48017921030E+01	-4.75415534897E+01	-3.14542606907E+01	-2.99580798851E+01	-1.67294549878E+02
2.17700000000E+07	-2.90198890226E+01	-9.78399735670E+01	3.73011871990E+01	-3.53131201126E+01	-4.75420356466E+01	-3.19064329756E+01	-2.98408646859E+01	-1.66690128390E+02
2.19650000000E+07	-2.92753128884E+01	-9.76942632188E+01	3.73022036791E+01	-3.58373145771E+01	-4.75168559273E+01	-3.23027074977E+01	-2.97958703346E+01	-1.65811293225E+02
2.21600000000E+07	-2.94904331451E+01	-9.72734911074E+01	3.73021365237E+01	-3.63429512901E+01	-4.75349836494E+01	-3.28166073705E+01	-2.97159383681E+01	-1.65320418673E+02
2.23550000000E+07	-2.97506867444E+01	-9.71322006896E+01	3.73045902261E+01	-3.68476713869E+01	-4.74998230587E+01	-3.36611430445E+01	-2.97205083659E+01	-1.65436238649E+02
2.25500000000E+07	-3.00005891261E+01	-9.66982295407E+01	3.73054930072E+01	-3.73553931956E+01	-4.75390230578E+01	-3.41209510603E+01	-2.95837677816E+01	-1.65092090046E+02
2.27450000000E+07	-3.02502744909E+01	-9.62351103845E+01	3.73017423058E+01	-3.78310279904E+01	-4.75522738709E+01	-3.43181883090E+01	-2.95179072526E+01	-1.64686295182E+02
2.29400000000E+07	-3.05152372002E+01	-9.57577149128E+01	3.73045916080E+01	-3.83504720093E+01	-4.75441275970E+01	-3.52966373310E+01	-2.94751379871E+01	-1.63966277332E+02
2.31350000000E+07	-3.07712027100E+01	-9.53508934561E+01	3.73039889071E+01	-3.88553410418E+01	-4.75525020563E+01	-3.51626989256E+01	-2.93861632023E+01	-1.63891970112E+02
2.33300000000E+07	-3.10237227082E+01	-9.48319678362E+01	3.73006854198E+01	-3.93631874465E+01	-4.75208949073E+01	-3.56419919450E+01	-2.93526025415E+01	-1.62981807372E+02
2.35250000000E+07	-3.12648948604E+01	-9.40080519496E+01	3.73040489309E+01	-3.98696063856E+01	-4.75487656074E+01	-3.68006535718E+01	-2.92386124179E+01	-1.62663673167E+02
2.37200000000E+07	-3.15046229597E+01	-9.38433925949E+01	3.73035236928E+01	-4.03651132860E+01	-4.74752732692E+01	-3.66660668403E+01	-2.92140194228E+01	-1.62366316179E+02
2.39150000000E+07	-3.17982539305E+01	-9.30725536027E+01	3.73010575611E+01	-4.08391586644E+01	-4.75253452494E+01	-3.73197694302E+01	-2.91370870740E+01	-1.61870392458E+02
2.41100000000E+07	-3.20448793747E+01	-9.21758650619E+01	3.73027870430E+01	-4.13447797667E+01	-4.74819236096E+01	-3.76042461603E+01	-2.90456429266E+01	-1.61531899023E+02
2.43050000000E+07	-3.22879139552E+01	-9.17534211322E+01	3.73044165885E+01	-4.18394720013E+01	-4.75550934523E+01	-3.77785808634E+01	-2.90123893096E+01	-1.61264431467E+02
2.45000000000E+07	-3.25776264638E+01	-9.07952010152E+01	3.73037710549E+01	-4.23425988370E+01	-4.75835454345E+01	-3.87543864609E+01	-2.90031283452E+01	-1.60493736192E+02
2.46950000000E+07	-3.28457201814E+01	-8.97584329422E+01	3.73057654021E+01	-4.28331434688E+01	-4.76077157481E+01	-3.90345652094E+01	-2.89011437318E+01	-1.60083264843E+02
2.48900000000E+07	-3.31583025190E+01	-8.91685906528E+01	3.73036621392E+01	-4.33063069847E+01	-4.75318043814E+01	-3.94380992223E+01	-2.88746042647E+01	-1.59860171109E+02
2.50850000000E+07	-3.34407897099E+01	-8.80137959530E+01	3.73043019052E+01	-4.38170556230E+01	-4.75375198563E+01	-4.03056154801E+01	-2.87212201756E+01	-1.59569874110E+02
2.52800000000E+07	-3.37160875559E+01	-8.71868209510E+01	3.73019082549E+01	-4.42884818735E+01	-4.75548622634E+01	-4.02148844398E+01	-2.87277130887E+01	-1.59524542735E+02
2.54750000000E+07	-3.39499544660E+01	-8.60454476947E+01	3.73033491877E+01	-4.47587857310E+01	-4.75407921284E+01	-4.06828867152E+01	-2.86672154141E+01	-1.59193263776E+02
2.56700000000E+07	-3.42036907365E+01	-8.48848744354E+01	3.73034748909E+01	-4.52414437949E+01	-4.75537505432E+01	-4.12554857929E+01	-2.86016107726E+01	-1.58496781261E+02
2.58650000000E+07	-3.44380407390E+01	-8.31464951575E+01	3.73042427804E+01	-4.57524944228E+01	-4.75262324723E+01	-4.18970450598E+01	-2.85078070674E+01	-1.58318597951E+02
2.60600000000E+07	-3.47321832017E+01	-8.24417707012E+01	3.72995449587E+01	-4.62143874200E+01	-4.75475119232E+01	-4.24020359496E+01	-2.84751780618E+01	-1.57836825996E+02
2.62550000000E+07	-3.50655843840E+01	-8.05425727951E+01	3.73036491332E+01	-4.66903092382E+01	-4.75665669323E+01	-4.28593191343E+01	-2.84216038767E+01	-1.57672675289E+02
2.64500000000E+07	-3.52542612411E+01	-7.92118503155E+01	3.73027159134E+01	-4.71932053595E+01	-4.74992020542E+01	-4.36234235211E+01	-2.83656913422E+01	-1.57696193339E+02
2.66450000000E+07	-3.55504944121E+01	-7.74278398482E+01	3.73001453880E+01	-4.76565836236E+01	-4.75321072927E+01	-4.39364194711E+01	-2.83241999070E+01	-1.57386570846E+02
2.68400000000E+07	-3.57540162982E+01	-7.59956169998E+01	3.73015231161E+01	-4.81277069815E+01	-4.75968794018E+01	-4.44549697396E+01	-2.82790211951E+01	-1.56985951877E+02
2.70350000000E+07	-3.60393848577E+01	-7.43030184389E+01	3.73034022119E+01	-4.85998301722E+01	-4.75652916445E+01	-4.46220196619E+01	-2.82313726588E+01	-1.56645577929E+02
2.72300000000E+07	-3.62175227644E+01	-7.21928384403E+01	3.73008084430E+01	-4.90869440196E+01	-4.75478480292E+01	-4.50921008086E+01	-2.80893228028E+01	-1.56242370319E+02
2.74250000000E+07	-3.64879214529E+01	-6.99202080737E+01	3.73008411379E+01	-4.95781800108E+01	-4.75537442359E+01	-4.52807034633E+01	-2.80467273945E+01	-1.56135163295E+02
2.76200000000E+07	-3.66949149105E+01	-6.80036025656E+01	3.73014622004E+01	-5.00784987838E+01	-4.74570677560E+01	-4.58555762839E+01	-2.80301658574E+01	-1.55783033570E+02
