# Hz S DB R 50
! CMT, M5045, 22160017, 22.4.3/2
! Date: 2/26/2023 22:01:22
! Data: Format (Calibration Info)
! Freq	S11:dB/Ang(F2)	S21:dB/Ang(F2)	S12:dB/Ang(F2)	S22:dB/Ang(F2)
5.00000000000E+06	-9.79464348556E+00	-7.58513120550E+01	3.64548951807E+01	3.66570890205E+01	-4.85492292582E+01	3.97810754180E+01	-1.50674947493E+01	7.42730840824E+01
5.19500000000E+06	-1.01463350983E+01	-7.67854454341E+01	3.65360379967E+01	3.44875854185E+01	-4.85002245179E+01	3.78552539853E+01	-1.57558073902E+01	7.36223069259E+01
5.39000000000E+06	-1.04815204519E+01	-7.76791259591E+01	3.66071533072E+01	3.24446891175E+01	-4.84170513145E+01	3.53382621468E+01	-1.64103766404E+01	7.32950605082E+01
5.58500000000E+06	-1.08085656030E+01	-7.84167112289E+01	3.66713046168E+01	3.05415363818E+01	-4.82921288509E+01	3.38633731396E+01	-1.70737439572E+01	7.29662988208E+01
5.78000000000E+06	-1.11285877833E+01	-7.91990467162E+01	3.67288073355E+01	2.87007674972E+01	-4.82251121962E+01	3.18218189738E+01	-1.77298109984E+01	7.28597406790E+01
5.97500000000E+06	-1.14422426714E+01	-7.98862183207E+01	3.67756688402E+01	2.69499492556E+01	-4.82148061759E+01	3.02097902766E+01	-1.83931722271E+01	7.27877822002E+01
6.17000000000E+06	-1.17370999335E+01	-8.05557865188E+01	3.68228015016E+01	2.52828499459E+01	-4.81287082749E+01	2.77695910066E+01	-1.90355052219E+01	7.31617668741E+01
6.36500000000E+06	-1.20301264845E+01	-8.11445859578E+01	3.68641087415E+01	2.37134069464E+01	-4.80692963202E+01	2.65865091898E+01	-1.96446746145E+01	7.33762428843E+01
6.56000000000E+06	-1.23145660263E+01	-8.17510307765E+01	3.68999112730E+01	2.21598208472E+01	-4.80014229279E+01	2.50698748502E+01	-2.02645290315E+01	7.38995060360E+01
6.75500000000E+06	-1.25934273805E+01	-8.23180081180E+01	3.69339785194E+01	2.07190522921E+01	-4.80609985455E+01	2.35181458731E+01	-2.08912797570E+01	7.43147556175E+01
6.95000000000E+06	-1.28694470551E+01	-8.28333580335E+01	3.69616147936E+01	1.93137310739E+01	-4.80119954066E+01	2.21464497172E+01	-2.14893225919E+01	7.51567148518E+01
7.14500000000E+06	-1.31335432716E+01	-8.33114344615E+01	3.69904877266E+01	1.79879529919E+01	-4.78854906408E+01	2.06621173319E+01	-2.20792711391E+01	7.57539314747E+01
7.34000000000E+06	-1.33936500887E+01	-8.38662791190E+01	3.70172422563E+01	1.66737615018E+01	-4.79627112176E+01	1.94346911324E+01	-2.26851086350E+01	7.69090418297E+01
7.53500000000E+06	-1.36441066837E+01	-8.43289449148E+01	3.70412557477E+01	1.54213471732E+01	-4.78637839412E+01	1.81028075397E+01	-2.32793400584E+01	7.82520212991E+01
7.73000000000E+06	-1.38939264442E+01	-8.47047130639E+01	3.70597288018E+01	1.42353098979E+01	-4.79272646380E+01	1.73290293193E+01	-2.38305422367E+01	7.95081562016E+01
7.92500000000E+06	-1.41482612578E+01	-8.51681066077E+01	3.70798648332E+01	1.30432846729E+01	-4.79210882810E+01	1.61230278724E+01	-2.43909855059E+01	8.09357468074E+01
8.12000000000E+06	-1.43842084576E+01	-8.55141686116E+01	3.71000063618E+01	1.19138475785E+01	-4.78325173768E+01	1.45157922680E+01	-2.49580175655E+01	8.22979183705E+01
8.31500000000E+06	-1.46270825097E+01	-8.59440935980E+01	3.71124439703E+01	1.08272839668E+01	-4.78480375418E+01	1.41559881503E+01	-2.54631334532E+01	8.40085224649E+01
8.51000000000E+06	-1.48619920423E+01	-8.62931807581E+01	3.71299211301E+01	9.76481747454E+00	-4.77664508455E+01	1.33016127024E+01	-2.60508565990E+01	8.61054849544E+01
8.70500000000E+06	-1.50868800721E+01	-8.67227970808E+01	3.71435067876E+01	8.70646511835E+00	-4.77481655090E+01	1.19428557726E+01	-2.65193199355E+01	8.78485426733E+01
8.90000000000E+06	-1.53178717751E+01	-8.70520993801E+01	3.71576449523E+01	7.70153699635E+00	-4.77916126193E+01	1.04251456705E+01	-2.70535669503E+01	9.05033881946E+01
9.09500000000E+06	-1.55374424656E+01	-8.74291508662E+01	3.71692400890E+01	6.71864585834E+00	-4.77620635296E+01	9.72194853901E+00	-2.74771481514E+01	9.29319516792E+01
9.29000000000E+06	-1.57586814040E+01	-8.77372961373E+01	3.71795132025E+01	5.77295785675E+00	-4.77974838649E+01	8.87749923901E+00	-2.79567483890E+01	9.47320728184E+01
9.48500000000E+06	-1.59895821123E+01	-8.80697924014E+01	3.71898794343E+01	4.82240221374E+00	-4.77784156145E+01	7.78245627222E+00	-2.84199996429E+01	9.74872535879E+01
9.68000000000E+06	-1.61932552857E+01	-8.84201627502E+01	3.72013744839E+01	3.90476875762E+00	-4.76952505647E+01	7.01858683408E+00	-2.87819961469E+01	1.00370244811E+02
9.87500000000E+06	-1.64016502330E+01	-8.87419637829E+01	3.72097319245E+01	3.01654907172E+00	-4.76856515712E+01	6.03413064146E+00	-2.91581543730E+01	1.03127748544E+02
1.00700000000E+07	-1.66157759400E+01	-8.91126213079E+01	3.72192115710E+01	2.12128922524E+00	-4.77040448294E+01	5.42493615948E+00	-2.95363873651E+01	1.05894244259E+02
1.02650000000E+07	-1.68365373695E+01	-8.93930471561E+01	3.72259492480E+01	1.27216667041E+00	-4.76469226866E+01	4.06251324452E+00	-2.98322049855E+01	1.09980851562E+02
1.04600000000E+07	-1.70459331555E+01	-8.96980977705E+01	3.72357499027E+01	3.98769492130E-01	-4.77515060728E+01	3.84376839810E+00	-3.01519103153E+01	1.12698788494E+02
1.06550000000E+07	-1.72495273030E+01	-8.99682905583E+01	3.72432765005E+01	-4.28757315235E-01	-4.77165026786E+01	2.77323858655E+00	-3.03868674748E+01	1.16532882847E+02
1.08500000000E+07	-1.74400654661E+01	-9.02448008711E+01	3.72494509265E+01	-1.23704534348E+00	-4.76259842355E+01	1.81338425597E+00	-3.05452499636E+01	1.19380185939E+02
1.10450000000E+07	-1.76481575907E+01	-9.04981894791E+01	3.72510880806E+01	-2.04968863065E+00	-4.75994022301E+01	2.84198769328E-01	-3.05506267722E+01	1.22387812527E+02
1.12400000000E+07	-1.78289409017E+01	-9.08241277452E+01	3.72616986042E+01	-2.85913354055E+00	-4.75701872973E+01	3.58611219615E-02	-3.06811643925E+01	1.25610263219E+02
1.14350000000E+07	-1.80264700987E+01	-9.10459405209E+01	3.72667896440E+01	-3.63084973551E+00	-4.76191705497E+01	-5.50070718515E-01	-3.07398628827E+01	1.28334020437E+02
1.16300000000E+07	-1.82218257119E+01	-9.13376101314E+01	3.72724680209E+01	-4.42085839732E+00	-4.75980052245E+01	-9.75635081809E-01	-3.08109811328E+01	1.31105600964E+02
1.18250000000E+07	-1.84047071465E+01	-9.16442912141E+01	3.72772192338E+01	-5.19118905452E+00	-4.75834230563E+01	-2.17508302750E+00	-3.08209432568E+01	1.33836087247E+02
1.20200000000E+07	-1.85982379901E+01	-9.19107604522E+01	3.72803102626E+01	-5.96243200403E+00	-4.76646037146E+01	-3.15574347918E+00	-3.09318249300E+01	1.36642689429E+02
1.22150000000E+07	-1.87747572671E+01	-9.21688436097E+01	3.72854737397E+01	-6.72084049797E+00	-4.75996065652E+01	-3.59689035598E+00	-3.09705634958E+01	1.39050798433E+02
1.24100000000E+07	-1.89631981765E+01	-9.24261338163E+01	3.72850536305E+01	-7.45627109297E+00	-4.75934399918E+01	-4.32495978757E+00	-3.09333038317E+01	1.41755254031E+02
1.26050000000E+07	-1.91412009543E+01	-9.26465443256E+01	3.72887002514E+01	-8.15193918485E+00	-4.75303515756E+01	-5.47924533963E+00	-3.09347682060E+01	1.43615232662E+02
1.28000000000E+07	-1.93382349965E+01	-9.28979250990E+01	3.72927902276E+01	-8.82327110581E+00	-4.75875357651E+01	-5.90570125538E+00	-3.08964788343E+01	1.46288717695E+02
1.29950000000E+07	-1.95245911060E+01	-9.30780516059E+01	3.72955027402E+01	-9.50268464739E+00	-4.75826522862E+01	-6.83477479270E+00	-3.07911723137E+01	1.48374852029E+02
1.31900000000E+07	-1.97064991185E+01	-9.33273203231E+01	3.73018788864E+01	-1.01667203484E+01	-4.76200718176E+01	-7.34672480681E+00	-3.07808447617E+01	1.50782025154E+02
1.33850000000E+07	-1.98838356769E+01	-9.35360794499E+01	3.73035167246E+01	-1.08161678368E+01	-4.76145659382E+01	-8.33523488664E+00	-3.06887649893E+01	1.52766423860E+02
1.35800000000E+07	-2.00698367974E+01	-9.36957952192E+01	3.73069366918E+01	-1.14970659132E+01	-4.75872349491E+01	-8.14787157392E+00	-3.05756430809E+01	1.54506781650E+02
1.37750000000E+07	-2.02450475539E+01	-9.39112851208E+01	3.73095165104E+01	-1.21484899373E+01	-4.75695697669E+01	-9.39836897604E+00	-3.05600526025E+01	1.56678301023E+02
1.39700000000E+07	-2.04255339250E+01	-9.40407393200E+01	3.73093457651E+01	-1.27904367034E+01	-4.76339314674E+01	-9.53284780564E+00	-3.04520595780E+01	1.58108780240E+02
1.41650000000E+07	-2.06091811309E+01	-9.42333181818E+01	3.73135412746E+01	-1.34150356934E+01	-4.76509020757E+01	-1.04046651071E+01	-3.04105174423E+01	1.59629365470E+02
1.43600000000E+07	-2.07932093054E+01	-9.43668534265E+01	3.73179406136E+01	-1.40739098881E+01	-4.75364298448E+01	-1.08972079092E+01	-3.03275617529E+01	1.61142366416E+02
1.45550000000E+07	-2.09690993738E+01	-9.45036202879E+01	3.73200655438E+01	-1.46753780143E+01	-4.75861890715E+01	-1.19050887091E+01	-3.01751346804E+01	1.62500946098E+02
1.47500000000E+07	-2.11436079379E+01	-9.47302157694E+01	3.73271746479E+01	-1.53268085712E+01	-4.76051889989E+01	-1.21735176637E+01	-3.00825634321E+01	1.63579669866E+02
1.49450000000E+07	-2.13298294146E+01	-9.48513481171E+01	3.73256401423E+01	-1.59538930889E+01	-4.75740596225E+01	-1.34111821350E+01	-3.00027171458E+01	1.65256998475E+02
1.51400000000E+07	-2.15154258806E+01	-9.50247918863E+01	3.73282997575E+01	-1.65625741800E+01	-4.76050303129E+01	-1.40814504283E+01	-2.98922957493E+01	1.66125755645E+02
1.53350000000E+07	-2.16764489458E+01	-9.51669432508E+01	3.73330121664E+01	-1.71877104453E+01	-4.75489940564E+01	-1.45680594548E+01	-2.98770729846E+01	1.67859776003E+02
1.55300000000E+07	-2.18525294884E+01	-9.52715712548E+01	3.73327860906E+01	-1.77624813494E+01	-4.75256859852E+01	-1.53463160312E+01	-2.97302368668E+01	1.68395881040E+02
1.57250000000E+07	-2.20330564286E+01	-9.53392223698E+01	3.73370839759E+01	-1.83735084534E+01	-4.75773014318E+01	-1.57891242294E+01	-2.96427376964E+01	1.69431839236E+02
1.59200000000E+07	-2.22193486155E+01	-9.54918743397E+01	3.73359731240E+01	-1.89693861144E+01	-4.75396619853E+01	-1.62682892941E+01	-2.95909157940E+01	1.70527478624E+02
1.61150000000E+07	-2.23902744630E+01	-9.56050455175E+01	3.73360363869E+01	-1.95703758819E+01	-4.75668288125E+01	-1.67957989332E+01	-2.94503123707E+01	1.71357439810E+02
1.63100000000E+07	-2.25655046251E+01	-9.57334801117E+01	3.73410967455E+01	-2.01654638518E+01	-4.75499563416E+01	-1.73222410053E+01	-2.93652925701E+01	1.72447657134E+02
1.65050000000E+07	-2.27435723225E+01	-9.58252771795E+01	3.73382135979E+01	-2.07478405031E+01	-4.76212057856E+01	-1.79365137536E+01	-2.92754070428E+01	1.73479362737E+02
1.67000000000E+07	-2.29126328175E+01	-9.58882380467E+01	3.73401149865E+01	-2.13129183484E+01	-4.75535085152E+01	-1.85064667935E+01	-2.91826571570E+01	1.74013199739E+02
1.68950000000E+07	-2.30901367934E+01	-9.59878110291E+01	3.73452985491E+01	-2.18933617062E+01	-4.75666694886E+01	-1.89523552962E+01	-2.91256441782E+01	1.75270129159E+02
1.70900000000E+07	-2.32684988778E+01	-9.59736698746E+01	3.73444827520E+01	-2.24657745559E+01	-4.75468294580E+01	-1.92739770949E+01	-2.90803770498E+01	1.75944685289E+02
1.72850000000E+07	-2.34514398096E+01	-9.60946588625E+01	3.73434181600E+01	-2.30384925827E+01	-4.76054572522E+01	-2.02349289452E+01	-2.89586930672E+01	1.76426772943E+02
1.74800000000E+07	-2.36247569193E+01	-9.61331017893E+01	3.73494556677E+01	-2.36029157396E+01	-4.76191823329E+01	-2.01083225728E+01	-2.88984755499E+01	1.77272786067E+02
1.76750000000E+07	-2.38122438229E+01	-9.62196109788E+01	3.73491945395E+01	-2.41711862424E+01	-4.75717626143E+01	-2.13045215826E+01	-2.88725810215E+01	1.77804390335E+02
1.78700000000E+07	-2.39772839411E+01	-9.62732846483E+01	3.73505179215E+01	-2.47174943557E+01	-4.75683275798E+01	-2.16170427396E+01	-2.87205432293E+01	1.79085635167E+02
1.80650000000E+07	-2.41605953129E+01	-9.61988323889E+01	3.73489876216E+01	-2.52788971570E+01	-4.75271552625E+01	-2.24706854599E+01	-2.86510277948E+01	1.78889080815E+02
1.82600000000E+07	-2.43204192227E+01	-9.62865711795E+01	3.73531065660E+01	-2.58516437737E+01	-4.75305232982E+01	-2.31319895130E+01	-2.86000244567E+01	1.79659480413E+02
1.84550000000E+07	-2.45063395800E+01	-9.63908952029E+01	3.73528193035E+01	-2.63978576487E+01	-4.75521960968E+01	-2.35780300937E+01	-2.85463253215E+01	1.79962377734E+02
1.86500000000E+07	-2.46934401391E+01	-9.62610994484E+01	3.73523969301E+01	-2.69392609379E+01	-4.75441554340E+01	-2.37982913541E+01	-2.84340451384E+01	-1.78813235490E+02
1.88450000000E+07	-2.48704460135E+01	-9.62238333101E+01	3.73525355604E+01	-2.75002988962E+01	-4.75614586361E+01	-2.42480673502E+01	-2.83796555677E+01	-1.78376802281E+02
1.90400000000E+07	-2.50497470465E+01	-9.62992466855E+01	3.73552227351E+01	-2.80185094808E+01	-4.75074473387E+01	-2.50235633644E+01	-2.83310092637E+01	-1.78076835303E+02
1.92350000000E+07	-2.52242936031E+01	-9.61965103660E+01	3.73575953481E+01	-2.85703543521E+01	-4.75552857208E+01	-2.54592647390E+01	-2.82724653515E+01	-1.77480379990E+02
1.94300000000E+07	-2.54043864391E+01	-9.62745917166E+01	3.73594982716E+01	-2.91083971865E+01	-4.75544975167E+01	-2.59782761208E+01	-2.82171516824E+01	-1.76786186808E+02
1.96250000000E+07	-2.55764737719E+01	-9.62365880707E+01	3.73600654299E+01	-2.96529657149E+01	-4.74745254135E+01	-2.63612617951E+01	-2.81475500543E+01	-1.76273498437E+02
1.98200000000E+07	-2.57677949544E+01	-9.62503812119E+01	3.73563450206E+01	-3.01775900542E+01	-4.75612578911E+01	-2.70667105497E+01	-2.81373022704E+01	-1.76149697170E+02
2.00150000000E+07	-2.59482148044E+01	-9.61109264635E+01	3.73602275623E+01	-3.07116925517E+01	-4.75847392657E+01	-2.73363333150E+01	-2.80367583154E+01	-1.75554679229E+02
2.02100000000E+07	-2.61188695900E+01	-9.58908115982E+01	3.73612270710E+01	-3.12235748163E+01	-4.75868193363E+01	-2.84115248977E+01	-2.79935551722E+01	-1.75099276958E+02
2.04050000000E+07	-2.63220865562E+01	-9.58437503089E+01	3.73619637281E+01	-3.17712347520E+01	-4.75292928290E+01	-2.87107483389E+01	-2.78949069746E+01	-1.74462752799E+02
2.06000000000E+07	-2.64843764807E+01	-9.57686947587E+01	3.73595785951E+01	-3.23001497884E+01	-4.75985028894E+01	-2.87839432657E+01	-2.78561570815E+01	-1.73860872967E+02
2.07950000000E+07	-2.66749455509E+01	-9.57301722217E+01	3.73608221463E+01	-3.28161177617E+01	-4.75564071706E+01	-2.92276552155E+01	-2.78150340362E+01	-1.73724284252E+02
2.09900000000E+07	-2.68711180143E+01	-9.56452144286E+01	3.73630238907E+01	-3.33342260220E+01	-4.75743851847E+01	-3.01643974205E+01	-2.77832844811E+01	-1.73317422675E+02
2.11850000000E+07	-2.70343174589E+01	-9.54824683874E+01	3.73623836357E+01	-3.38495544693E+01	-4.75676517914E+01	-3.02902418398E+01	-2.77289804871E+01	-1.72689814581E+02
2.13800000000E+07	-2.72483613360E+01	-9.53621051950E+01	3.73642754333E+01	-3.43831770414E+01	-4.75536382601E+01	-3.09417725657E+01	-2.76623840653E+01	-1.72545329432E+02
2.15750000000E+07	-2.74330262485E+01	-9.51446908869E+01	3.73621939738E+01	-3.48756157068E+01	-4.75168964005E+01	-3.18219486388E+01	-2.76377437888E+01	-1.72089101632E+02
2.17700000000E+07	-2.76205931654E+01	-9.50043848734E+01	3.73633798889E+01	-3.53963176555E+01	-4.75439617469E+01	-3.17723936667E+01	-2.75915640587E+01	-1.71683900045E+02
2.19650000000E+07	-2.77922103763E+01	-9.48816322976E+01	3.73597285760E+01	-3.59187569168E+01	-4.75021122907E+01	-3.24370718276E+01	-2.74930542887E+01	-1.71480794008E+02
2.21600000000E+07	-2.80114919003E+01	-9.47007796721E+01	3.73613168342E+01	-3.64323493375E+01	-4.74815794079E+01	-3.29242983217E+01	-2.74389003297E+01	-1.70892167939E+02
2.23550000000E+07	-2.81860209564E+01	-9.44160893716E+01	3.73625292077E+01	-3.69463088364E+01	-4.75814473896E+01	-3.37190868350E+01	-2.74694501082E+01	-1.70602952119E+02
2.25500000000E+07	-2.83746903544E+01	-9.43114427549E+01	3.73641829164E+01	-3.74482736748E+01	-4.75619897080E+01	-3.35132592100E+01	-2.73608805318E+01	-1.70530073184E+02
2.27450000000E+07	-2.85648239886E+01	-9.38103525610E+01	3.73652926372E+01	-3.79447280369E+01	-4.76175625193E+01	-3.47543695934E+01	-2.73024055189E+01	-1.70173050818E+02
2.29400000000E+07	-2.87713910983E+01	-9.37524434377E+01	3.73605253754E+01	-3.84546488059E+01	-4.75411014723E+01	-3.52312999616E+01	-2.72857982688E+01	-1.69887002207E+02
2.31350000000E+07	-2.89469882649E+01	-9.34035696567E+01	3.73649020605E+01	-3.89407491874E+01	-4.75480008653E+01	-3.53229349616E+01	-2.72275731109E+01	-1.69019510592E+02
2.33300000000E+07	-2.91418209120E+01	-9.30273838457E+01	3.73625172978E+01	-3.94538235621E+01	-4.74984716397E+01	-3.60578732602E+01	-2.72281837376E+01	-1.68730188475E+02
2.35250000000E+07	-2.93216835346E+01	-9.27206721824E+01	3.73607942815E+01	-3.99645995997E+01	-4.76140599302E+01	-3.66895143800E+01	-2.71562940844E+01	-1.68744891174E+02
2.37200000000E+07	-2.95137306468E+01	-9.23532581101E+01	3.73673490655E+01	-4.04594030408E+01	-4.75691050199E+01	-3.72272763028E+01	-2.71340546778E+01	-1.68347384319E+02
2.39150000000E+07	-2.97241710746E+01	-9.20356387943E+01	3.73654063945E+01	-4.09449314681E+01	-4.75993245124E+01	-3.75193619395E+01	-2.70535475783E+01	-1.67845402623E+02
2.41100000000E+07	-2.99144142745E+01	-9.15994708913E+01	3.73629568468E+01	-4.14263815220E+01	-4.75195141123E+01	-3.72814636590E+01	-2.70096717678E+01	-1.67697141924E+02
2.43050000000E+07	-3.01513655012E+01	-9.12004994256E+01	3.73638347343E+01	-4.19267984127E+01	-4.75300000039E+01	-3.83035381043E+01	-2.69609838813E+01	-1.67478718034E+02
2.45000000000E+07	-3.03446339898E+01	-9.08299577479E+01	3.73604104736E+01	-4.24474186587E+01	-4.75109640201E+01	-3.86393890573E+01	-2.68935681215E+01	-1.66972040387E+02
2.46950000000E+07	-3.05330885320E+01	-9.02758091913E+01	3.73617907618E+01	-4.29322763480E+01	-4.75573040189E+01	-3.94390046802E+01	-2.68723316489E+01	-1.66591779268E+02
2.48900000000E+07	-3.07189689839E+01	-8.98255322900E+01	3.73658359103E+01	-4.34070081729E+01	-4.75843240937E+01	-3.94638727345E+01	-2.68088035656E+01	-1.66254101994E+02
2.50850000000E+07	-3.08975000206E+01	-8.92464514130E+01	3.73637639048E+01	-4.39207632813E+01	-4.76509151450E+01	-3.99866036960E+01	-2.67994612738E+01	-1.66167706093E+02
2.52800000000E+07	-3.11341744790E+01	-8.85955475224E+01	3.73656106235E+01	-4.43903330211E+01	-4.75590754278E+01	-4.09729051822E+01	-2.67532680836E+01	-1.65761471650E+02
2.54750000000E+07	-3.13409050554E+01	-8.82513493438E+01	3.73610323723E+01	-4.48986457846E+01	-4.75276264217E+01	-4.11015326970E+01	-2.67281604596E+01	-1.65808935380E+02
2.56700000000E+07	-3.15218201709E+01	-8.74112482351E+01	3.73620507411E+01	-4.53546567173E+01	-4.75383444882E+01	-4.17918763297E+01	-2.66865896379E+01	-1.65203534477E+02
2.58650000000E+07	-3.17206971815E+01	-8.67737749521E+01	3.73598354251E+01	-4.58640020629E+01	-4.75734127574E+01	-4.21972344279E+01	-2.66631763510E+01	-1.65140456285E+02
2.60600000000E+07	-3.19134503917E+01	-8.61301224317E+01	3.73623538322E+01	-4.63469510475E+01	-4.75485875257E+01	-4.28181524045E+01	-2.65809510941E+01	-1.65032342705E+02
2.62550000000E+07	-3.21444724627E+01	-8.55327306238E+01	3.73635477803E+01	-4.68322965372E+01	-4.75138359056E+01	-4.31673156153E+01	-2.65630961495E+01	-1.64485247084E+02
2.64500000000E+07	-3.23123956096E+01	-8.46377571879E+01	3.73620175109E+01	-4.73173074432E+01	-4.75864491064E+01	-4.35257024876E+01	-2.65105695456E+01	-1.64452650474E+02
2.66450000000E+07	-3.25459277302E+01	-8.39488065793E+01	3.73605661189E+01	-4.77853724259E+01	-4.75328509706E+01	-4.37143674913E+01	-2.64706487458E+01	-1.64212247733E+02
2.68400000000E+07	-3.27562716579E+01	-8.30712228516E+01	3.73595617679E+01	-4.82594997483E+01	-4.75663619716E+01	-4.46812788723E+01	-2.64338248289E+01	-1.63952288242E+02
2.70350000000E+07	-3.29126462883E+01	-8.20884033168E+01	3.73603640273E+01	-4.87461763572E+01	-4.75572403917E+01	-4.47010822093E+01	-2.63982690874E+01	-1.63759899632E+02
2.72300000000E+07	-3.31061518446E+01	-8.11978056083E+01	3.73609078392E+01	-4.92150868491E+01	-4.75307605745E+01	-4.54659143818E+01	-2.63425674611E+01	-1.63473944703E+02
2.74250000000E+07	-3.33019639127E+01	-8.04130566353E+01	3.73621806307E+01	-4.96834919798E+01	-4.75604105265E+01	-4.61961983651E+01	-2.62875908308E+01	-1.63181016302E+02
2.76200000000E+07	-3.34828796135E+01	-7.89460252848E+01	3.73625930489E+01	-5.01909973474E+01	-4.75731046543E+01	-4.65919424305E+01	-2.62634726606E+01	-1.63114047112E+02
