# Hz S DB R 50
! CMT, M5045, 22160017, 22.4.3/2
! Date: 2/26/2023 21:57:02
! Data: Format (Calibration Info)
! Freq	S11:dB/Ang(F2)	S21:dB/Ang(F2)	S12:dB/Ang(F2)	S22:dB/Ang(F2)
5.00000000000E+06	-9.63551492812E+00	-7.79700125260E+01	3.64071094682E+01	3.66623815886E+01	-4.86245234302E+01	3.99410611309E+01	-1.44783351420E+01	6.80142043277E+01
5.19500000000E+06	-9.98745862185E+00	-7.90529446033E+01	3.64889383136E+01	3.45279283779E+01	-4.84669017419E+01	3.68970497801E+01	-1.50989549201E+01	6.69318927097E+01
5.39000000000E+06	-1.03331583657E+01	-8.00915451370E+01	3.65604206247E+01	3.24810034748E+01	-4.83477987115E+01	3.60121472390E+01	-1.57081875476E+01	6.60250253803E+01
5.58500000000E+06	-1.06563456416E+01	-8.10522879966E+01	3.66277059983E+01	3.05603735405E+01	-4.83835467086E+01	3.33872124404E+01	-1.63250623527E+01	6.50516800503E+01
5.78000000000E+06	-1.09777424998E+01	-8.19728142494E+01	3.66833093321E+01	2.87344264945E+01	-4.82759671388E+01	3.20214448194E+01	-1.69112888906E+01	6.43874529549E+01
5.97500000000E+06	-1.12943639114E+01	-8.28672780058E+01	3.67368768084E+01	2.69873440299E+01	-4.82858444684E+01	3.00886741937E+01	-1.74859356785E+01	6.38013725905E+01
6.17000000000E+06	-1.16006542069E+01	-8.36720785832E+01	3.67820396585E+01	2.53184346346E+01	-4.82494303790E+01	2.83529165929E+01	-1.80673263167E+01	6.32564021080E+01
6.36500000000E+06	-1.18970064361E+01	-8.44661640045E+01	3.68287617543E+01	2.37443516910E+01	-4.81232673291E+01	2.67546677156E+01	-1.86182492114E+01	6.26660955991E+01
6.56000000000E+06	-1.21925418085E+01	-8.52249970005E+01	3.68617167662E+01	2.22331195088E+01	-4.81287461334E+01	2.55712632857E+01	-1.91848314580E+01	6.23403296495E+01
6.75500000000E+06	-1.24800601664E+01	-8.59651989299E+01	3.68986990300E+01	2.07704181379E+01	-4.81207340975E+01	2.36578849248E+01	-1.97044284892E+01	6.21409030919E+01
6.95000000000E+06	-1.27583174704E+01	-8.66444631240E+01	3.69300563344E+01	1.93874695848E+01	-4.80287900201E+01	2.23938139422E+01	-2.02568779688E+01	6.17302358154E+01
7.14500000000E+06	-1.30394890583E+01	-8.73279180262E+01	3.69581248788E+01	1.80471226938E+01	-4.80302431247E+01	2.11497665645E+01	-2.07864670622E+01	6.15761439817E+01
7.34000000000E+06	-1.33023377012E+01	-8.80280859305E+01	3.69835270599E+01	1.67201822272E+01	-4.79422605806E+01	1.92253054968E+01	-2.13006212660E+01	6.14433297559E+01
7.53500000000E+06	-1.35664740736E+01	-8.86292547794E+01	3.70093761571E+01	1.54813532392E+01	-4.79224479003E+01	1.85363903729E+01	-2.18286861420E+01	6.14258335009E+01
7.73000000000E+06	-1.38276873819E+01	-8.92389746583E+01	3.70296200404E+01	1.42635167651E+01	-4.79229299032E+01	1.70771609605E+01	-2.23717212765E+01	6.14520048649E+01
7.92500000000E+06	-1.40958235531E+01	-8.98724676147E+01	3.70472822172E+01	1.31138961183E+01	-4.79428372699E+01	1.58293020898E+01	-2.28610515935E+01	6.15143537964E+01
8.12000000000E+06	-1.43487072993E+01	-9.03881353288E+01	3.70664325512E+01	1.19840282659E+01	-4.78893603557E+01	1.52496697575E+01	-2.33353438097E+01	6.15437359617E+01
8.31500000000E+06	-1.45996596287E+01	-9.09263603960E+01	3.70855852292E+01	1.08852081226E+01	-4.78539090208E+01	1.38411716026E+01	-2.39215808831E+01	6.16318544526E+01
8.51000000000E+06	-1.48446600851E+01	-9.14540982948E+01	3.71022484612E+01	9.83884098396E+00	-4.78281472421E+01	1.30551135049E+01	-2.43964646852E+01	6.18343003671E+01
8.70500000000E+06	-1.50923075940E+01	-9.20575496493E+01	3.71145635211E+01	8.76081256871E+00	-4.78346089221E+01	1.19988419618E+01	-2.48805091830E+01	6.21445443286E+01
8.90000000000E+06	-1.53306053981E+01	-9.25884195797E+01	3.71279937889E+01	7.74890297171E+00	-4.77875699343E+01	1.09480290111E+01	-2.54073750504E+01	6.23294532213E+01
9.09500000000E+06	-1.55734841739E+01	-9.30785806393E+01	3.71411266868E+01	6.78576545100E+00	-4.77428940733E+01	1.00448518110E+01	-2.58797742673E+01	6.30296376474E+01
9.29000000000E+06	-1.58077404706E+01	-9.35873492420E+01	3.71531332419E+01	5.83274204940E+00	-4.77932911006E+01	9.10562173488E+00	-2.63550365180E+01	6.32295341833E+01
9.48500000000E+06	-1.60421868503E+01	-9.41060807096E+01	3.71637619293E+01	4.89476307532E+00	-4.77162938891E+01	8.32662388512E+00	-2.68053221677E+01	6.37406898615E+01
9.68000000000E+06	-1.62787741451E+01	-9.46550268020E+01	3.71739917945E+01	3.95486230386E+00	-4.77725158654E+01	6.81806123488E+00	-2.73924427926E+01	6.39784456718E+01
9.87500000000E+06	-1.65152692441E+01	-9.51378301090E+01	3.71839720674E+01	3.04809452833E+00	-4.77236274916E+01	6.10300958802E+00	-2.78598317526E+01	6.47191080241E+01
1.00700000000E+07	-1.67514485212E+01	-9.55832549696E+01	3.71921466167E+01	2.18303689737E+00	-4.77137582025E+01	5.56907519041E+00	-2.83182593721E+01	6.53999984277E+01
1.02650000000E+07	-1.69800507149E+01	-9.60922824318E+01	3.72036578788E+01	1.31587337564E+00	-4.77131569904E+01	4.02495663390E+00	-2.89002215571E+01	6.61039144293E+01
1.04600000000E+07	-1.72080083678E+01	-9.64891051078E+01	3.72101094386E+01	4.74266689133E-01	-4.76578551781E+01	3.60414820812E+00	-2.94478005221E+01	6.67372524270E+01
1.06550000000E+07	-1.74460762618E+01	-9.69935691260E+01	3.72182235192E+01	-3.69782061314E-01	-4.77836832844E+01	2.94713626381E+00	-2.98399561137E+01	6.77950448597E+01
1.08500000000E+07	-1.76496596719E+01	-9.74258492141E+01	3.72245405394E+01	-1.18988256407E+00	-4.75929753471E+01	2.33941519049E+00	-3.04139829955E+01	6.92236540495E+01
1.10450000000E+07	-1.78755632321E+01	-9.79038531008E+01	3.72293544848E+01	-1.98893171243E+00	-4.75856686021E+01	1.07684228841E+00	-3.08550634088E+01	6.98716423539E+01
1.12400000000E+07	-1.80956905314E+01	-9.83455550724E+01	3.72368432799E+01	-2.79534145585E+00	-4.75746091151E+01	6.69820381195E-02	-3.13429024365E+01	7.14313086199E+01
1.14350000000E+07	-1.83108630460E+01	-9.87961914204E+01	3.72416574697E+01	-3.56972944773E+00	-4.76101906529E+01	-7.03410495009E-01	-3.17134328819E+01	7.31907577841E+01
1.16300000000E+07	-1.85271838421E+01	-9.92262944783E+01	3.72513544666E+01	-4.38313998383E+00	-4.76939517047E+01	-1.10283102463E+00	-3.21825175953E+01	7.40397933456E+01
1.18250000000E+07	-1.87389288930E+01	-9.96337726980E+01	3.72550118372E+01	-5.14411452493E+00	-4.75487420097E+01	-2.28166784277E+00	-3.26627625691E+01	7.54136411801E+01
1.20200000000E+07	-1.89569492868E+01	-1.00057635188E+02	3.72598790955E+01	-5.91799947404E+00	-4.76557869201E+01	-3.09171912728E+00	-3.32125658479E+01	7.65956513710E+01
1.22150000000E+07	-1.91718850224E+01	-1.00427356041E+02	3.72633768514E+01	-6.66025078604E+00	-4.76530320996E+01	-3.41358119127E+00	-3.36786928284E+01	7.81702189654E+01
1.24100000000E+07	-1.93825225385E+01	-1.00931129136E+02	3.72655452013E+01	-7.37865051596E+00	-4.76037529217E+01	-4.41435499738E+00	-3.42621230540E+01	7.98446795063E+01
1.26050000000E+07	-1.96056443003E+01	-1.01330030884E+02	3.72696210118E+01	-8.08902898909E+00	-4.76497984124E+01	-5.38489534013E+00	-3.47190938978E+01	8.18246118989E+01
1.28000000000E+07	-1.98143140864E+01	-1.01714408606E+02	3.72712035282E+01	-8.77232549196E+00	-4.75809600964E+01	-5.95440443765E+00	-3.52472417128E+01	8.35072046000E+01
1.29950000000E+07	-2.00273437832E+01	-1.02075463399E+02	3.72779048879E+01	-9.44112417040E+00	-4.75517233143E+01	-6.68540601013E+00	-3.58763927087E+01	8.67699450137E+01
1.31900000000E+07	-2.02503958079E+01	-1.02483985832E+02	3.72818092659E+01	-1.01039168945E+01	-4.76389951223E+01	-7.06746612600E+00	-3.61681476283E+01	8.80150920694E+01
1.33850000000E+07	-2.04646603332E+01	-1.02842215244E+02	3.72812425134E+01	-1.07631351854E+01	-4.75579331953E+01	-7.64418682499E+00	-3.67608177380E+01	9.04602059534E+01
1.35800000000E+07	-2.06781345093E+01	-1.03181284137E+02	3.72886744946E+01	-1.14342060463E+01	-4.75842273061E+01	-8.81148254789E+00	-3.72087222880E+01	9.33873440798E+01
1.37750000000E+07	-2.08975351541E+01	-1.03538320132E+02	3.72917651944E+01	-1.20876639821E+01	-4.76164003678E+01	-9.36861296613E+00	-3.75499306509E+01	9.70838653304E+01
1.39700000000E+07	-2.11240113361E+01	-1.03954878365E+02	3.72937852142E+01	-1.27458636565E+01	-4.75805204625E+01	-9.98612859809E+00	-3.81446411237E+01	1.00612756414E+02
1.41650000000E+07	-2.13417058943E+01	-1.04222801103E+02	3.72997026964E+01	-1.33722448934E+01	-4.76273486325E+01	-1.06287515159E+01	-3.85248542722E+01	1.03550940945E+02
1.43600000000E+07	-2.15674063221E+01	-1.04594937933E+02	3.73006043287E+01	-1.40072969499E+01	-4.76254253107E+01	-1.13585303563E+01	-3.90058453834E+01	1.06103865032E+02
1.45550000000E+07	-2.17877987074E+01	-1.04953022385E+02	3.73002987716E+01	-1.46472503989E+01	-4.75303977827E+01	-1.17599439727E+01	-3.94111392330E+01	1.10724420512E+02
1.47500000000E+07	-2.20094162765E+01	-1.05208274984E+02	3.73055530426E+01	-1.52810990495E+01	-4.76409864333E+01	-1.21396217374E+01	-3.98053573252E+01	1.13568140687E+02
1.49450000000E+07	-2.22296122304E+01	-1.05538736690E+02	3.73067887600E+01	-1.58772210923E+01	-4.76016317699E+01	-1.29428549501E+01	-4.01136062141E+01	1.18706198506E+02
1.51400000000E+07	-2.24441652290E+01	-1.05954660047E+02	3.73123459484E+01	-1.65301882847E+01	-4.76028651399E+01	-1.36261855331E+01	-4.02593631154E+01	1.23069617225E+02
1.53350000000E+07	-2.26696007658E+01	-1.06161365570E+02	3.73129236814E+01	-1.71194086125E+01	-4.75678638533E+01	-1.44509249708E+01	-4.07592585642E+01	1.26280776922E+02
1.55300000000E+07	-2.28878743299E+01	-1.06499179107E+02	3.73162691320E+01	-1.77204271986E+01	-4.75941596107E+01	-1.50935583987E+01	-4.08446458687E+01	1.32221661936E+02
1.57250000000E+07	-2.31272694892E+01	-1.06878358164E+02	3.73185515678E+01	-1.83379055158E+01	-4.74945656332E+01	-1.55277526937E+01	-4.07680278654E+01	1.36557200399E+02
1.59200000000E+07	-2.33483856396E+01	-1.07049261109E+02	3.73225141944E+01	-1.89163781886E+01	-4.75565631768E+01	-1.64121432998E+01	-4.07197837258E+01	1.41089927658E+02
1.61150000000E+07	-2.35762357775E+01	-1.07278633313E+02	3.73239902478E+01	-1.95183835287E+01	-4.75792060752E+01	-1.63277354857E+01	-4.08152388691E+01	1.44527397897E+02
1.63100000000E+07	-2.38136381387E+01	-1.07726671684E+02	3.73205364955E+01	-2.01235154068E+01	-4.75950612791E+01	-1.76560103908E+01	-4.05431540645E+01	1.49404309650E+02
1.65050000000E+07	-2.40435257920E+01	-1.07857360627E+02	3.73247702686E+01	-2.06968455250E+01	-4.75600380105E+01	-1.76920423712E+01	-4.07558871295E+01	1.53294144364E+02
1.67000000000E+07	-2.42842949244E+01	-1.08096007217E+02	3.73261978599E+01	-2.12820288212E+01	-4.75940043331E+01	-1.82576735236E+01	-4.06091584010E+01	1.56855063066E+02
1.68950000000E+07	-2.45070677284E+01	-1.08365910684E+02	3.73265963911E+01	-2.18526334202E+01	-4.75339783546E+01	-1.87979216208E+01	-4.03437268602E+01	1.60010426870E+02
1.70900000000E+07	-2.47578985250E+01	-1.08747279263E+02	3.73273838806E+01	-2.24462655783E+01	-4.75741666200E+01	-1.95253591893E+01	-4.04398829002E+01	1.63864309906E+02
1.72850000000E+07	-2.50053946671E+01	-1.08933231828E+02	3.73303197825E+01	-2.29915573116E+01	-4.75032736737E+01	-2.02551708707E+01	-3.98701281568E+01	1.67313370131E+02
1.74800000000E+07	-2.52471325837E+01	-1.09003033662E+02	3.73314842939E+01	-2.35554071976E+01	-4.75720596933E+01	-2.04801323404E+01	-3.98736541037E+01	1.71900922965E+02
1.76750000000E+07	-2.54934310213E+01	-1.09299353421E+02	3.73318057902E+01	-2.41025221853E+01	-4.75388866112E+01	-2.10293426105E+01	-3.94923686475E+01	1.74719796034E+02
1.78700000000E+07	-2.57300341531E+01	-1.09655595427E+02	3.73378255328E+01	-2.46912403645E+01	-4.75603968082E+01	-2.16564599558E+01	-3.94394742838E+01	1.76318186496E+02
1.80650000000E+07	-2.59814206327E+01	-1.09704174796E+02	3.73360588569E+01	-2.52390648165E+01	-4.75201490833E+01	-2.25466880594E+01	-3.90333971942E+01	1.78566662130E+02
1.82600000000E+07	-2.62633989852E+01	-1.09833810925E+02	3.73353726806E+01	-2.57932450038E+01	-4.75301972657E+01	-2.24000740302E+01	-3.88574556156E+01	-1.78171714414E+02
1.84550000000E+07	-2.65157318123E+01	-1.10007776586E+02	3.73377488980E+01	-2.63436239952E+01	-4.75345866011E+01	-2.32099745150E+01	-3.86513752772E+01	-1.77143103267E+02
1.86500000000E+07	-2.67570212254E+01	-1.10221056539E+02	3.73397187976E+01	-2.69212202090E+01	-4.75000396077E+01	-2.38912231201E+01	-3.83847857179E+01	-1.75312545802E+02
1.88450000000E+07	-2.70354205655E+01	-1.10343418026E+02	3.73421158579E+01	-2.74422203309E+01	-4.75156566159E+01	-2.43416864194E+01	-3.82505629685E+01	-1.73014816459E+02
1.90400000000E+07	-2.72939160062E+01	-1.10566343532E+02	3.73425755494E+01	-2.80038406897E+01	-4.75551720518E+01	-2.45750867368E+01	-3.80686495619E+01	-1.72199032112E+02
1.92350000000E+07	-2.75700988652E+01	-1.10563990328E+02	3.73457113459E+01	-2.85453557830E+01	-4.75695368061E+01	-2.53718857375E+01	-3.78144046876E+01	-1.69494681350E+02
1.94300000000E+07	-2.78465384821E+01	-1.10658014363E+02	3.73441260407E+01	-2.90812106248E+01	-4.75113588805E+01	-2.60229355732E+01	-3.74222595517E+01	-1.69028196768E+02
1.96250000000E+07	-2.81244246880E+01	-1.10668302657E+02	3.73431337355E+01	-2.96179684138E+01	-4.75565348594E+01	-2.66100834847E+01	-3.73370117790E+01	-1.67685414622E+02
1.98200000000E+07	-2.84248817068E+01	-1.10688419702E+02	3.73466561332E+01	-3.01535239943E+01	-4.75958508861E+01	-2.68902281311E+01	-3.72364743716E+01	-1.65635471228E+02
2.00150000000E+07	-2.87351302926E+01	-1.10908403408E+02	3.73435777469E+01	-3.06790716431E+01	-4.74875666229E+01	-2.78510953141E+01	-3.68784276416E+01	-1.65245675147E+02
2.02100000000E+07	-2.90265286890E+01	-1.11128113850E+02	3.73456589158E+01	-3.12075910855E+01	-4.75201769091E+01	-2.81181481826E+01	-3.67699684590E+01	-1.63808917266E+02
2.04050000000E+07	-2.93287288441E+01	-1.10843221896E+02	3.73431164189E+01	-3.17262244621E+01	-4.75182075947E+01	-2.81588509031E+01	-3.65099120756E+01	-1.62101610436E+02
2.06000000000E+07	-2.96466131343E+01	-1.10845600064E+02	3.73461085193E+01	-3.22762782338E+01	-4.75077748421E+01	-2.91504623131E+01	-3.63625493345E+01	-1.61608568388E+02
2.07950000000E+07	-2.99423865912E+01	-1.10869527885E+02	3.73467331039E+01	-3.27901846785E+01	-4.75815061832E+01	-2.94885940124E+01	-3.62009427603E+01	-1.59898567119E+02
2.09900000000E+07	-3.02802936415E+01	-1.10827979374E+02	3.73494015345E+01	-3.33237562239E+01	-4.75159617864E+01	-3.03125456677E+01	-3.59965326591E+01	-1.59527593615E+02
2.11850000000E+07	-3.06192952453E+01	-1.10670963357E+02	3.73465985570E+01	-3.38295584267E+01	-4.75337004486E+01	-3.08759009817E+01	-3.57980058008E+01	-1.58700395874E+02
2.13800000000E+07	-3.09626054825E+01	-1.10686509784E+02	3.73504966517E+01	-3.43479002623E+01	-4.75474647331E+01	-3.08638556054E+01	-3.56287713721E+01	-1.57702299883E+02
2.15750000000E+07	-3.12737285266E+01	-1.10523101864E+02	3.73478771535E+01	-3.48785001173E+01	-4.75000570235E+01	-3.12210843238E+01	-3.54733790004E+01	-1.56229835856E+02
2.17700000000E+07	-3.16318558884E+01	-1.10090913708E+02	3.73472709608E+01	-3.53631840701E+01	-4.75323874483E+01	-3.17541462196E+01	-3.52465786345E+01	-1.56354114145E+02
2.19650000000E+07	-3.20071277578E+01	-1.10111394629E+02	3.73476007686E+01	-3.59053775954E+01	-4.75244856663E+01	-3.25096587805E+01	-3.51029819831E+01	-1.55209191898E+02
2.21600000000E+07	-3.23624822788E+01	-1.09807999288E+02	3.73505976657E+01	-3.63793839445E+01	-4.75281141500E+01	-3.31769006407E+01	-3.49278983915E+01	-1.54886506129E+02
2.23550000000E+07	-3.27288908370E+01	-1.09388338520E+02	3.73508317703E+01	-3.68988862103E+01	-4.75701269009E+01	-3.34377784132E+01	-3.47435249875E+01	-1.53485740534E+02
2.25500000000E+07	-3.31698255440E+01	-1.09087799866E+02	3.73514828051E+01	-3.74295879108E+01	-4.75776336202E+01	-3.39578976707E+01	-3.46483057479E+01	-1.52728683604E+02
2.27450000000E+07	-3.35524242435E+01	-1.08356678378E+02	3.73514618410E+01	-3.79180683381E+01	-4.75342691705E+01	-3.45184430339E+01	-3.45040381753E+01	-1.52264893276E+02
2.29400000000E+07	-3.39449740058E+01	-1.07655928244E+02	3.73498888055E+01	-3.84223101379E+01	-4.75558875626E+01	-3.48948981007E+01	-3.44328142506E+01	-1.51514217564E+02
2.31350000000E+07	-3.43823766146E+01	-1.07225459942E+02	3.73493851216E+01	-3.89326413640E+01	-4.75827395696E+01	-3.52891354473E+01	-3.42722018311E+01	-1.50888439563E+02
2.33300000000E+07	-3.48657000860E+01	-1.06693767377E+02	3.73531882789E+01	-3.94319086070E+01	-4.75492008910E+01	-3.59537080689E+01	-3.41196046991E+01	-1.50182678966E+02
2.35250000000E+07	-3.52688329946E+01	-1.05926867154E+02	3.73497767582E+01	-3.99376854155E+01	-4.75598347941E+01	-3.62364840940E+01	-3.38743100979E+01	-1.49641580004E+02
2.37200000000E+07	-3.57301791938E+01	-1.04742087276E+02	3.73522448520E+01	-4.04341570871E+01	-4.76077360907E+01	-3.68505382047E+01	-3.38551095025E+01	-1.48483493073E+02
2.39150000000E+07	-3.62902136378E+01	-1.03792468826E+02	3.73525825963E+01	-4.09321697405E+01	-4.75168351433E+01	-3.71668180950E+01	-3.37219299595E+01	-1.48685244086E+02
2.41100000000E+07	-3.66996759613E+01	-1.02513716572E+02	3.73517262232E+01	-4.14406441874E+01	-4.76068370823E+01	-3.78772849591E+01	-3.35971097926E+01	-1.48798042167E+02
2.43050000000E+07	-3.72148507742E+01	-1.01019501554E+02	3.73514247533E+01	-4.19461881208E+01	-4.75665431228E+01	-3.82865952642E+01	-3.34058484941E+01	-1.48177542718E+02
2.45000000000E+07	-3.78060321876E+01	-9.95622067055E+01	3.73521073002E+01	-4.24261311751E+01	-4.74977541721E+01	-3.86312206518E+01	-3.32674061796E+01	-1.47974260917E+02
2.46950000000E+07	-3.83684330441E+01	-9.75581871086E+01	3.73506055073E+01	-4.29223286554E+01	-4.75020770683E+01	-3.94811765301E+01	-3.31935626622E+01	-1.47187017058E+02
2.48900000000E+07	-3.88477544507E+01	-9.57951722141E+01	3.73510349160E+01	-4.33996999611E+01	-4.75438122309E+01	-3.95183329202E+01	-3.30515301807E+01	-1.46683336767E+02
2.50850000000E+07	-3.93627031173E+01	-9.25341597811E+01	3.73480499425E+01	-4.38899994791E+01	-4.75926524098E+01	-4.05177883589E+01	-3.30350718753E+01	-1.46110648035E+02
2.52800000000E+07	-4.00431308966E+01	-8.99259707295E+01	3.73491183497E+01	-4.43794279444E+01	-4.75502432777E+01	-4.05742394378E+01	-3.28781079301E+01	-1.45505681903E+02
2.54750000000E+07	-4.05256708034E+01	-8.72359635162E+01	3.73486350241E+01	-4.48942014274E+01	-4.76008663429E+01	-4.14053110201E+01	-3.27427339015E+01	-1.45219120294E+02
2.56700000000E+07	-4.11400199931E+01	-8.34970735966E+01	3.73524000344E+01	-4.53727615462E+01	-4.75487541082E+01	-4.13766302634E+01	-3.26196910847E+01	-1.44818688811E+02
2.58650000000E+07	-4.17155962486E+01	-7.91227643376E+01	3.73489927669E+01	-4.58457103413E+01	-4.75315113798E+01	-4.24286628553E+01	-3.25935840026E+01	-1.44537887848E+02
2.60600000000E+07	-4.23010744645E+01	-7.42056980797E+01	3.73518427913E+01	-4.63285099392E+01	-4.75611810545E+01	-4.22394107925E+01	-3.24210093915E+01	-1.44005664734E+02
2.62550000000E+07	-4.27426655119E+01	-6.82640870671E+01	3.73493281147E+01	-4.68363120089E+01	-4.75601332017E+01	-4.28200781736E+01	-3.23101575627E+01	-1.44534625192E+02
2.64500000000E+07	-4.30913262549E+01	-6.27031813980E+01	3.73495448903E+01	-4.72967916752E+01	-4.76094532632E+01	-4.33733260115E+01	-3.22315893163E+01	-1.43264541134E+02
2.66450000000E+07	-4.33129369728E+01	-5.62089818278E+01	3.73501730362E+01	-4.77759566092E+01	-4.75465381003E+01	-4.39946876981E+01	-3.21183564285E+01	-1.43213823630E+02
2.68400000000E+07	-4.34626676473E+01	-4.96057454467E+01	3.73487837025E+01	-4.82703597831E+01	-4.75225877853E+01	-4.46731705325E+01	-3.19718632333E+01	-1.43212946796E+02
2.70350000000E+07	-4.34739727983E+01	-4.40125724212E+01	3.73513997838E+01	-4.87450662283E+01	-4.75830504228E+01	-4.47489008257E+01	-3.18346211971E+01	-1.42637636025E+02
2.72300000000E+07	-4.34926676355E+01	-3.72079162575E+01	3.73504809857E+01	-4.92412168182E+01	-4.75985492168E+01	-4.50147051034E+01	-3.17148212300E+01	-1.42388572419E+02
2.74250000000E+07	-4.31417320385E+01	-3.07197683707E+01	3.73479921820E+01	-4.96670592300E+01	-4.75774360096E+01	-4.60406380511E+01	-3.17159898006E+01	-1.42234635122E+02
2.76200000000E+07	-4.28950557680E+01	-2.60102416402E+01	3.73507925860E+01	-5.01758793925E+01	-4.75060431430E+01	-4.59056790299E+01	-3.15757621455E+01	-1.42203589764E+02
