# Hz S DB R 50
! CMT, M5045, 22160017, 22.3.3/2
! Date: 10/8/2022 19:07:58
! Data: Format (Calibration Info)
! Freq	S11:dB/Ang(F2)	S21:dB/Ang(F2)	S12:dB/Ang(F2)	S22:dB/Ang(F2)
5.00000000000E+06	-9.86210938840E+00	-9.34770206258E+01	3.63664629545E+01	-1.49924441633E+02	-4.85292934686E+01	-1.47144136417E+02	-1.38013117055E+01	6.17105324040E+01
5.19500000000E+06	-1.01943824509E+01	-9.50760076387E+01	3.64412146398E+01	-1.52185748434E+02	-4.84569030797E+01	-1.49367548987E+02	-1.43303914631E+01	6.01322920470E+01
5.39000000000E+06	-1.05121228833E+01	-9.66450774614E+01	3.65068794128E+01	-1.54356120826E+02	-4.83752386492E+01	-1.51548357286E+02	-1.48464357212E+01	5.86504904190E+01
5.58500000000E+06	-1.08171790696E+01	-9.81005610277E+01	3.65656344074E+01	-1.56362067573E+02	-4.83229015217E+01	-1.53608508982E+02	-1.53508489034E+01	5.72511512603E+01
5.78000000000E+06	-1.11131961809E+01	-9.95647808121E+01	3.66181446501E+01	-1.58367198259E+02	-4.82603200293E+01	-1.55601827175E+02	-1.58451534707E+01	5.59011927695E+01
5.97500000000E+06	-1.14009800375E+01	-1.01001283137E+02	3.66650301315E+01	-1.60255199450E+02	-4.82093218990E+01	-1.57452355700E+02	-1.63257309873E+01	5.46120888043E+01
6.17000000000E+06	-1.16819842629E+01	-1.02364512519E+02	3.67061504257E+01	-1.62036472929E+02	-4.81651770436E+01	-1.59260815454E+02	-1.67963443118E+01	5.33657179487E+01
6.36500000000E+06	-1.19488672314E+01	-1.03676777653E+02	3.67428359881E+01	-1.63752259022E+02	-4.81195943066E+01	-1.61000813333E+02	-1.72580048849E+01	5.21591678307E+01
6.56000000000E+06	-1.22043736731E+01	-1.04929527578E+02	3.67800730915E+01	-1.65372779001E+02	-4.80844372536E+01	-1.62648908526E+02	-1.77093747210E+01	5.09960691851E+01
6.75500000000E+06	-1.24593846806E+01	-1.06206614844E+02	3.68126324478E+01	-1.67001769965E+02	-4.80372015655E+01	-1.64232332701E+02	-1.81518471056E+01	4.98349231062E+01
6.95000000000E+06	-1.27080195962E+01	-1.07470976097E+02	3.68360694985E+01	-1.68538526636E+02	-4.80125202654E+01	-1.65801209146E+02	-1.85898898548E+01	4.87304873313E+01
7.14500000000E+06	-1.29548834252E+01	-1.08653570121E+02	3.68587768492E+01	-1.70019825094E+02	-4.79808422978E+01	-1.67274170131E+02	-1.90203250573E+01	4.76294928803E+01
7.34000000000E+06	-1.31790619608E+01	-1.09833024259E+02	3.68863941438E+01	-1.71458018681E+02	-4.79558844259E+01	-1.68701978245E+02	-1.94406818012E+01	4.65460931179E+01
7.53500000000E+06	-1.34124391473E+01	-1.11017280514E+02	3.69079877219E+01	-1.72865639371E+02	-4.79256672617E+01	-1.70078794665E+02	-1.98591402999E+01	4.54895861695E+01
7.73000000000E+06	-1.36351132064E+01	-1.12187875157E+02	3.69269213810E+01	-1.74188082162E+02	-4.79011800466E+01	-1.71408520431E+02	-2.02694513622E+01	4.44263279666E+01
7.92500000000E+06	-1.38490181171E+01	-1.13327012649E+02	3.69423943855E+01	-1.75560359216E+02	-4.78829780064E+01	-1.72716978006E+02	-2.06769812415E+01	4.33646959678E+01
8.12000000000E+06	-1.40581808404E+01	-1.14412725998E+02	3.69600550035E+01	-1.76803198472E+02	-4.78587739872E+01	-1.74008727497E+02	-2.10797503681E+01	4.23308125605E+01
8.31500000000E+06	-1.42734714941E+01	-1.15546441633E+02	3.69707849838E+01	-1.78043825978E+02	-4.78417405099E+01	-1.75314042787E+02	-2.14758682211E+01	4.12981264897E+01
8.51000000000E+06	-1.44768545710E+01	-1.16672910166E+02	3.69874293316E+01	-1.79284470843E+02	-4.78255577762E+01	-1.76465873324E+02	-2.18730745880E+01	4.02362575995E+01
8.70500000000E+06	-1.46814580218E+01	-1.17794005072E+02	3.69984469083E+01	1.79511694599E+02	-4.78139095215E+01	-1.77643201790E+02	-2.22628402424E+01	3.91894403201E+01
8.90000000000E+06	-1.48772489998E+01	-1.18843567944E+02	3.70121098032E+01	1.78361459528E+02	-4.77953379839E+01	-1.78789180433E+02	-2.26533607224E+01	3.81055932612E+01
9.09500000000E+06	-1.50635455117E+01	-1.19899207923E+02	3.70238154090E+01	1.77252618658E+02	-4.77821062565E+01	-1.79998543503E+02	-2.30390184372E+01	3.70324670562E+01
9.29000000000E+06	-1.52572730134E+01	-1.21047115329E+02	3.70318916907E+01	1.76096262307E+02	-4.77725448253E+01	1.78939304499E+02	-2.34237468027E+01	3.59531495179E+01
9.48500000000E+06	-1.54367443316E+01	-1.22030127530E+02	3.70391076964E+01	1.75018086493E+02	-4.77566592863E+01	1.77860684482E+02	-2.38028496694E+01	3.48406611294E+01
9.68000000000E+06	-1.56129509190E+01	-1.23148609161E+02	3.70496763493E+01	1.73925929506E+02	-4.77493997977E+01	1.76769188912E+02	-2.41879870923E+01	3.37160165093E+01
9.87500000000E+06	-1.57991413100E+01	-1.24122758076E+02	3.70587175967E+01	1.72896877982E+02	-4.77385649136E+01	1.75735117928E+02	-2.45662522576E+01	3.25638736552E+01
1.00700000000E+07	-1.59832158818E+01	-1.25178104706E+02	3.70641427375E+01	1.71837025422E+02	-4.77300111320E+01	1.74718767075E+02	-2.49568397181E+01	3.12860319579E+01
1.02650000000E+07	-1.61536058072E+01	-1.26234478748E+02	3.70712129083E+01	1.70811327451E+02	-4.77250050224E+01	1.73661242625E+02	-2.53570722268E+01	3.01128860259E+01
1.04600000000E+07	-1.63264051434E+01	-1.27289523468E+02	3.70784755014E+01	1.69808481274E+02	-4.77164548358E+01	1.72656022300E+02	-2.57506316346E+01	2.89149790146E+01
1.06550000000E+07	-1.65024248476E+01	-1.28257538886E+02	3.70809033243E+01	1.68843496283E+02	-4.77093390380E+01	1.71680896808E+02	-2.61429251584E+01	2.77207984468E+01
1.08500000000E+07	-1.66741171721E+01	-1.29256737359E+02	3.70868101240E+01	1.67855296884E+02	-4.76982274230E+01	1.70704152940E+02	-2.65361242464E+01	2.65013949010E+01
1.10450000000E+07	-1.68323802601E+01	-1.30299572215E+02	3.70909429702E+01	1.66913202455E+02	-4.76884627960E+01	1.69721216844E+02	-2.69170412596E+01	2.52638606474E+01
1.12400000000E+07	-1.70022453519E+01	-1.31241286980E+02	3.70943331882E+01	1.65928989681E+02	-4.76812717539E+01	1.68796198520E+02	-2.73039211341E+01	2.39844061365E+01
1.14350000000E+07	-1.71474665593E+01	-1.32225486545E+02	3.71043455441E+01	1.65005170774E+02	-4.76736286585E+01	1.67764525417E+02	-2.76925444695E+01	2.26627875271E+01
1.16300000000E+07	-1.73007676387E+01	-1.33237453264E+02	3.71052400769E+01	1.64061100912E+02	-4.76690359012E+01	1.66829100370E+02	-2.80758437440E+01	2.12239585400E+01
1.18250000000E+07	-1.74519532052E+01	-1.34259429688E+02	3.71139997534E+01	1.63152615423E+02	-4.76631386505E+01	1.65906977981E+02	-2.84595476827E+01	1.98076537980E+01
1.20200000000E+07	-1.75982556140E+01	-1.35273638500E+02	3.71186244357E+01	1.62217038408E+02	-4.76511034642E+01	1.64942383712E+02	-2.88490936441E+01	1.82350450320E+01
1.22150000000E+07	-1.77503506655E+01	-1.36261168589E+02	3.71238079993E+01	1.61301841507E+02	-4.76474274811E+01	1.64027421879E+02	-2.92402411064E+01	1.66604423873E+01
1.24100000000E+07	-1.79033959774E+01	-1.37318947669E+02	3.71180000571E+01	1.60416825472E+02	-4.76470375303E+01	1.63097221088E+02	-2.96287467940E+01	1.49928465305E+01
1.26050000000E+07	-1.80568178571E+01	-1.38316914890E+02	3.71197265933E+01	1.59542899769E+02	-4.76378745472E+01	1.62241283932E+02	-3.00295417169E+01	1.32614338640E+01
1.28000000000E+07	-1.81932581692E+01	-1.39224191685E+02	3.71242598775E+01	1.58688617350E+02	-4.76391354228E+01	1.61351512835E+02	-3.04209915528E+01	1.14732590985E+01
1.29950000000E+07	-1.83395314506E+01	-1.40216932654E+02	3.71268295229E+01	1.57864457561E+02	-4.76349389190E+01	1.60454900418E+02	-3.08286795438E+01	9.60772257961E+00
1.31900000000E+07	-1.84886457071E+01	-1.41238096275E+02	3.71303234295E+01	1.57004846478E+02	-4.76382134856E+01	1.59618294113E+02	-3.12235893824E+01	7.63129976565E+00
1.33850000000E+07	-1.86249664528E+01	-1.42037023470E+02	3.71309630718E+01	1.56205413904E+02	-4.76306586314E+01	1.58759759316E+02	-3.16257119500E+01	5.59725580175E+00
1.35800000000E+07	-1.87602637374E+01	-1.43028169525E+02	3.71329725331E+01	1.55367176083E+02	-4.76271600095E+01	1.57905215376E+02	-3.20297407173E+01	3.38428616721E+00
1.37750000000E+07	-1.89032387734E+01	-1.43948392289E+02	3.71397181848E+01	1.54547240131E+02	-4.76295919568E+01	1.57094375961E+02	-3.24233459514E+01	1.11394003808E+00
1.39700000000E+07	-1.90389242181E+01	-1.44970359192E+02	3.71430791823E+01	1.53724847423E+02	-4.76244083830E+01	1.56308956403E+02	-3.28214539992E+01	-1.19112458661E+00
1.41650000000E+07	-1.91728889954E+01	-1.45849836319E+02	3.71431187381E+01	1.52915468468E+02	-4.76250662985E+01	1.55474463641E+02	-3.32282848690E+01	-3.72195648484E+00
1.43600000000E+07	-1.93009789950E+01	-1.46742566099E+02	3.71474604513E+01	1.52097277353E+02	-4.76211631480E+01	1.54667844024E+02	-3.36132291403E+01	-6.37856395111E+00
1.45550000000E+07	-1.94313704844E+01	-1.47609472852E+02	3.71502512180E+01	1.51324977514E+02	-4.76194024158E+01	1.53863415344E+02	-3.40070169209E+01	-9.20855423838E+00
1.47500000000E+07	-1.95658607655E+01	-1.48560907459E+02	3.71480373828E+01	1.50529253857E+02	-4.76167888764E+01	1.53062709459E+02	-3.43822271117E+01	-1.20613738839E+01
1.49450000000E+07	-1.96963772714E+01	-1.49407787606E+02	3.71540090087E+01	1.49746008083E+02	-4.76116892380E+01	1.52285275767E+02	-3.47436414692E+01	-1.52054261648E+01
1.51400000000E+07	-1.98244396893E+01	-1.50312332105E+02	3.71537896069E+01	1.48969717217E+02	-4.76115023273E+01	1.51527273906E+02	-3.50933330890E+01	-1.84352234208E+01
1.53350000000E+07	-1.99476302772E+01	-1.51203435342E+02	3.71582609072E+01	1.48188713146E+02	-4.76118885706E+01	1.50760949030E+02	-3.54304210307E+01	-2.19154293376E+01
1.55300000000E+07	-2.00918442874E+01	-1.52160331527E+02	3.71571053654E+01	1.47394316333E+02	-4.76061297054E+01	1.49991477443E+02	-3.57374672593E+01	-2.55225313776E+01
1.57250000000E+07	-2.02063690211E+01	-1.52972759400E+02	3.71584388249E+01	1.46671900351E+02	-4.76039930259E+01	1.49211239682E+02	-3.60313205455E+01	-2.91945529380E+01
1.59200000000E+07	-2.03246529770E+01	-1.53764141450E+02	3.71650866167E+01	1.45904559323E+02	-4.76005318327E+01	1.48463484486E+02	-3.62988335012E+01	-3.31473729077E+01
1.61150000000E+07	-2.04546665856E+01	-1.54726098968E+02	3.71616687432E+01	1.45118499685E+02	-4.75986357676E+01	1.47731501787E+02	-3.65413675097E+01	-3.71047393943E+01
1.63100000000E+07	-2.05692946214E+01	-1.55549006262E+02	3.71637403764E+01	1.44376504548E+02	-4.76022651504E+01	1.46994827835E+02	-3.67118596483E+01	-4.11798320272E+01
1.65050000000E+07	-2.07004245748E+01	-1.56360635038E+02	3.71659017140E+01	1.43607704768E+02	-4.76010683366E+01	1.46239955462E+02	-3.68716800390E+01	-4.55472019766E+01
1.67000000000E+07	-2.08155687088E+01	-1.57271359088E+02	3.71647646179E+01	1.42848561758E+02	-4.75991607197E+01	1.45491543502E+02	-3.70066431367E+01	-4.99078318021E+01
1.68950000000E+07	-2.09316274041E+01	-1.58137028965E+02	3.71669839946E+01	1.42120998054E+02	-4.75981326362E+01	1.44765804459E+02	-3.70908693773E+01	-5.42193600328E+01
1.70900000000E+07	-2.10692121627E+01	-1.59000682540E+02	3.71643988728E+01	1.41397509461E+02	-4.76018275504E+01	1.44037722698E+02	-3.71297054571E+01	-5.85118104294E+01
1.72850000000E+07	-2.11744396615E+01	-1.59724157849E+02	3.71679429732E+01	1.40677086300E+02	-4.75908253513E+01	1.43324014919E+02	-3.71352795780E+01	-6.27397267969E+01
1.74800000000E+07	-2.12823493924E+01	-1.60611496898E+02	3.71733660204E+01	1.39899950970E+02	-4.75924887080E+01	1.42608403193E+02	-3.70959090451E+01	-6.68415633627E+01
1.76750000000E+07	-2.13947288080E+01	-1.61504935349E+02	3.71700845460E+01	1.39176808132E+02	-4.75940648276E+01	1.41897969246E+02	-3.70423978924E+01	-7.07699227469E+01
1.78700000000E+07	-2.15115905251E+01	-1.62224084838E+02	3.71734883591E+01	1.38455864729E+02	-4.75919646408E+01	1.41144813033E+02	-3.69402379740E+01	-7.46586092632E+01
1.80650000000E+07	-2.16334088146E+01	-1.63078576154E+02	3.71748856665E+01	1.37736860676E+02	-4.75900831699E+01	1.40456955108E+02	-3.68151288456E+01	-7.84054904868E+01
1.82600000000E+07	-2.17371546712E+01	-1.63903479705E+02	3.71769643370E+01	1.37001015426E+02	-4.75906974142E+01	1.39737935215E+02	-3.66643215718E+01	-8.20651260699E+01
1.84550000000E+07	-2.18614705377E+01	-1.64602639996E+02	3.71747537530E+01	1.36290322287E+02	-4.75895168994E+01	1.39043492761E+02	-3.64949041846E+01	-8.54217292627E+01
1.86500000000E+07	-2.19564292502E+01	-1.65482204926E+02	3.71814260856E+01	1.35579337868E+02	-4.75919763359E+01	1.38363677374E+02	-3.63089995763E+01	-8.86797110084E+01
1.88450000000E+07	-2.20643868329E+01	-1.66293384726E+02	3.71827662469E+01	1.34871356246E+02	-4.75847759060E+01	1.37663443837E+02	-3.61030811066E+01	-9.18501754118E+01
1.90400000000E+07	-2.21867567459E+01	-1.67047632409E+02	3.71815776350E+01	1.34126090577E+02	-4.75878130151E+01	1.36929167332E+02	-3.59086194302E+01	-9.47286339214E+01
1.92350000000E+07	-2.22894124237E+01	-1.67795923407E+02	3.71832511820E+01	1.33438839598E+02	-4.75833955893E+01	1.36247072498E+02	-3.56869819433E+01	-9.75649647286E+01
1.94300000000E+07	-2.24063069762E+01	-1.68637951715E+02	3.71849795499E+01	1.32712883961E+02	-4.75810203502E+01	1.35539696398E+02	-3.54694565652E+01	-1.00216081730E+02
1.96250000000E+07	-2.25124877151E+01	-1.69412788906E+02	3.71801008176E+01	1.32013279729E+02	-4.75840217904E+01	1.34902120886E+02	-3.52291354262E+01	-1.02706300199E+02
1.98200000000E+07	-2.26280474156E+01	-1.70179500113E+02	3.71864729966E+01	1.31288261825E+02	-4.75798124891E+01	1.34182780158E+02	-3.50122036069E+01	-1.04993683882E+02
2.00150000000E+07	-2.27137815032E+01	-1.70921523747E+02	3.71867325119E+01	1.30603355028E+02	-4.75800456413E+01	1.33498605860E+02	-3.47770166043E+01	-1.07335588509E+02
2.02100000000E+07	-2.28216835509E+01	-1.71677533936E+02	3.71869712617E+01	1.29907278238E+02	-4.75800278166E+01	1.32819211580E+02	-3.45480422938E+01	-1.09417764506E+02
2.04050000000E+07	-2.29275050526E+01	-1.72468675456E+02	3.71873530311E+01	1.29201255398E+02	-4.75833109787E+01	1.32128742155E+02	-3.43361356720E+01	-1.11531882499E+02
2.06000000000E+07	-2.30324077205E+01	-1.73214823290E+02	3.71870774711E+01	1.28501389195E+02	-4.75800124976E+01	1.31448703324E+02	-3.41019726816E+01	-1.13393226120E+02
2.07950000000E+07	-2.31479467914E+01	-1.74021503436E+02	3.71887861081E+01	1.27817231668E+02	-4.75696082076E+01	1.30814387367E+02	-3.38775991324E+01	-1.15319571756E+02
2.09900000000E+07	-2.32446983083E+01	-1.74711426694E+02	3.71889598280E+01	1.27110827928E+02	-4.75776929776E+01	1.30081560311E+02	-3.36699039422E+01	-1.17081244737E+02
2.11850000000E+07	-2.33520347023E+01	-1.75402178903E+02	3.71871662744E+01	1.26443863702E+02	-4.75790393223E+01	1.29464318349E+02	-3.34470133260E+01	-1.18736724578E+02
2.13800000000E+07	-2.34527500399E+01	-1.76178356381E+02	3.71893139167E+01	1.25739992285E+02	-4.75733474487E+01	1.28756126159E+02	-3.32455859671E+01	-1.20397322723E+02
2.15750000000E+07	-2.35351782783E+01	-1.77007869719E+02	3.71932727114E+01	1.25054235779E+02	-4.75751915468E+01	1.28132252582E+02	-3.30420855638E+01	-1.21912768811E+02
2.17700000000E+07	-2.36561006518E+01	-1.77661378620E+02	3.71909771291E+01	1.24372737123E+02	-4.75770493748E+01	1.27441855618E+02	-3.28399293148E+01	-1.23353200318E+02
2.19650000000E+07	-2.37488165832E+01	-1.78353196887E+02	3.71890994083E+01	1.23673263623E+02	-4.75726410151E+01	1.26763269071E+02	-3.26504064104E+01	-1.24844331256E+02
2.21600000000E+07	-2.38519593861E+01	-1.79122019876E+02	3.71930362689E+01	1.23007236175E+02	-4.75719008316E+01	1.26100457361E+02	-3.24615199119E+01	-1.26204432179E+02
2.23550000000E+07	-2.39518374734E+01	-1.79937979575E+02	3.71947822701E+01	1.22296876890E+02	-4.75704789170E+01	1.25450173603E+02	-3.22732012499E+01	-1.27603143840E+02
2.25500000000E+07	-2.40476660038E+01	1.79553614426E+02	3.71955918610E+01	1.21642510281E+02	-4.75704176553E+01	1.24764327071E+02	-3.20931250845E+01	-1.28846420058E+02
2.27450000000E+07	-2.41437314017E+01	1.78710016341E+02	3.71874536842E+01	1.20981068279E+02	-4.75678948819E+01	1.24116333951E+02	-3.19116279716E+01	-1.30076821875E+02
2.29400000000E+07	-2.42356789686E+01	1.77969448396E+02	3.71932035841E+01	1.20282751770E+02	-4.75704207053E+01	1.23487358044E+02	-3.17380480881E+01	-1.31273247144E+02
2.31350000000E+07	-2.43572168031E+01	1.77392190901E+02	3.71934987822E+01	1.19601419629E+02	-4.75687204958E+01	1.22833861238E+02	-3.15623812707E+01	-1.32423766211E+02
2.33300000000E+07	-2.44261672942E+01	1.76554411754E+02	3.71910531192E+01	1.18922967244E+02	-4.75731249403E+01	1.22168392888E+02	-3.14027845858E+01	-1.33552815609E+02
2.35250000000E+07	-2.45251395488E+01	1.76042012327E+02	3.71941158344E+01	1.18238235226E+02	-4.75672595286E+01	1.21534266215E+02	-3.12369901092E+01	-1.34640357586E+02
2.37200000000E+07	-2.46232998116E+01	1.75238186363E+02	3.71941827720E+01	1.17576292308E+02	-4.75673760877E+01	1.20855911912E+02	-3.10880768041E+01	-1.35746289424E+02
2.39150000000E+07	-2.47251907959E+01	1.74461857292E+02	3.71963231286E+01	1.16908668121E+02	-4.75683136459E+01	1.20227707020E+02	-3.09224009662E+01	-1.36778478136E+02
2.41100000000E+07	-2.48230734628E+01	1.74036945932E+02	3.71975176212E+01	1.16224768637E+02	-4.75708714812E+01	1.19580162602E+02	-3.07707452603E+01	-1.37810459968E+02
2.43050000000E+07	-2.49151311814E+01	1.73186669370E+02	3.71935723924E+01	1.15558730614E+02	-4.75651967821E+01	1.18923871268E+02	-3.06232856838E+01	-1.38776524381E+02
2.45000000000E+07	-2.50057864883E+01	1.72512812851E+02	3.71968803914E+01	1.14886752724E+02	-4.75717659499E+01	1.18297928700E+02	-3.04733610495E+01	-1.39750458566E+02
2.46950000000E+07	-2.51043281258E+01	1.71865930734E+02	3.71978475763E+01	1.14247210174E+02	-4.75689839243E+01	1.17644343703E+02	-3.03273920047E+01	-1.40706745301E+02
2.48900000000E+07	-2.51851569312E+01	1.71256044856E+02	3.71987788627E+01	1.13589897196E+02	-4.75679439231E+01	1.17022300364E+02	-3.01875309095E+01	-1.41664313252E+02
2.50850000000E+07	-2.52744817387E+01	1.70488519316E+02	3.71939479085E+01	1.12897548240E+02	-4.75650434265E+01	1.16330364211E+02	-3.00516437682E+01	-1.42565114553E+02
2.52800000000E+07	-2.53974863666E+01	1.69807977307E+02	3.71965324091E+01	1.12235733453E+02	-4.75701112734E+01	1.15714840051E+02	-2.99184916523E+01	-1.43459498907E+02
2.54750000000E+07	-2.54907315382E+01	1.69246533437E+02	3.71988866157E+01	1.11595618799E+02	-4.75640390598E+01	1.15067570890E+02	-2.97868964839E+01	-1.44351483213E+02
2.56700000000E+07	-2.55743781580E+01	1.68539209732E+02	3.71965691208E+01	1.10919286758E+02	-4.75654343720E+01	1.14458744685E+02	-2.96534501752E+01	-1.45257710245E+02
2.58650000000E+07	-2.56780170404E+01	1.67850579211E+02	3.71966431793E+01	1.10268345069E+02	-4.75677526658E+01	1.13768583329E+02	-2.95249385137E+01	-1.46143304439E+02
2.60600000000E+07	-2.57429166982E+01	1.67219472269E+02	3.72001799376E+01	1.09609110290E+02	-4.75652172439E+01	1.13165188801E+02	-2.93993072342E+01	-1.46998531512E+02
2.62550000000E+07	-2.58430449136E+01	1.66507381754E+02	3.71971218046E+01	1.08924705045E+02	-4.75683769875E+01	1.12531881238E+02	-2.92805370138E+01	-1.47856948970E+02
2.64500000000E+07	-2.59401795605E+01	1.65876273719E+02	3.71967362746E+01	1.08272721528E+02	-4.75662760519E+01	1.11891000475E+02	-2.91609502842E+01	-1.48665372760E+02
2.66450000000E+07	-2.60359704113E+01	1.65420018548E+02	3.71954460333E+01	1.07617533507E+02	-4.75669408219E+01	1.11267519750E+02	-2.90404236231E+01	-1.49493701249E+02
2.68400000000E+07	-2.61112451345E+01	1.64644352679E+02	3.71951796923E+01	1.06956685974E+02	-4.75643235059E+01	1.10618173352E+02	-2.89297631917E+01	-1.50297854255E+02
2.70350000000E+07	-2.62135350185E+01	1.64016019514E+02	3.71965744937E+01	1.06308764739E+02	-4.75659462021E+01	1.09991763605E+02	-2.88183870724E+01	-1.51104944111E+02
2.72300000000E+07	-2.63142957399E+01	1.63301373120E+02	3.71932675337E+01	1.05656319171E+02	-4.75704170136E+01	1.09380082332E+02	-2.87066683811E+01	-1.51909540843E+02
2.74250000000E+07	-2.64050837606E+01	1.62870799496E+02	3.72002688599E+01	1.05003521068E+02	-4.75639787417E+01	1.08737862808E+02	-2.86014171507E+01	-1.52713439303E+02
2.76200000000E+07	-2.65014460526E+01	1.62105025725E+02	3.71994385608E+01	1.04357009325E+02	-4.75651785080E+01	1.08116389623E+02	-2.84955717515E+01	-1.53496255634E+02
2.78150000000E+07	-2.65882235505E+01	1.61640962530E+02	3.71956587060E+01	1.03704711630E+02	-4.75665001733E+01	1.07487573849E+02	-2.83900089945E+01	-1.54272138515E+02
