# Hz S DB R 50
! CMT, M5045, 22160017, 22.3.3/2
! Date: 10/8/2022 18:27:13
! Data: Format (Calibration Info)
! Freq	S11:dB/Ang(F2)	S21:dB/Ang(F2)	S12:dB/Ang(F2)	S22:dB/Ang(F2)
5.00000000000E+06	-1.00489774982E+01	-9.15983936019E+01	3.64523584105E+01	-1.49765464531E+02	-4.84962243424E+01	-1.46865122493E+02	-1.42720880883E+01	6.73520151639E+01
5.19500000000E+06	-1.03878072711E+01	-9.31109281270E+01	3.65225042901E+01	-1.52075090663E+02	-4.84211536945E+01	-1.49157637263E+02	-1.48523940029E+01	6.61190134012E+01
5.39000000000E+06	-1.07049280162E+01	-9.44829892889E+01	3.65949369135E+01	-1.54199011018E+02	-4.83486056150E+01	-1.51364477971E+02	-1.54226253758E+01	6.49883063641E+01
5.58500000000E+06	-1.10203740548E+01	-9.58541505955E+01	3.66492235684E+01	-1.56277407295E+02	-4.82878948811E+01	-1.53439128828E+02	-1.59806048728E+01	6.39525110102E+01
5.78000000000E+06	-1.13208392706E+01	-9.71293403900E+01	3.67008009951E+01	-1.58249597817E+02	-4.82302156130E+01	-1.55482719598E+02	-1.65315760432E+01	6.30015532312E+01
5.97500000000E+06	-1.16110877333E+01	-9.83866438226E+01	3.67466293004E+01	-1.60138481092E+02	-4.81872952653E+01	-1.57313871981E+02	-1.70708821455E+01	6.21087408356E+01
6.17000000000E+06	-1.18906646668E+01	-9.96032533271E+01	3.67890259042E+01	-1.61913096733E+02	-4.81279378028E+01	-1.59130754675E+02	-1.76047481545E+01	6.12824373603E+01
6.36500000000E+06	-1.21637300013E+01	-1.00801354365E+02	3.68243510624E+01	-1.63686194805E+02	-4.80959617895E+01	-1.60856021978E+02	-1.81282128848E+01	6.05163588883E+01
6.56000000000E+06	-1.24248324155E+01	-1.01924679001E+02	3.68581313185E+01	-1.65316725194E+02	-4.80548428808E+01	-1.62459609994E+02	-1.86474432686E+01	5.98074772380E+01
6.75500000000E+06	-1.26851910619E+01	-1.03052047913E+02	3.68863543473E+01	-1.66952627590E+02	-4.80245738231E+01	-1.64107568724E+02	-1.91597204038E+01	5.91229721792E+01
6.95000000000E+06	-1.29245603443E+01	-1.04114308818E+02	3.69141953202E+01	-1.68479798879E+02	-4.79898300747E+01	-1.65660277370E+02	-1.96703672963E+01	5.85182842059E+01
7.14500000000E+06	-1.31647949840E+01	-1.05190844013E+02	3.69395039013E+01	-1.69950106301E+02	-4.79642144181E+01	-1.67153426678E+02	-2.01775548431E+01	5.79467059136E+01
7.34000000000E+06	-1.34015496932E+01	-1.06209184863E+02	3.69623701126E+01	-1.71411110798E+02	-4.79324078349E+01	-1.68572432708E+02	-2.06759677758E+01	5.73837437734E+01
7.53500000000E+06	-1.36290312980E+01	-1.07302017274E+02	3.69827744585E+01	-1.72824649641E+02	-4.79046866248E+01	-1.69966257472E+02	-2.11749408812E+01	5.69011097247E+01
7.73000000000E+06	-1.38493461249E+01	-1.08315006755E+02	3.69992228498E+01	-1.74174682353E+02	-4.78788593824E+01	-1.71305774814E+02	-2.16725499571E+01	5.64236810492E+01
7.92500000000E+06	-1.40657394212E+01	-1.09310978423E+02	3.70215419987E+01	-1.75512458703E+02	-4.78561825608E+01	-1.72614491860E+02	-2.21698538858E+01	5.59755249070E+01
8.12000000000E+06	-1.42782143209E+01	-1.10235476132E+02	3.70341367249E+01	-1.76758083489E+02	-4.78415188911E+01	-1.73918251813E+02	-2.26670453932E+01	5.55985678837E+01
8.31500000000E+06	-1.44853404665E+01	-1.11219578056E+02	3.70513963677E+01	-1.78050204635E+02	-4.78209287422E+01	-1.75161544648E+02	-2.31655588429E+01	5.52054487594E+01
8.51000000000E+06	-1.46848111587E+01	-1.12144618040E+02	3.70626474788E+01	-1.79264022672E+02	-4.78124477099E+01	-1.76383623121E+02	-2.36713832855E+01	5.48527956642E+01
8.70500000000E+06	-1.48840449054E+01	-1.13156259915E+02	3.70788441712E+01	1.79552899502E+02	-4.77977492380E+01	-1.77543695481E+02	-2.41732998012E+01	5.45257642073E+01
8.90000000000E+06	-1.50770900066E+01	-1.14111177439E+02	3.70874254530E+01	1.78381018642E+02	-4.77847969231E+01	-1.78702856257E+02	-2.46788124140E+01	5.42623991821E+01
9.09500000000E+06	-1.52694789332E+01	-1.15061757597E+02	3.70927415440E+01	1.77236962264E+02	-4.77665942555E+01	-1.79860644092E+02	-2.51898933788E+01	5.39788920703E+01
9.29000000000E+06	-1.54474935884E+01	-1.15936529891E+02	3.71060697140E+01	1.76106514432E+02	-4.77489058815E+01	1.79044711726E+02	-2.57094002934E+01	5.37615322908E+01
9.48500000000E+06	-1.56342242027E+01	-1.16887019576E+02	3.71154604053E+01	1.75024862995E+02	-4.77414717472E+01	1.77925654855E+02	-2.62312370645E+01	5.35438541670E+01
9.68000000000E+06	-1.58137895336E+01	-1.17828965653E+02	3.71182048646E+01	1.73924108247E+02	-4.77342593552E+01	1.76849919143E+02	-2.67723864660E+01	5.33610527027E+01
9.87500000000E+06	-1.59856188539E+01	-1.18736951222E+02	3.71297220819E+01	1.72875313283E+02	-4.77275940185E+01	1.75827731189E+02	-2.73105142633E+01	5.32044789302E+01
1.00700000000E+07	-1.61729744071E+01	-1.19642931240E+02	3.71322916117E+01	1.71840374245E+02	-4.77151849603E+01	1.74767055700E+02	-2.78920583174E+01	5.29799852821E+01
1.02650000000E+07	-1.63415493159E+01	-1.20507779515E+02	3.71397181200E+01	1.70822758891E+02	-4.77106065547E+01	1.73767538651E+02	-2.84826141947E+01	5.30397645903E+01
1.04600000000E+07	-1.65071537592E+01	-1.21423494443E+02	3.71472563996E+01	1.69795068205E+02	-4.77005275928E+01	1.72758050415E+02	-2.90864425370E+01	5.31187216993E+01
1.06550000000E+07	-1.66781806013E+01	-1.22327722936E+02	3.71495787900E+01	1.68792668225E+02	-4.76902884498E+01	1.71762988670E+02	-2.96902373360E+01	5.33338823553E+01
1.08500000000E+07	-1.68404554601E+01	-1.23140514178E+02	3.71567714748E+01	1.67838101488E+02	-4.76843438950E+01	1.70792006619E+02	-3.03076463001E+01	5.35811096948E+01
1.10450000000E+07	-1.70053550293E+01	-1.24024676507E+02	3.71598425992E+01	1.66879692078E+02	-4.76805567444E+01	1.69819728478E+02	-3.09358742770E+01	5.38955410258E+01
1.12400000000E+07	-1.71592661309E+01	-1.24902748052E+02	3.71606058296E+01	1.65921776419E+02	-4.76709043034E+01	1.68819357346E+02	-3.15901144135E+01	5.43143412300E+01
1.14350000000E+07	-1.73097686408E+01	-1.25707002958E+02	3.71697703952E+01	1.65017774185E+02	-4.76619289430E+01	1.67845252758E+02	-3.22674859647E+01	5.48984111182E+01
1.16300000000E+07	-1.74557198746E+01	-1.26556195824E+02	3.71733447294E+01	1.64052157018E+02	-4.76578649207E+01	1.66911766837E+02	-3.29723426439E+01	5.53920172543E+01
1.18250000000E+07	-1.76029998113E+01	-1.27505192377E+02	3.71779682245E+01	1.63112591080E+02	-4.76446061874E+01	1.66004836527E+02	-3.37011190236E+01	5.61544432656E+01
1.20200000000E+07	-1.77440510931E+01	-1.28331070156E+02	3.71829206549E+01	1.62197942026E+02	-4.76452935535E+01	1.65041758409E+02	-3.44778216740E+01	5.70605529698E+01
1.22150000000E+07	-1.78904516236E+01	-1.29242815171E+02	3.71814562533E+01	1.61268358263E+02	-4.76427954104E+01	1.64113438934E+02	-3.52855227525E+01	5.81426577043E+01
1.24100000000E+07	-1.80337117183E+01	-1.30107871642E+02	3.71858499076E+01	1.60371199603E+02	-4.76372724681E+01	1.63173412825E+02	-3.61381496638E+01	5.95853114850E+01
1.26050000000E+07	-1.81736646506E+01	-1.30924422649E+02	3.71910706985E+01	1.59517455022E+02	-4.76363060873E+01	1.62287087937E+02	-3.70676273330E+01	6.12719763402E+01
1.28000000000E+07	-1.83109122619E+01	-1.31747774238E+02	3.71911411031E+01	1.58650161004E+02	-4.76297921225E+01	1.61409654328E+02	-3.80358100959E+01	6.34566758601E+01
1.29950000000E+07	-1.84596171671E+01	-1.32578439180E+02	3.71897973188E+01	1.57799332446E+02	-4.76355694838E+01	1.60512195761E+02	-3.90766483970E+01	6.64272414007E+01
1.31900000000E+07	-1.86022905721E+01	-1.33399066572E+02	3.71929116639E+01	1.56988757685E+02	-4.76288615310E+01	1.59671680227E+02	-4.01934140887E+01	6.99493058527E+01
1.33850000000E+07	-1.87268886287E+01	-1.34187957121E+02	3.71967337852E+01	1.56137450857E+02	-4.76232789696E+01	1.58840239108E+02	-4.13631073431E+01	7.47683442194E+01
1.35800000000E+07	-1.88549126262E+01	-1.34967406855E+02	3.71991876821E+01	1.55329374568E+02	-4.76244842594E+01	1.58029800500E+02	-4.26016856639E+01	8.08107182275E+01
1.37750000000E+07	-1.89917592465E+01	-1.35840715818E+02	3.72016305813E+01	1.54494676920E+02	-4.76197533059E+01	1.57134146079E+02	-4.37616720945E+01	8.88046034060E+01
1.39700000000E+07	-1.91188008196E+01	-1.36542484165E+02	3.72033494343E+01	1.53700748453E+02	-4.76198478005E+01	1.56349069602E+02	-4.48115651722E+01	9.92640987169E+01
1.41650000000E+07	-1.92453575190E+01	-1.37421623680E+02	3.72086549054E+01	1.52896456953E+02	-4.76211714254E+01	1.55548298262E+02	-4.55847025811E+01	1.11884255424E+02
1.43600000000E+07	-1.93743199738E+01	-1.38253523124E+02	3.72050500406E+01	1.52065967016E+02	-4.76185166486E+01	1.54759592225E+02	-4.58719418907E+01	1.25740201616E+02
1.45550000000E+07	-1.94965556637E+01	-1.38955463209E+02	3.72093414941E+01	1.51281081535E+02	-4.76122188343E+01	1.53919621585E+02	-4.56380655244E+01	1.39635641383E+02
1.47500000000E+07	-1.96194551214E+01	-1.39652146029E+02	3.72093741733E+01	1.50500741096E+02	-4.76092209083E+01	1.53164881346E+02	-4.49402484594E+01	1.51278612704E+02
1.49450000000E+07	-1.97408925345E+01	-1.40351336884E+02	3.72162264434E+01	1.49723316955E+02	-4.76135991121E+01	1.52385908676E+02	-4.40622507653E+01	1.61059457626E+02
1.51400000000E+07	-1.98635684125E+01	-1.41136522477E+02	3.72138261614E+01	1.48911332880E+02	-4.76073229365E+01	1.51607059646E+02	-4.30771930386E+01	1.68337810195E+02
1.53350000000E+07	-1.99863281317E+01	-1.41922030979E+02	3.72134666292E+01	1.48175482909E+02	-4.76108903436E+01	1.50836960051E+02	-4.20795447117E+01	1.74141300893E+02
1.55300000000E+07	-2.00971587955E+01	-1.42649467516E+02	3.72141956743E+01	1.47373968154E+02	-4.76021775920E+01	1.50077096873E+02	-4.11621558290E+01	1.78516679053E+02
1.57250000000E+07	-2.02196713612E+01	-1.43351427313E+02	3.72165476340E+01	1.46590439119E+02	-4.76056361276E+01	1.49298859831E+02	-4.02850376677E+01	-1.78251331454E+02
1.59200000000E+07	-2.03232584765E+01	-1.44100394277E+02	3.72184321188E+01	1.45828836800E+02	-4.75954252969E+01	1.48542296690E+02	-3.94660884207E+01	-1.75546714621E+02
1.61150000000E+07	-2.04429046444E+01	-1.44863820038E+02	3.72228880644E+01	1.45082755874E+02	-4.76042766497E+01	1.47784274748E+02	-3.87302382125E+01	-1.73442682335E+02
1.63100000000E+07	-2.05581648519E+01	-1.45536750068E+02	3.72175206576E+01	1.44325415724E+02	-4.76023157976E+01	1.47086010821E+02	-3.80787315478E+01	-1.71669440767E+02
1.65050000000E+07	-2.06457350803E+01	-1.46268415049E+02	3.72235992970E+01	1.43564738064E+02	-4.75967793576E+01	1.46316664679E+02	-3.74187599428E+01	-1.70177814651E+02
1.67000000000E+07	-2.07798456335E+01	-1.47018927682E+02	3.72231475920E+01	1.42841770607E+02	-4.75961369406E+01	1.45596179553E+02	-3.68110904207E+01	-1.69114686658E+02
1.68950000000E+07	-2.08785278206E+01	-1.47720998193E+02	3.72264099563E+01	1.42080988938E+02	-4.75961572848E+01	1.44868950266E+02	-3.62729603262E+01	-1.68193753215E+02
1.70900000000E+07	-2.09967242341E+01	-1.48390443283E+02	3.72249153852E+01	1.41330602430E+02	-4.76029720957E+01	1.44118763943E+02	-3.57628269698E+01	-1.67401187218E+02
1.72850000000E+07	-2.11015567702E+01	-1.49076925477E+02	3.72245764987E+01	1.40602139717E+02	-4.75970752273E+01	1.43408413685E+02	-3.52936055019E+01	-1.66920242623E+02
1.74800000000E+07	-2.12004039479E+01	-1.49737117921E+02	3.72296110846E+01	1.39846980371E+02	-4.75905374252E+01	1.42681748875E+02	-3.48448189121E+01	-1.66399586538E+02
1.76750000000E+07	-2.13025669270E+01	-1.50443250736E+02	3.72311968081E+01	1.39131748467E+02	-4.75927620117E+01	1.41971339221E+02	-3.44316017778E+01	-1.66028265756E+02
1.78700000000E+07	-2.14071372773E+01	-1.51133333824E+02	3.72303437508E+01	1.38418635097E+02	-4.75959470532E+01	1.41238356513E+02	-3.40543178186E+01	-1.65767011411E+02
1.80650000000E+07	-2.15096776905E+01	-1.51814600045E+02	3.72299130400E+01	1.37670765538E+02	-4.75902292445E+01	1.40547391285E+02	-3.36847732366E+01	-1.65522379774E+02
1.82600000000E+07	-2.16072920673E+01	-1.52480491932E+02	3.72319064218E+01	1.36938002611E+02	-4.75923582004E+01	1.39850848117E+02	-3.33183804370E+01	-1.65337845686E+02
1.84550000000E+07	-2.17118829882E+01	-1.53224691094E+02	3.72311043158E+01	1.36255697656E+02	-4.75909447901E+01	1.39131457327E+02	-3.29857249534E+01	-1.65207508923E+02
1.86500000000E+07	-2.18069309456E+01	-1.53729922759E+02	3.72321965605E+01	1.35498849266E+02	-4.75909155028E+01	1.38449616918E+02	-3.26753904663E+01	-1.65149357771E+02
1.88450000000E+07	-2.19033350157E+01	-1.54482279039E+02	3.72329659640E+01	1.34794745776E+02	-4.75879669696E+01	1.37737771326E+02	-3.23667010440E+01	-1.65069194781E+02
1.90400000000E+07	-2.19873968163E+01	-1.55152821526E+02	3.72373647709E+01	1.34081557931E+02	-4.75887166649E+01	1.37043214282E+02	-3.20847675746E+01	-1.65078585083E+02
1.92350000000E+07	-2.20933264408E+01	-1.55756880387E+02	3.72369093570E+01	1.33374165142E+02	-4.75881927003E+01	1.36346451337E+02	-3.18017944370E+01	-1.65105530294E+02
1.94300000000E+07	-2.21796557887E+01	-1.56384353533E+02	3.72363840356E+01	1.32652723749E+02	-4.75847304353E+01	1.35662975543E+02	-3.15436757399E+01	-1.65161387492E+02
1.96250000000E+07	-2.22785225674E+01	-1.56977951064E+02	3.72325770519E+01	1.31994405344E+02	-4.75903156112E+01	1.34968575987E+02	-3.12873210096E+01	-1.65183471675E+02
1.98200000000E+07	-2.23671922716E+01	-1.57665660729E+02	3.72379017162E+01	1.31264686773E+02	-4.75891100631E+01	1.34297562007E+02	-3.10458961678E+01	-1.65316462787E+02
2.00150000000E+07	-2.24534711285E+01	-1.58251525981E+02	3.72391410233E+01	1.30552874397E+02	-4.75840624315E+01	1.33628611126E+02	-3.08002252146E+01	-1.65446404438E+02
2.02100000000E+07	-2.25395976648E+01	-1.58879122641E+02	3.72402723893E+01	1.29854677392E+02	-4.75879755640E+01	1.32949937860E+02	-3.05755426694E+01	-1.65586097921E+02
2.04050000000E+07	-2.26469258424E+01	-1.59591962046E+02	3.72382667528E+01	1.29152537363E+02	-4.75886320282E+01	1.32237645211E+02	-3.03571291552E+01	-1.65766026250E+02
2.06000000000E+07	-2.27290453853E+01	-1.60233506246E+02	3.72416278092E+01	1.28461622613E+02	-4.75882360914E+01	1.31577507309E+02	-3.01484373135E+01	-1.65891716980E+02
2.07950000000E+07	-2.28091150505E+01	-1.60705769261E+02	3.72369055291E+01	1.27774041880E+02	-4.75852406079E+01	1.30898281065E+02	-2.99437404410E+01	-1.66107758707E+02
2.09900000000E+07	-2.28890036855E+01	-1.61400908315E+02	3.72396345026E+01	1.27053771795E+02	-4.75874745892E+01	1.30237891183E+02	-2.97419541952E+01	-1.66314800741E+02
2.11850000000E+07	-2.29731613618E+01	-1.61997322277E+02	3.72397921739E+01	1.26384705015E+02	-4.75858776208E+01	1.29538020122E+02	-2.95514611194E+01	-1.66504557102E+02
2.13800000000E+07	-2.30716123135E+01	-1.62534947713E+02	3.72398706170E+01	1.25689579204E+02	-4.75839662358E+01	1.28864501627E+02	-2.93712363977E+01	-1.66760837452E+02
2.15750000000E+07	-2.31439924341E+01	-1.63197235763E+02	3.72404480194E+01	1.25000619435E+02	-4.75831821586E+01	1.28215215165E+02	-2.91916941149E+01	-1.67006611486E+02
2.17700000000E+07	-2.32360994788E+01	-1.63655994115E+02	3.72394208873E+01	1.24330310419E+02	-4.75836699021E+01	1.27541492937E+02	-2.90215350678E+01	-1.67241349638E+02
2.19650000000E+07	-2.33252400709E+01	-1.64448289413E+02	3.72433538838E+01	1.23635336901E+02	-4.75814089705E+01	1.26864116189E+02	-2.88557010495E+01	-1.67516475369E+02
2.21600000000E+07	-2.33857841192E+01	-1.65047920337E+02	3.72442356598E+01	1.22938423022E+02	-4.75808235735E+01	1.26250710939E+02	-2.86941329622E+01	-1.67788829384E+02
2.23550000000E+07	-2.34734459450E+01	-1.65561216228E+02	3.72429639751E+01	1.22282930778E+02	-4.75810479242E+01	1.25548926587E+02	-2.85308302515E+01	-1.68059381124E+02
2.25500000000E+07	-2.35414147809E+01	-1.66088792828E+02	3.72448207444E+01	1.21592630454E+02	-4.75839286471E+01	1.24908310401E+02	-2.83782254856E+01	-1.68349293233E+02
2.27450000000E+07	-2.36278362491E+01	-1.66698515588E+02	3.72379756505E+01	1.20915642956E+02	-4.75842209914E+01	1.24253713319E+02	-2.82240193720E+01	-1.68613625013E+02
2.29400000000E+07	-2.37157008882E+01	-1.67318341289E+02	3.72394265753E+01	1.20242898178E+02	-4.75817890933E+01	1.23594444263E+02	-2.80831244459E+01	-1.68933807778E+02
2.31350000000E+07	-2.37849765134E+01	-1.67907831795E+02	3.72405789255E+01	1.19552670522E+02	-4.75837083307E+01	1.22935362591E+02	-2.79404742047E+01	-1.69208867006E+02
2.33300000000E+07	-2.38576464915E+01	-1.68533424649E+02	3.72433082366E+01	1.18893479519E+02	-4.75846511413E+01	1.22288735587E+02	-2.78030517331E+01	-1.69529712102E+02
2.35250000000E+07	-2.39397066245E+01	-1.68971391033E+02	3.72426531806E+01	1.18201978387E+02	-4.75791008419E+01	1.21631676197E+02	-2.76681894444E+01	-1.69849773223E+02
2.37200000000E+07	-2.39910459905E+01	-1.69498844922E+02	3.72428077968E+01	1.17531937706E+02	-4.75830161593E+01	1.20997840089E+02	-2.75401772477E+01	-1.70168649396E+02
2.39150000000E+07	-2.40859749614E+01	-1.70191365610E+02	3.72407409092E+01	1.16869263414E+02	-4.75825381366E+01	1.20353235891E+02	-2.74059926872E+01	-1.70478799411E+02
2.41100000000E+07	-2.41599914811E+01	-1.70617992017E+02	3.72414999083E+01	1.16231938695E+02	-4.75823672525E+01	1.19718443191E+02	-2.72792538061E+01	-1.70817850621E+02
2.43050000000E+07	-2.42150993395E+01	-1.71343148212E+02	3.72414578466E+01	1.15521501650E+02	-4.75858034088E+01	1.19041187038E+02	-2.71591366944E+01	-1.71120204291E+02
2.45000000000E+07	-2.42862875838E+01	-1.71881643186E+02	3.72458788100E+01	1.14882477341E+02	-4.75794187095E+01	1.18416938099E+02	-2.70355113531E+01	-1.71475138909E+02
2.46950000000E+07	-2.43514415135E+01	-1.72387564850E+02	3.72440918772E+01	1.14215004884E+02	-4.75846935734E+01	1.17745893571E+02	-2.69230377197E+01	-1.71794788577E+02
2.48900000000E+07	-2.44219636304E+01	-1.72811137561E+02	3.72382221805E+01	1.13578690260E+02	-4.75821653176E+01	1.17142806252E+02	-2.68032828785E+01	-1.72112128708E+02
2.50850000000E+07	-2.45159954527E+01	-1.73426569898E+02	3.72439702117E+01	1.12888096515E+02	-4.75819287081E+01	1.16501359977E+02	-2.66887875292E+01	-1.72467105538E+02
2.52800000000E+07	-2.45795136568E+01	-1.73986075404E+02	3.72422742396E+01	1.12209080663E+02	-4.75847377565E+01	1.15834402111E+02	-2.65797453107E+01	-1.72824735949E+02
2.54750000000E+07	-2.46412504185E+01	-1.74597968500E+02	3.72413204445E+01	1.11550581118E+02	-4.75837263913E+01	1.15237157359E+02	-2.64699865962E+01	-1.73178304992E+02
2.56700000000E+07	-2.47132852233E+01	-1.75082195947E+02	3.72368367703E+01	1.10883607818E+02	-4.75826777178E+01	1.14594708278E+02	-2.63600014490E+01	-1.73560687656E+02
2.58650000000E+07	-2.47687681180E+01	-1.75666345147E+02	3.72428039876E+01	1.10220165621E+02	-4.75845701285E+01	1.13931265860E+02	-2.62566896236E+01	-1.73933920799E+02
2.60600000000E+07	-2.48470607550E+01	-1.76120192008E+02	3.72380341010E+01	1.09583092388E+02	-4.75828257309E+01	1.13323267324E+02	-2.61531674703E+01	-1.74272841767E+02
2.62550000000E+07	-2.49156819639E+01	-1.76654802519E+02	3.72394798897E+01	1.08909967385E+02	-4.75853079669E+01	1.12664154076E+02	-2.60523491973E+01	-1.74673962879E+02
2.64500000000E+07	-2.49566962241E+01	-1.77256196953E+02	3.72402696451E+01	1.08248391835E+02	-4.75860506777E+01	1.12066789963E+02	-2.59529936915E+01	-1.75017463902E+02
2.66450000000E+07	-2.50322653882E+01	-1.77693030690E+02	3.72422321014E+01	1.07614957099E+02	-4.75829103565E+01	1.11430165933E+02	-2.58524811491E+01	-1.75399548977E+02
2.68400000000E+07	-2.51118926403E+01	-1.78350283037E+02	3.72388924123E+01	1.06938695513E+02	-4.75895097157E+01	1.10797084664E+02	-2.57568462654E+01	-1.75823420708E+02
2.70350000000E+07	-2.51609839336E+01	-1.78749263756E+02	3.72375052330E+01	1.06281384515E+02	-4.75818294232E+01	1.10162220820E+02	-2.56651062000E+01	-1.76170049943E+02
2.72300000000E+07	-2.52281668410E+01	-1.79275730038E+02	3.72363956095E+01	1.05629782768E+02	-4.75835001059E+01	1.09502160703E+02	-2.55742848096E+01	-1.76580359709E+02
2.74250000000E+07	-2.52994935644E+01	-1.79804165042E+02	3.72388643035E+01	1.04987962240E+02	-4.75868491057E+01	1.08906648990E+02	-2.54827255206E+01	-1.76969480789E+02
2.76200000000E+07	-2.53495850038E+01	1.79720895192E+02	3.72383241123E+01	1.04320833442E+02	-4.75899351727E+01	1.08290783310E+02	-2.53930137879E+01	-1.77371616861E+02
2.78150000000E+07	-2.54244014326E+01	1.79093910940E+02	3.72415783239E+01	1.03694954516E+02	-4.75874561016E+01	1.07652343956E+02	-2.53031996802E+01	-1.77781389595E+02
