# Hz S DB R 50
! CMT, M5045, 22160017, 22.3.3/2
! Date: 10/8/2022 18:44:27
! Data: Format (Calibration Info)
! Freq	S11:dB/Ang(F2)	S21:dB/Ang(F2)	S12:dB/Ang(F2)	S22:dB/Ang(F2)
5.00000000000E+06	-9.91089553690E+00	-9.29137395719E+01	3.63881816268E+01	-1.49751849345E+02	-4.85292932007E+01	-1.46898660214E+02	-1.38557705919E+01	6.32627146612E+01
5.19500000000E+06	-1.02468299445E+01	-9.44937135990E+01	3.64647982557E+01	-1.52019064589E+02	-4.84555383350E+01	-1.49162636483E+02	-1.43949170500E+01	6.17818700900E+01
5.39000000000E+06	-1.05649535712E+01	-9.59901222408E+01	3.65295878873E+01	-1.54174670748E+02	-4.83852001899E+01	-1.51421751526E+02	-1.49217764677E+01	6.03879116867E+01
5.58500000000E+06	-1.08761304997E+01	-9.74440417795E+01	3.65899531716E+01	-1.56227467542E+02	-4.83289464239E+01	-1.53463816692E+02	-1.54369550281E+01	5.90776017829E+01
5.78000000000E+06	-1.11791746124E+01	-9.88540616779E+01	3.66393527064E+01	-1.58193696538E+02	-4.82699623891E+01	-1.55391751698E+02	-1.59414834453E+01	5.78237662019E+01
5.97500000000E+06	-1.14606765472E+01	-1.00229622231E+02	3.66862630919E+01	-1.60064158310E+02	-4.82164019045E+01	-1.57265923061E+02	-1.64333766158E+01	5.66351199192E+01
6.17000000000E+06	-1.17494084410E+01	-1.01568773095E+02	3.67263633671E+01	-1.61853514059E+02	-4.81677931479E+01	-1.59107110649E+02	-1.69164242719E+01	5.54954689883E+01
6.36500000000E+06	-1.20282754421E+01	-1.02858598028E+02	3.67669094992E+01	-1.63601098733E+02	-4.81241025679E+01	-1.60811491000E+02	-1.73897037307E+01	5.43895158223E+01
6.56000000000E+06	-1.22889315172E+01	-1.04079162220E+02	3.68023671809E+01	-1.65224719131E+02	-4.80860461084E+01	-1.62510477766E+02	-1.78549355206E+01	5.33524294907E+01
6.75500000000E+06	-1.25463093944E+01	-1.05296561027E+02	3.68308379805E+01	-1.66818108905E+02	-4.80433733119E+01	-1.64087394278E+02	-1.83099748674E+01	5.23094839516E+01
6.95000000000E+06	-1.27871433939E+01	-1.06519809546E+02	3.68610422765E+01	-1.68373103973E+02	-4.80125509635E+01	-1.65645546134E+02	-1.87611663322E+01	5.13274950331E+01
7.14500000000E+06	-1.30385307618E+01	-1.07696070411E+02	3.68800056199E+01	-1.69885090297E+02	-4.79907713373E+01	-1.67103135280E+02	-1.92055076269E+01	5.03655646717E+01
7.34000000000E+06	-1.32776720997E+01	-1.08818667035E+02	3.69074151876E+01	-1.71298124856E+02	-4.79545599465E+01	-1.68525582996E+02	-1.96396851518E+01	4.94095909387E+01
7.53500000000E+06	-1.35070300618E+01	-1.09990935993E+02	3.69301683643E+01	-1.72705893420E+02	-4.79306575798E+01	-1.69937776778E+02	-2.00729578091E+01	4.84863060299E+01
7.73000000000E+06	-1.37301347526E+01	-1.11114975898E+02	3.69468015925E+01	-1.74063017994E+02	-4.79089243671E+01	-1.71327821343E+02	-2.04969459857E+01	4.75548425161E+01
7.92500000000E+06	-1.39489443451E+01	-1.12221753500E+02	3.69684476322E+01	-1.75389706198E+02	-4.78875244189E+01	-1.72589995156E+02	-2.09186658138E+01	4.66423666300E+01
8.12000000000E+06	-1.41717109860E+01	-1.13320546483E+02	3.69819049457E+01	-1.76679176602E+02	-4.78696010752E+01	-1.73888994546E+02	-2.13397690757E+01	4.57541400891E+01
8.31500000000E+06	-1.43734962881E+01	-1.14418484379E+02	3.69966993092E+01	-1.77912903200E+02	-4.78473418371E+01	-1.75182798930E+02	-2.17515126091E+01	4.48848236596E+01
8.51000000000E+06	-1.45854814396E+01	-1.15477863236E+02	3.70094806601E+01	-1.79122712489E+02	-4.78318935444E+01	-1.76345282746E+02	-2.21661111441E+01	4.39745430973E+01
8.70500000000E+06	-1.47920929958E+01	-1.16500112663E+02	3.70252776394E+01	1.79678469800E+02	-4.78152078069E+01	-1.77555826438E+02	-2.25776154188E+01	4.30738875986E+01
8.90000000000E+06	-1.49894100589E+01	-1.17572851383E+02	3.70344161035E+01	1.78500074631E+02	-4.78038001761E+01	-1.78703564897E+02	-2.29872235924E+01	4.21711692208E+01
9.09500000000E+06	-1.51781339304E+01	-1.18610141697E+02	3.70480531811E+01	1.77370857932E+02	-4.77882202756E+01	-1.79829486792E+02	-2.33922324205E+01	4.12785780325E+01
9.29000000000E+06	-1.53728427662E+01	-1.19689239884E+02	3.70567263288E+01	1.76259795002E+02	-4.77807519919E+01	1.79033114922E+02	-2.37996209739E+01	4.03656003721E+01
9.48500000000E+06	-1.55627165327E+01	-1.20627955452E+02	3.70686518885E+01	1.75166947353E+02	-4.77623805258E+01	1.77985323035E+02	-2.42038421947E+01	3.94154322333E+01
9.68000000000E+06	-1.57505417369E+01	-1.21746674880E+02	3.70737371679E+01	1.74076918745E+02	-4.77514898687E+01	1.76915833818E+02	-2.46147757645E+01	3.84633991381E+01
9.87500000000E+06	-1.59319816439E+01	-1.22724258699E+02	3.70804533299E+01	1.73022096376E+02	-4.77455678987E+01	1.75840999046E+02	-2.50190711374E+01	3.75204281681E+01
1.00700000000E+07	-1.61102049190E+01	-1.23768651275E+02	3.70874848408E+01	1.71977863975E+02	-4.77320695607E+01	1.74822024775E+02	-2.54437471658E+01	3.64221813553E+01
1.02650000000E+07	-1.62934439157E+01	-1.24697403659E+02	3.70956392564E+01	1.70964382166E+02	-4.77315424994E+01	1.73802453437E+02	-2.58763556573E+01	3.54624785772E+01
1.04600000000E+07	-1.64700630337E+01	-1.25739044293E+02	3.71000634665E+01	1.69952604268E+02	-4.77192151666E+01	1.72828395453E+02	-2.63025163809E+01	3.45152596572E+01
1.06550000000E+07	-1.66409592881E+01	-1.26737621333E+02	3.71093960309E+01	1.68950524284E+02	-4.77067488268E+01	1.71809472632E+02	-2.67332964929E+01	3.35424907312E+01
1.08500000000E+07	-1.68162290814E+01	-1.27740847855E+02	3.71116126272E+01	1.67983848945E+02	-4.76993926272E+01	1.70830605038E+02	-2.71606370183E+01	3.25975119925E+01
1.10450000000E+07	-1.69893116241E+01	-1.28584879598E+02	3.71177207959E+01	1.67048909835E+02	-4.76907939518E+01	1.69837917111E+02	-2.75855610655E+01	3.15900697069E+01
1.12400000000E+07	-1.71432556269E+01	-1.29556822797E+02	3.71234394796E+01	1.66085372637E+02	-4.76829158156E+01	1.68911693202E+02	-2.80161678342E+01	3.05664718635E+01
1.14350000000E+07	-1.73059630162E+01	-1.30633579973E+02	3.71271866487E+01	1.65138053346E+02	-4.76794051765E+01	1.67935327167E+02	-2.84451883584E+01	2.95124133271E+01
1.16300000000E+07	-1.74578245645E+01	-1.31530647870E+02	3.71340931682E+01	1.64202987109E+02	-4.76642859135E+01	1.66963211143E+02	-2.88787999278E+01	2.83091849158E+01
1.18250000000E+07	-1.76180410391E+01	-1.32516858572E+02	3.71430768502E+01	1.63230198520E+02	-4.76629712212E+01	1.65989717910E+02	-2.93163295456E+01	2.71816798904E+01
1.20200000000E+07	-1.77724284580E+01	-1.33505647515E+02	3.71412922308E+01	1.62354476947E+02	-4.76604704897E+01	1.65052244723E+02	-2.97665787021E+01	2.58918590743E+01
1.22150000000E+07	-1.79256273292E+01	-1.34446059767E+02	3.71438434647E+01	1.61415421573E+02	-4.76496070266E+01	1.64127730504E+02	-3.02183891277E+01	2.45674316608E+01
1.24100000000E+07	-1.80737904348E+01	-1.35429942179E+02	3.71488951600E+01	1.60518846958E+02	-4.76466013087E+01	1.63219877856E+02	-3.06829515427E+01	2.31870437911E+01
1.26050000000E+07	-1.82198371398E+01	-1.36439686000E+02	3.71478105789E+01	1.59653305973E+02	-4.76411493362E+01	1.62342874662E+02	-3.11554132077E+01	2.16958861309E+01
1.28000000000E+07	-1.83815325290E+01	-1.37316287991E+02	3.71534640030E+01	1.58816665384E+02	-4.76484182527E+01	1.61432606483E+02	-3.16237607760E+01	2.02027178609E+01
1.29950000000E+07	-1.85308592519E+01	-1.38280183825E+02	3.71536810445E+01	1.57987526668E+02	-4.76396030837E+01	1.60603388935E+02	-3.21217092814E+01	1.86281941842E+01
1.31900000000E+07	-1.86696310618E+01	-1.39210008121E+02	3.71563486142E+01	1.57135281187E+02	-4.76378562683E+01	1.59726789411E+02	-3.26237602132E+01	1.68576538816E+01
1.33850000000E+07	-1.88168670703E+01	-1.40121310177E+02	3.71589236123E+01	1.56317084219E+02	-4.76328679245E+01	1.58866281196E+02	-3.31334304904E+01	1.50571151748E+01
1.35800000000E+07	-1.89550523089E+01	-1.41013793982E+02	3.71653110135E+01	1.55464052552E+02	-4.76311595962E+01	1.58017242847E+02	-3.36613476097E+01	1.30965884009E+01
1.37750000000E+07	-1.90900270788E+01	-1.41952071730E+02	3.71657729794E+01	1.54654180292E+02	-4.76289016014E+01	1.57199353386E+02	-3.41829078428E+01	1.10382254748E+01
1.39700000000E+07	-1.92458480080E+01	-1.42813265619E+02	3.71648146568E+01	1.53855410202E+02	-4.76299666455E+01	1.56415701677E+02	-3.47291714126E+01	8.86049958091E+00
1.41650000000E+07	-1.93749607796E+01	-1.43727474385E+02	3.71691099638E+01	1.53036745642E+02	-4.76205053786E+01	1.55578661565E+02	-3.52766397982E+01	6.41200342707E+00
1.43600000000E+07	-1.95111819394E+01	-1.44606430455E+02	3.71701515171E+01	1.52216139683E+02	-4.76236471953E+01	1.54771540509E+02	-3.58473229815E+01	3.85183230010E+00
1.45550000000E+07	-1.96513208493E+01	-1.45545627927E+02	3.71777574837E+01	1.51441232683E+02	-4.76158516752E+01	1.53978425588E+02	-3.64213004721E+01	8.97616259526E-01
1.47500000000E+07	-1.97834471783E+01	-1.46362316323E+02	3.71805018246E+01	1.50637551452E+02	-4.76164223953E+01	1.53163762223E+02	-3.70032161773E+01	-2.17240355285E+00
1.49450000000E+07	-1.99101569821E+01	-1.47285300499E+02	3.71807284244E+01	1.49812668601E+02	-4.76163455545E+01	1.52431979498E+02	-3.75799321418E+01	-5.68283563519E+00
1.51400000000E+07	-2.00587773891E+01	-1.48019712024E+02	3.71803829259E+01	1.49083582405E+02	-4.76158378410E+01	1.51648586535E+02	-3.81405052022E+01	-9.49125478892E+00
1.53350000000E+07	-2.01851170702E+01	-1.48959299113E+02	3.71843002298E+01	1.48279036343E+02	-4.76137789871E+01	1.50863985074E+02	-3.87334207679E+01	-1.38300565959E+01
1.55300000000E+07	-2.03202788863E+01	-1.49858076985E+02	3.71856722691E+01	1.47538361434E+02	-4.76076149298E+01	1.50095261713E+02	-3.92556588418E+01	-1.85043655521E+01
1.57250000000E+07	-2.04404189933E+01	-1.50569416978E+02	3.71900234686E+01	1.46767185573E+02	-4.76065417516E+01	1.49314955736E+02	-3.97827340762E+01	-2.34600122620E+01
1.59200000000E+07	-2.05750570485E+01	-1.51459428687E+02	3.71908355303E+01	1.46019549578E+02	-4.76107729381E+01	1.48581088083E+02	-4.02416723112E+01	-2.90805154890E+01
1.61150000000E+07	-2.07053874798E+01	-1.52295550132E+02	3.71920693505E+01	1.45226429396E+02	-4.76050481878E+01	1.47821398779E+02	-4.06743946149E+01	-3.50663106912E+01
1.63100000000E+07	-2.08229419756E+01	-1.53198121971E+02	3.71977847676E+01	1.44483301250E+02	-4.76013433736E+01	1.47053855095E+02	-4.09575462659E+01	-4.11991390888E+01
1.65050000000E+07	-2.09401602115E+01	-1.53902271733E+02	3.71935678090E+01	1.43739206670E+02	-4.76002672385E+01	1.46334188325E+02	-4.11865290853E+01	-4.82171975206E+01
1.67000000000E+07	-2.10718942048E+01	-1.54804193517E+02	3.71936390185E+01	1.42976034168E+02	-4.75971042305E+01	1.45601997499E+02	-4.13310879785E+01	-5.50804232045E+01
1.68950000000E+07	-2.11996566393E+01	-1.55532399777E+02	3.71973306421E+01	1.42238488869E+02	-4.76025902546E+01	1.44877135205E+02	-4.13416136259E+01	-6.19610793562E+01
1.70900000000E+07	-2.13170745257E+01	-1.56451841102E+02	3.72009299603E+01	1.41495465681E+02	-4.75972089436E+01	1.44175117860E+02	-4.12719725622E+01	-6.85251330519E+01
1.72850000000E+07	-2.14474188677E+01	-1.57186953040E+02	3.71956594028E+01	1.40758429905E+02	-4.75976638969E+01	1.43422312335E+02	-4.10967894011E+01	-7.48224831707E+01
1.74800000000E+07	-2.15625855552E+01	-1.57989098837E+02	3.72032128306E+01	1.40010257423E+02	-4.75984698542E+01	1.42701763813E+02	-4.08457874555E+01	-8.06660040991E+01
1.76750000000E+07	-2.16773790193E+01	-1.58905334985E+02	3.71977907331E+01	1.39255710556E+02	-4.75974336153E+01	1.41971287120E+02	-4.05406189110E+01	-8.61316752929E+01
1.78700000000E+07	-2.17963173996E+01	-1.59580521782E+02	3.72029122408E+01	1.38571850427E+02	-4.75956870769E+01	1.41280111944E+02	-4.01850321456E+01	-9.10075940880E+01
1.80650000000E+07	-2.19155907407E+01	-1.60355612302E+02	3.72015522066E+01	1.37839650130E+02	-4.75933049449E+01	1.40568753621E+02	-3.98013069545E+01	-9.56912379794E+01
1.82600000000E+07	-2.20320645970E+01	-1.61222616590E+02	3.72066847566E+01	1.37123104280E+02	-4.75886704801E+01	1.39839355131E+02	-3.93788294990E+01	-9.99835825599E+01
1.84550000000E+07	-2.21449145968E+01	-1.62010022148E+02	3.72103090209E+01	1.36395243388E+02	-4.75924193589E+01	1.39160178767E+02	-3.89891063428E+01	-1.03611339652E+02
1.86500000000E+07	-2.22608053655E+01	-1.62746934050E+02	3.72062986325E+01	1.35690795449E+02	-4.75871044809E+01	1.38443279257E+02	-3.85816736453E+01	-1.07075013484E+02
1.88450000000E+07	-2.23729397638E+01	-1.63493226226E+02	3.72090134085E+01	1.34940315642E+02	-4.75871415010E+01	1.37747115639E+02	-3.81549802448E+01	-1.10194772206E+02
1.90400000000E+07	-2.24825606292E+01	-1.64192619948E+02	3.72107588291E+01	1.34257185696E+02	-4.75890131476E+01	1.37042512660E+02	-3.77684863686E+01	-1.12932209827E+02
1.92350000000E+07	-2.26179928893E+01	-1.65033606427E+02	3.72101194590E+01	1.33560593304E+02	-4.75878360771E+01	1.36377593630E+02	-3.73760463597E+01	-1.15602565251E+02
1.94300000000E+07	-2.27160812216E+01	-1.65729373686E+02	3.72153356812E+01	1.32823592615E+02	-4.75841426877E+01	1.35663112642E+02	-3.69997878781E+01	-1.18001824773E+02
1.96250000000E+07	-2.28232603148E+01	-1.66522027716E+02	3.72156824588E+01	1.32136404716E+02	-4.75816556283E+01	1.34965413752E+02	-3.66119019787E+01	-1.20155396725E+02
1.98200000000E+07	-2.29290884449E+01	-1.67208801818E+02	3.72166915669E+01	1.31406540253E+02	-4.75861046094E+01	1.34275119120E+02	-3.62740452721E+01	-1.22142431403E+02
2.00150000000E+07	-2.30451937812E+01	-1.68024090755E+02	3.72131347919E+01	1.30723195593E+02	-4.75848758438E+01	1.33608443586E+02	-3.59350921904E+01	-1.24159471013E+02
2.02100000000E+07	-2.31591710417E+01	-1.68797120436E+02	3.72166117723E+01	1.30032505632E+02	-4.75834926465E+01	1.32907315212E+02	-3.55974342611E+01	-1.25816869561E+02
2.04050000000E+07	-2.32505562473E+01	-1.69526144494E+02	3.72177736814E+01	1.29322954252E+02	-4.75754879134E+01	1.32255276189E+02	-3.52782973532E+01	-1.27619411764E+02
2.06000000000E+07	-2.33707485891E+01	-1.70264352269E+02	3.72157639361E+01	1.28608016494E+02	-4.75794300711E+01	1.31574125215E+02	-3.49642714397E+01	-1.29093448134E+02
2.07950000000E+07	-2.34917390484E+01	-1.70939943980E+02	3.72181052791E+01	1.27910754746E+02	-4.75837656387E+01	1.30882803002E+02	-3.46757881745E+01	-1.30567705002E+02
2.09900000000E+07	-2.35870292473E+01	-1.71667205660E+02	3.72171425860E+01	1.27225206937E+02	-4.75807440188E+01	1.30220015369E+02	-3.43908585046E+01	-1.32022705153E+02
2.11850000000E+07	-2.36901777343E+01	-1.72348379837E+02	3.72196432718E+01	1.26537227131E+02	-4.75777582796E+01	1.29560608892E+02	-3.41068631541E+01	-1.33274005916E+02
2.13800000000E+07	-2.38081772741E+01	-1.73016351734E+02	3.72212869900E+01	1.25841797473E+02	-4.75820633579E+01	1.28835495626E+02	-3.38527200317E+01	-1.34585207067E+02
2.15750000000E+07	-2.39208050908E+01	-1.73813845160E+02	3.72178082891E+01	1.25135656957E+02	-4.75767053157E+01	1.28196196321E+02	-3.35923475054E+01	-1.35830818828E+02
2.17700000000E+07	-2.40176185810E+01	-1.74450523391E+02	3.72257343502E+01	1.24466810418E+02	-4.75773864547E+01	1.27561609492E+02	-3.33405309754E+01	-1.36937053859E+02
2.19650000000E+07	-2.41341990647E+01	-1.75319547688E+02	3.72225139398E+01	1.23798666081E+02	-4.75761431170E+01	1.26888423105E+02	-3.31070564138E+01	-1.38066907059E+02
2.21600000000E+07	-2.42175813045E+01	-1.75806130804E+02	3.72214752970E+01	1.23120564245E+02	-4.75734700855E+01	1.26207451308E+02	-3.28788943853E+01	-1.39172489599E+02
2.23550000000E+07	-2.43126085186E+01	-1.76583710143E+02	3.72218375573E+01	1.22420544883E+02	-4.75739358459E+01	1.25567205051E+02	-3.26583898403E+01	-1.40184943439E+02
2.25500000000E+07	-2.44441725239E+01	-1.77290034923E+02	3.72254261348E+01	1.21755847953E+02	-4.75748179728E+01	1.24888247775E+02	-3.24429624446E+01	-1.41202821084E+02
2.27450000000E+07	-2.45348777666E+01	-1.77941560442E+02	3.72222917601E+01	1.21064903883E+02	-4.75782998618E+01	1.24251466221E+02	-3.22306520838E+01	-1.42169561565E+02
2.29400000000E+07	-2.46248322730E+01	-1.78659329982E+02	3.72237366862E+01	1.20384245151E+02	-4.75737951851E+01	1.23579511722E+02	-3.20326327921E+01	-1.43104819537E+02
2.31350000000E+07	-2.47285165531E+01	-1.79325537677E+02	3.72250386883E+01	1.19691522114E+02	-4.75779826532E+01	1.22924840735E+02	-3.18324690933E+01	-1.44014725408E+02
2.33300000000E+07	-2.48425542671E+01	1.79930890556E+02	3.72235604897E+01	1.19031864386E+02	-4.75727670808E+01	1.22310013281E+02	-3.16499905987E+01	-1.44923828623E+02
2.35250000000E+07	-2.49294710443E+01	1.79230559124E+02	3.72242239849E+01	1.18375171444E+02	-4.75732508032E+01	1.21637618385E+02	-3.14646404478E+01	-1.45773867973E+02
2.37200000000E+07	-2.50332097006E+01	1.78525185416E+02	3.72260108079E+01	1.17679081103E+02	-4.75739738724E+01	1.20966906619E+02	-3.12893109579E+01	-1.46590392659E+02
2.39150000000E+07	-2.51230154653E+01	1.78047524365E+02	3.72266880871E+01	1.16979226974E+02	-4.75754950001E+01	1.20323319517E+02	-3.11110427623E+01	-1.47442963036E+02
2.41100000000E+07	-2.52327982601E+01	1.77415134029E+02	3.72285440125E+01	1.16338305568E+02	-4.75695697100E+01	1.19683939621E+02	-3.09365123126E+01	-1.48292246165E+02
2.43050000000E+07	-2.53244590409E+01	1.76635843094E+02	3.72275166718E+01	1.15676558082E+02	-4.75708606717E+01	1.19080429702E+02	-3.07697424196E+01	-1.49060880061E+02
2.45000000000E+07	-2.54179678623E+01	1.76003216430E+02	3.72311838940E+01	1.15003380316E+02	-4.75699070841E+01	1.18402043386E+02	-3.06102880878E+01	-1.49847242312E+02
2.46950000000E+07	-2.55210544018E+01	1.75405548673E+02	3.72261945666E+01	1.14348449367E+02	-4.75711311215E+01	1.17800217602E+02	-3.04501800656E+01	-1.50615762173E+02
2.48900000000E+07	-2.55925002605E+01	1.74738288573E+02	3.72280090640E+01	1.13673116291E+02	-4.75700914386E+01	1.17106900371E+02	-3.03000369482E+01	-1.51342280226E+02
2.50850000000E+07	-2.56959022967E+01	1.74121491300E+02	3.72258192876E+01	1.13019854663E+02	-4.75756204872E+01	1.16462759684E+02	-3.01473502040E+01	-1.52101916295E+02
2.52800000000E+07	-2.58100980161E+01	1.73401984740E+02	3.72238474686E+01	1.12362512575E+02	-4.75692621334E+01	1.15829838675E+02	-3.00014839961E+01	-1.52822925890E+02
2.54750000000E+07	-2.59089180725E+01	1.72836186028E+02	3.72275456710E+01	1.11677430565E+02	-4.75757335568E+01	1.15203884460E+02	-2.98655104743E+01	-1.53539186196E+02
2.56700000000E+07	-2.60241920928E+01	1.72147141502E+02	3.72262191046E+01	1.10999678031E+02	-4.75703136950E+01	1.14551686597E+02	-2.97181267060E+01	-1.54294350764E+02
2.58650000000E+07	-2.61009381174E+01	1.71548540112E+02	3.72305463813E+01	1.10338694295E+02	-4.75707735255E+01	1.13925002382E+02	-2.95864923503E+01	-1.55011069884E+02
2.60600000000E+07	-2.61980869469E+01	1.70878254863E+02	3.72243891824E+01	1.09680244779E+02	-4.75698801858E+01	1.13265401856E+02	-2.94470909193E+01	-1.55715403097E+02
2.62550000000E+07	-2.62862044224E+01	1.70192501125E+02	3.72298076787E+01	1.09040073177E+02	-4.75691324830E+01	1.12649585672E+02	-2.93186620273E+01	-1.56429208022E+02
2.64500000000E+07	-2.63811960742E+01	1.69917874383E+02	3.72266323105E+01	1.08422984206E+02	-4.75694076065E+01	1.11999414025E+02	-2.91899673211E+01	-1.57099799703E+02
2.66450000000E+07	-2.64738618225E+01	1.69144500030E+02	3.72307829082E+01	1.07728685570E+02	-4.75682203436E+01	1.11350560005E+02	-2.90636503085E+01	-1.57800120686E+02
2.68400000000E+07	-2.65690457288E+01	1.68530030020E+02	3.72269162822E+01	1.07033389241E+02	-4.75681710583E+01	1.10743271835E+02	-2.89405388234E+01	-1.58533172675E+02
2.70350000000E+07	-2.66845899737E+01	1.67928594960E+02	3.72295880921E+01	1.06412255075E+02	-4.75698683785E+01	1.10118962973E+02	-2.88266814428E+01	-1.59158125928E+02
2.72300000000E+07	-2.67809233735E+01	1.67373294362E+02	3.72250176140E+01	1.05781243443E+02	-4.75700774639E+01	1.09473156889E+02	-2.87060435779E+01	-1.59868142039E+02
2.74250000000E+07	-2.68729238367E+01	1.66608456211E+02	3.72266702371E+01	1.05089331788E+02	-4.75668691360E+01	1.08890213974E+02	-2.85979216565E+01	-1.60524820668E+02
2.76200000000E+07	-2.69741483072E+01	1.66083177896E+02	3.72280352409E+01	1.04430006410E+02	-4.75712435085E+01	1.08244244133E+02	-2.84825920765E+01	-1.61196076110E+02
2.78150000000E+07	-2.70689141041E+01	1.65493319372E+02	3.72265895003E+01	1.03805093117E+02	-4.75694096547E+01	1.07606578237E+02	-2.83711062566E+01	-1.61856032549E+02
