# Hz S DB R 50
! CMT, M5045, 22160017, 22.4.3/2
! Date: 2/27/2023 01:07:11
! Data: Format (Calibration Info)
! Freq	S11:dB/Ang(F2)	S21:dB/Ang(F2)	S12:dB/Ang(F2)	S22:dB/Ang(F2)
5.00000000000E+06	-9.85226934892E+00	-7.80217393001E+01	3.64216300079E+01	3.61051464048E+01	-4.85068453957E+01	3.91996096921E+01	-1.47424058466E+01	7.12782588717E+01
5.19500000000E+06	-1.02068505262E+01	-7.90674563618E+01	3.65008275976E+01	3.39616101291E+01	-4.84810966056E+01	3.67482910791E+01	-1.53751835427E+01	7.04271142018E+01
5.39000000000E+06	-1.05517493458E+01	-8.00309316737E+01	3.65741830139E+01	3.19299960848E+01	-4.83897895108E+01	3.51469479587E+01	-1.60081422268E+01	6.97255001714E+01
5.58500000000E+06	-1.08927643617E+01	-8.10098951855E+01	3.66392141014E+01	2.99791560480E+01	-4.84155442930E+01	3.30993533061E+01	-1.66428277598E+01	6.92360254207E+01
5.78000000000E+06	-1.12239473831E+01	-8.18632516123E+01	3.66927913962E+01	2.81509512618E+01	-4.83433394444E+01	3.07906567895E+01	-1.72486034589E+01	6.87927510907E+01
5.97500000000E+06	-1.15412398804E+01	-8.26562710272E+01	3.67427264870E+01	2.64077598607E+01	-4.81477721267E+01	2.93478895654E+01	-1.78484219414E+01	6.84782110676E+01
6.17000000000E+06	-1.18611330150E+01	-8.34712258919E+01	3.67887457628E+01	2.47280522130E+01	-4.81894580971E+01	2.76882625936E+01	-1.84144109093E+01	6.83221260192E+01
6.36500000000E+06	-1.21671464888E+01	-8.42263985852E+01	3.68277862006E+01	2.31382759388E+01	-4.81045987346E+01	2.60284195827E+01	-1.89997654442E+01	6.81839870444E+01
6.56000000000E+06	-1.24683339016E+01	-8.48878275146E+01	3.68673192264E+01	2.16277050762E+01	-4.80124072386E+01	2.45012530449E+01	-1.95744722645E+01	6.81262349237E+01
6.75500000000E+06	-1.27670950302E+01	-8.55693139691E+01	3.68969748236E+01	2.01603809769E+01	-4.81413557250E+01	2.29555316644E+01	-2.01369705473E+01	6.83737091518E+01
6.95000000000E+06	-1.30550403079E+01	-8.62005144138E+01	3.69270156187E+01	1.87533049124E+01	-4.79504075873E+01	2.18497585256E+01	-2.06932396782E+01	6.82914793019E+01
7.14500000000E+06	-1.33481894435E+01	-8.68189597014E+01	3.69510992768E+01	1.73998251505E+01	-4.79610662814E+01	2.02434630867E+01	-2.12784411562E+01	6.87729490231E+01
7.34000000000E+06	-1.36226558866E+01	-8.74418376793E+01	3.69794318662E+01	1.60862119734E+01	-4.79941801554E+01	1.89124889386E+01	-2.17735376113E+01	6.89775558281E+01
7.53500000000E+06	-1.38985736492E+01	-8.79724828826E+01	3.70003694654E+01	1.48429617561E+01	-4.79381477582E+01	1.79412169874E+01	-2.23007844591E+01	6.94420798557E+01
7.73000000000E+06	-1.41698807548E+01	-8.85886168562E+01	3.70212745604E+01	1.35998676750E+01	-4.79443494412E+01	1.66980888105E+01	-2.28350371319E+01	6.99351605001E+01
7.92500000000E+06	-1.44383262626E+01	-8.91280829414E+01	3.70417279374E+01	1.24304116009E+01	-4.78966797430E+01	1.55259865742E+01	-2.33936689191E+01	7.05900560158E+01
8.12000000000E+06	-1.47026971809E+01	-8.96227738742E+01	3.70555431090E+01	1.12802333567E+01	-4.78613923977E+01	1.43718251512E+01	-2.38657058191E+01	7.12342306551E+01
8.31500000000E+06	-1.49639068519E+01	-9.01391555428E+01	3.70728393954E+01	1.01795236171E+01	-4.77790330480E+01	1.34898989140E+01	-2.43790165230E+01	7.19710455679E+01
8.51000000000E+06	-1.52178469354E+01	-9.05966116226E+01	3.70897958477E+01	9.12949812413E+00	-4.77441971564E+01	1.19715117989E+01	-2.48814950328E+01	7.28419851712E+01
8.70500000000E+06	-1.54785146195E+01	-9.10733813559E+01	3.71005738684E+01	8.07993955946E+00	-4.78225130535E+01	1.09184833499E+01	-2.53775238257E+01	7.38542721644E+01
8.90000000000E+06	-1.57211440471E+01	-9.15190416280E+01	3.71181494014E+01	7.04502291813E+00	-4.77515925129E+01	9.85207090861E+00	-2.58666787465E+01	7.48026711455E+01
9.09500000000E+06	-1.59783552037E+01	-9.19822777623E+01	3.71206867279E+01	6.06246663352E+00	-4.77707181481E+01	9.23356587565E+00	-2.63347007316E+01	7.59175524556E+01
9.29000000000E+06	-1.62263546416E+01	-9.24094767504E+01	3.71349861681E+01	5.10752993114E+00	-4.77227848959E+01	7.70390100694E+00	-2.68449597483E+01	7.73635135822E+01
9.48500000000E+06	-1.64730735250E+01	-9.28758894248E+01	3.71437159456E+01	4.15152262162E+00	-4.76612179724E+01	7.21246386360E+00	-2.73335072833E+01	7.82260203395E+01
9.68000000000E+06	-1.67196125718E+01	-9.33096707064E+01	3.71523460604E+01	3.20759484868E+00	-4.77262180067E+01	6.23074126757E+00	-2.77372587546E+01	7.99815796407E+01
9.87500000000E+06	-1.69590493019E+01	-9.36975540436E+01	3.71574668780E+01	2.32853585282E+00	-4.77268436330E+01	5.02058593245E+00	-2.81685204401E+01	8.11364483134E+01
1.00700000000E+07	-1.71947473449E+01	-9.41356445497E+01	3.71679198720E+01	1.41628227797E+00	-4.76359559714E+01	3.99661762202E+00	-2.86264727760E+01	8.27786918979E+01
1.02650000000E+07	-1.74379554920E+01	-9.44766292367E+01	3.71768182661E+01	5.70749938070E-01	-4.76943035607E+01	3.25341920028E+00	-2.90236334697E+01	8.46016873030E+01
1.04600000000E+07	-1.76642767376E+01	-9.48863588858E+01	3.71853943596E+01	-2.92817052496E-01	-4.75751753115E+01	2.83079096948E+00	-2.94495821177E+01	8.63220032788E+01
1.06550000000E+07	-1.79054809654E+01	-9.53846390158E+01	3.71890929397E+01	-1.13574738585E+00	-4.76622664432E+01	1.46592665744E+00	-2.98153297326E+01	8.80323207734E+01
1.08500000000E+07	-1.81379228002E+01	-9.57808959085E+01	3.71956192116E+01	-1.97518416769E+00	-4.76226900356E+01	9.01716783914E-01	-3.02105616597E+01	8.98904047534E+01
1.10450000000E+07	-1.83770495694E+01	-9.61889587148E+01	3.72024730051E+01	-2.78294347062E+00	-4.75952696435E+01	2.90841678466E-02	-3.05690688956E+01	9.19070386163E+01
1.12400000000E+07	-1.86057250882E+01	-9.66082886119E+01	3.72115231057E+01	-3.57547283875E+00	-4.75764058237E+01	-5.50402006094E-01	-3.09233535312E+01	9.35988423929E+01
1.14350000000E+07	-1.88356228987E+01	-9.69799392153E+01	3.72137989650E+01	-4.41021080049E+00	-4.76091927314E+01	-1.64056923891E+00	-3.12345332324E+01	9.55019638151E+01
1.16300000000E+07	-1.90718286371E+01	-9.73673403395E+01	3.72200153166E+01	-5.19176295838E+00	-4.75731970512E+01	-2.27548786999E+00	-3.15207181085E+01	9.80552129883E+01
1.18250000000E+07	-1.93070063178E+01	-9.77452367712E+01	3.72235241923E+01	-5.97341325685E+00	-4.76712530668E+01	-3.27708065177E+00	-3.18604590527E+01	1.00340277624E+02
1.20200000000E+07	-1.95485225216E+01	-9.81655668825E+01	3.72284944297E+01	-6.76666744729E+00	-4.76009744480E+01	-4.17191864250E+00	-3.22569453129E+01	1.02861883825E+02
1.22150000000E+07	-1.97790863629E+01	-9.84279740948E+01	3.72293794888E+01	-7.52701592087E+00	-4.75510748131E+01	-4.90371816608E+00	-3.25151143485E+01	1.04790114755E+02
1.24100000000E+07	-2.00142387840E+01	-9.87634815565E+01	3.72291609250E+01	-8.25702678920E+00	-4.76385061505E+01	-5.60785307361E+00	-3.27599528634E+01	1.06975791278E+02
1.26050000000E+07	-2.02501630282E+01	-9.90589593742E+01	3.72289450991E+01	-8.95873421743E+00	-4.75983298862E+01	-6.40680382983E+00	-3.30918531497E+01	1.09832334970E+02
1.28000000000E+07	-2.04809505886E+01	-9.93064541646E+01	3.72322940553E+01	-9.66162575810E+00	-4.75848375168E+01	-7.29742177021E+00	-3.33019030793E+01	1.12954537437E+02
1.29950000000E+07	-2.07007770201E+01	-9.96232538887E+01	3.72347952280E+01	-1.03431414796E+01	-4.75571268753E+01	-7.32316501538E+00	-3.35120779302E+01	1.14667258438E+02
1.31900000000E+07	-2.09489133202E+01	-9.98664766429E+01	3.72367356944E+01	-1.10208985071E+01	-4.75969594051E+01	-8.35201101906E+00	-3.36991787418E+01	1.18134017288E+02
1.33850000000E+07	-2.11779002524E+01	-1.00196774977E+02	3.72393144772E+01	-1.16814536303E+01	-4.75374077677E+01	-9.19665067647E+00	-3.38075622605E+01	1.20122818886E+02
1.35800000000E+07	-2.14325076304E+01	-1.00467836901E+02	3.72421989981E+01	-1.23623930260E+01	-4.75232684558E+01	-9.70969373042E+00	-3.39836489293E+01	1.22979736033E+02
1.37750000000E+07	-2.16660545801E+01	-1.00624501079E+02	3.72430845720E+01	-1.30061961847E+01	-4.75067013955E+01	-1.06816247528E+01	-3.42562630841E+01	1.24992714109E+02
1.39700000000E+07	-2.19120462942E+01	-1.00999646443E+02	3.72464711316E+01	-1.36824020529E+01	-4.75104763354E+01	-1.12567950543E+01	-3.42970138437E+01	1.28236763104E+02
1.41650000000E+07	-2.21419781871E+01	-1.01187042456E+02	3.72490891104E+01	-1.43175734906E+01	-4.74610705470E+01	-1.20871660318E+01	-3.43773354595E+01	1.30655229869E+02
1.43600000000E+07	-2.23877031356E+01	-1.01352925023E+02	3.72484574516E+01	-1.49782572963E+01	-4.75093397995E+01	-1.27337016691E+01	-3.44303328754E+01	1.32960466090E+02
1.45550000000E+07	-2.26308382786E+01	-1.01533535558E+02	3.72529349804E+01	-1.56214180941E+01	-4.74657429260E+01	-1.31279020055E+01	-3.44786884770E+01	1.35078545946E+02
1.47500000000E+07	-2.28843941388E+01	-1.01766765491E+02	3.72508257991E+01	-1.62566949167E+01	-4.75353718710E+01	-1.38420778808E+01	-3.45036643358E+01	1.37668937269E+02
1.49450000000E+07	-2.31393890655E+01	-1.01924649810E+02	3.72494338759E+01	-1.68841007641E+01	-4.74733225077E+01	-1.41058891192E+01	-3.45507273221E+01	1.40319630422E+02
1.51400000000E+07	-2.33752062005E+01	-1.02034807180E+02	3.72539582129E+01	-1.75027886073E+01	-4.74623215910E+01	-1.47302241550E+01	-3.45524813731E+01	1.42997898429E+02
1.53350000000E+07	-2.36327878000E+01	-1.02106393740E+02	3.72534879247E+01	-1.81215188038E+01	-4.74798161241E+01	-1.52858638302E+01	-3.45108736060E+01	1.45085711312E+02
1.55300000000E+07	-2.38799044178E+01	-1.02269499822E+02	3.72532025174E+01	-1.87686519025E+01	-4.75528303990E+01	-1.59936843745E+01	-3.45744379355E+01	1.47557939094E+02
1.57250000000E+07	-2.41430059412E+01	-1.02310479067E+02	3.72547850533E+01	-1.93605787230E+01	-4.75340773197E+01	-1.66675203816E+01	-3.45409886406E+01	1.48796270074E+02
1.59200000000E+07	-2.43964306470E+01	-1.02463790005E+02	3.72536316547E+01	-1.99484523329E+01	-4.74715814469E+01	-1.72317244483E+01	-3.44169960681E+01	1.51191138530E+02
1.61150000000E+07	-2.46671039501E+01	-1.02516218996E+02	3.72564313003E+01	-2.05729291774E+01	-4.75127969969E+01	-1.79056000262E+01	-3.43979413276E+01	1.52769298747E+02
1.63100000000E+07	-2.49217422735E+01	-1.02607394964E+02	3.72528799873E+01	-2.11653678147E+01	-4.75139112766E+01	-1.80287276562E+01	-3.45009443411E+01	1.54399517353E+02
1.65050000000E+07	-2.51775215151E+01	-1.02688838688E+02	3.72569194980E+01	-2.17573822278E+01	-4.74719577490E+01	-1.88808782054E+01	-3.44465103562E+01	1.56910673043E+02
1.67000000000E+07	-2.54669567248E+01	-1.02701356734E+02	3.72538017799E+01	-2.23423881935E+01	-4.74472280561E+01	-1.92283471094E+01	-3.42910995621E+01	1.58330553713E+02
1.68950000000E+07	-2.57397729549E+01	-1.02636226981E+02	3.72550274096E+01	-2.29135275508E+01	-4.75538874748E+01	-2.03967899497E+01	-3.43392256899E+01	1.59714677774E+02
1.70900000000E+07	-2.60042539204E+01	-1.02725043357E+02	3.72537870405E+01	-2.34956866890E+01	-4.74900199228E+01	-2.07646318336E+01	-3.41838634888E+01	1.61685533931E+02
1.72850000000E+07	-2.63028001817E+01	-1.02594532339E+02	3.72512971366E+01	-2.40719343740E+01	-4.75069823141E+01	-2.16726625187E+01	-3.40735396846E+01	1.63737639744E+02
1.74800000000E+07	-2.65849794997E+01	-1.02572137600E+02	3.72518029325E+01	-2.46438268443E+01	-4.74582368509E+01	-2.18662799281E+01	-3.40817562037E+01	1.64268041140E+02
1.76750000000E+07	-2.68704598862E+01	-1.02492258481E+02	3.72518121340E+01	-2.52119661244E+01	-4.74804273678E+01	-2.30350507314E+01	-3.39891867796E+01	1.65693744545E+02
1.78700000000E+07	-2.71501044175E+01	-1.02480994863E+02	3.72508928174E+01	-2.58181456481E+01	-4.74319111969E+01	-2.29222489248E+01	-3.39451580258E+01	1.67374428906E+02
1.80650000000E+07	-2.74588202477E+01	-1.02280425502E+02	3.72494968596E+01	-2.63454027083E+01	-4.73870710819E+01	-2.35438416714E+01	-3.37756102333E+01	1.68119294299E+02
1.82600000000E+07	-2.77697348409E+01	-1.01866715301E+02	3.72473411184E+01	-2.69128016909E+01	-4.74672958372E+01	-2.44233816431E+01	-3.37012011761E+01	1.69710365636E+02
1.84550000000E+07	-2.80595699186E+01	-1.01786690758E+02	3.72504943644E+01	-2.74705215209E+01	-4.74116754037E+01	-2.48431448913E+01	-3.36155703910E+01	1.70817222339E+02
1.86500000000E+07	-2.84016791237E+01	-1.01505364008E+02	3.72452803329E+01	-2.80123699738E+01	-4.74468265684E+01	-2.51571969570E+01	-3.36244559027E+01	1.72242951584E+02
1.88450000000E+07	-2.87329293856E+01	-1.01111581913E+02	3.72471806258E+01	-2.85932315519E+01	-4.74511944383E+01	-2.57019434084E+01	-3.35137208763E+01	1.73053295446E+02
1.90400000000E+07	-2.90480647274E+01	-1.00871862794E+02	3.72436128585E+01	-2.91199489284E+01	-4.74408841097E+01	-2.60890154904E+01	-3.34316202083E+01	1.74987451159E+02
1.92350000000E+07	-2.93655235062E+01	-1.00403035059E+02	3.72427799344E+01	-2.96850140538E+01	-4.75047888893E+01	-2.66893095278E+01	-3.33836155053E+01	1.75360659695E+02
1.94300000000E+07	-2.96997448574E+01	-9.99221832186E+01	3.72451781780E+01	-3.02113929993E+01	-4.74479777631E+01	-2.74543774917E+01	-3.33377888863E+01	1.76386178854E+02
1.96250000000E+07	-3.00188950872E+01	-9.95600376349E+01	3.72445922154E+01	-3.07599940525E+01	-4.74728337542E+01	-2.78346615602E+01	-3.32134500081E+01	1.77574492634E+02
1.98200000000E+07	-3.03845702474E+01	-9.92015366501E+01	3.72422032825E+01	-3.13091487121E+01	-4.74133093096E+01	-2.78808237391E+01	-3.30938722630E+01	1.78039615123E+02
2.00150000000E+07	-3.07380494773E+01	-9.82030603368E+01	3.72397958291E+01	-3.18359656459E+01	-4.74573197424E+01	-2.91551465487E+01	-3.31544154393E+01	1.79462816419E+02
2.02100000000E+07	-3.11051687709E+01	-9.76808372230E+01	3.72371548914E+01	-3.23911407876E+01	-4.73882767824E+01	-2.96114267625E+01	-3.29531054865E+01	1.79665580374E+02
2.04050000000E+07	-3.14761422670E+01	-9.68342186318E+01	3.72382015552E+01	-3.29077463590E+01	-4.74634610835E+01	-2.99714352831E+01	-3.29036744396E+01	-1.79408035596E+02
2.06000000000E+07	-3.18647637617E+01	-9.59264485317E+01	3.72379173241E+01	-3.34475766131E+01	-4.73736735890E+01	-3.07172042887E+01	-3.28687275782E+01	-1.78437634272E+02
2.07950000000E+07	-3.22583265086E+01	-9.51248543964E+01	3.72342687293E+01	-3.40019592132E+01	-4.73897597843E+01	-3.08193178373E+01	-3.27670246223E+01	-1.77867427635E+02
2.09900000000E+07	-3.26523157846E+01	-9.39961451127E+01	3.72315487554E+01	-3.45024378640E+01	-4.73735783006E+01	-3.11298033711E+01	-3.26558413207E+01	-1.76546234713E+02
2.11850000000E+07	-3.30149592419E+01	-9.27953584172E+01	3.72319705261E+01	-3.50221085853E+01	-4.74270443139E+01	-3.19917156756E+01	-3.26222234300E+01	-1.76215856525E+02
2.13800000000E+07	-3.34257837412E+01	-9.13564206843E+01	3.72286236553E+01	-3.55500871761E+01	-4.73905464380E+01	-3.28188836372E+01	-3.26337370749E+01	-1.75232553407E+02
2.15750000000E+07	-3.38206183685E+01	-8.94980629939E+01	3.72266360079E+01	-3.60719982650E+01	-4.74058031822E+01	-3.26731693529E+01	-3.24758350438E+01	-1.74027998851E+02
2.17700000000E+07	-3.42071609159E+01	-8.81738474319E+01	3.72267031812E+01	-3.66038046277E+01	-4.73848060217E+01	-3.33478902579E+01	-3.24069358799E+01	-1.73431809869E+02
2.19650000000E+07	-3.46210512324E+01	-8.64530337046E+01	3.72233020086E+01	-3.71219735661E+01	-4.73540963744E+01	-3.39887671559E+01	-3.23904096467E+01	-1.72860764105E+02
2.21600000000E+07	-3.50278621083E+01	-8.43538278756E+01	3.72221887514E+01	-3.76164123031E+01	-4.73441785539E+01	-3.45199528051E+01	-3.23337269511E+01	-1.72338001099E+02
2.23550000000E+07	-3.55225245927E+01	-8.22002975004E+01	3.72173568707E+01	-3.81365073580E+01	-4.73409534908E+01	-3.50807391141E+01	-3.22602835489E+01	-1.71684584640E+02
2.25500000000E+07	-3.58487325358E+01	-7.93723481101E+01	3.72186066686E+01	-3.86346276860E+01	-4.74234087085E+01	-3.60095032006E+01	-3.22650542812E+01	-1.70891899782E+02
2.27450000000E+07	-3.62761524463E+01	-7.69304661251E+01	3.72119602766E+01	-3.91654530753E+01	-4.73485318426E+01	-3.60243068290E+01	-3.20774393349E+01	-1.70032541859E+02
2.29400000000E+07	-3.66214907942E+01	-7.36766198463E+01	3.72155901433E+01	-3.96420072826E+01	-4.73614875390E+01	-3.62916616127E+01	-3.20076861348E+01	-1.69228761538E+02
2.31350000000E+07	-3.69916438024E+01	-7.10386735594E+01	3.72123645565E+01	-4.01807270694E+01	-4.73784557744E+01	-3.67222894064E+01	-3.20248010432E+01	-1.69164267350E+02
2.33300000000E+07	-3.73366493703E+01	-6.73246970880E+01	3.72115793485E+01	-4.06947117960E+01	-4.73698813697E+01	-3.72510879468E+01	-3.18999172816E+01	-1.68397100521E+02
2.35250000000E+07	-3.76660723667E+01	-6.35538865146E+01	3.72086446445E+01	-4.11834149115E+01	-4.73806074540E+01	-3.75093177264E+01	-3.18902733477E+01	-1.67966372127E+02
2.37200000000E+07	-3.78830696000E+01	-5.98182584845E+01	3.72051123400E+01	-4.16752963541E+01	-4.73160735880E+01	-3.85629060641E+01	-3.17900137186E+01	-1.67433299090E+02
2.39150000000E+07	-3.80539938008E+01	-5.51958950547E+01	3.72032627105E+01	-4.21829933631E+01	-4.73388028359E+01	-3.88972989364E+01	-3.17507717637E+01	-1.66660149243E+02
2.41100000000E+07	-3.82495636318E+01	-5.13851916723E+01	3.72023322440E+01	-4.26975502019E+01	-4.73676991653E+01	-3.92721031382E+01	-3.16550692220E+01	-1.65833730020E+02
2.43050000000E+07	-3.82848987656E+01	-4.70767448353E+01	3.72005954253E+01	-4.31680774446E+01	-4.73635983836E+01	-3.98549956000E+01	-3.16574080226E+01	-1.65319675671E+02
2.45000000000E+07	-3.84205438148E+01	-4.24546764187E+01	3.71960902103E+01	-4.36702512228E+01	-4.73205446922E+01	-4.02644822094E+01	-3.16117441782E+01	-1.65064205839E+02
2.46950000000E+07	-3.83979905782E+01	-3.81848350230E+01	3.71931799570E+01	-4.41683543652E+01	-4.73444761477E+01	-4.09568162749E+01	-3.15433143139E+01	-1.64452306659E+02
2.48900000000E+07	-3.82779319764E+01	-3.41624060166E+01	3.71934130118E+01	-4.46702279508E+01	-4.73435057460E+01	-4.14316536524E+01	-3.14280492519E+01	-1.63602983276E+02
2.50850000000E+07	-3.81721055071E+01	-2.99501552654E+01	3.71898374874E+01	-4.51723445704E+01	-4.73381529405E+01	-4.18084824956E+01	-3.14174619251E+01	-1.63055382412E+02
2.52800000000E+07	-3.79620265871E+01	-2.54137184009E+01	3.71859458785E+01	-4.56656126517E+01	-4.73301358928E+01	-4.24909753897E+01	-3.13757628367E+01	-1.62931953825E+02
2.54750000000E+07	-3.77604081872E+01	-2.26533441639E+01	3.71867103104E+01	-4.61527123756E+01	-4.73473152311E+01	-4.28529923106E+01	-3.12867970413E+01	-1.62205485024E+02
2.56700000000E+07	-3.75599330354E+01	-1.91278286917E+01	3.71840665682E+01	-4.66318740560E+01	-4.73638926543E+01	-4.33592459453E+01	-3.12484167593E+01	-1.61939526671E+02
2.58650000000E+07	-3.72469272357E+01	-1.62363249953E+01	3.71823932355E+01	-4.71152300207E+01	-4.73489129275E+01	-4.37533879483E+01	-3.12002131338E+01	-1.60975114569E+02
2.60600000000E+07	-3.68951101236E+01	-1.29882015994E+01	3.71801467253E+01	-4.76005556966E+01	-4.73067606684E+01	-4.39925370024E+01	-3.11133043989E+01	-1.61249388378E+02
2.62550000000E+07	-3.66069442328E+01	-1.02929199557E+01	3.71759751269E+01	-4.80735977049E+01	-4.73275629164E+01	-4.47576486469E+01	-3.10468401088E+01	-1.60361510968E+02
2.64500000000E+07	-3.63112203172E+01	-8.19794110004E+00	3.71740835160E+01	-4.85794428701E+01	-4.73077268475E+01	-4.50735073412E+01	-3.10027311747E+01	-1.60238300382E+02
2.66450000000E+07	-3.60081875429E+01	-5.96276328269E+00	3.71681319668E+01	-4.90585641438E+01	-4.73640977593E+01	-4.57017029986E+01	-3.10132902006E+01	-1.59509671066E+02
2.68400000000E+07	-3.57084089964E+01	-4.22921929032E+00	3.71665173517E+01	-4.95310292888E+01	-4.73610765590E+01	-4.57546207841E+01	-3.08591582298E+01	-1.59125883330E+02
2.70350000000E+07	-3.53996457267E+01	-2.70343929008E+00	3.71672491644E+01	-5.00252518284E+01	-4.73322965042E+01	-4.60919923301E+01	-3.08594160536E+01	-1.58749005469E+02
2.72300000000E+07	-3.50926509851E+01	-1.25144953947E+00	3.71622657466E+01	-5.05344600407E+01	-4.73801440092E+01	-4.74574717865E+01	-3.08499229146E+01	-1.58490999682E+02
2.74250000000E+07	-3.47331730394E+01	7.55532837826E-01	3.71583057598E+01	-5.09850113560E+01	-4.73349995977E+01	-4.74731652501E+01	-3.07594921795E+01	-1.57794261562E+02
2.76200000000E+07	-3.44864001029E+01	1.92896067734E+00	3.71590227711E+01	-5.14534998265E+01	-4.73573315224E+01	-4.79652135998E+01	-3.07103384069E+01	-1.57027722893E+02
