# Hz S DB R 50
! CMT, M5045, 22160017, 22.4.3/2
! Date: 2/26/2023 22:14:03
! Data: Format (Calibration Info)
! Freq	S11:dB/Ang(F2)	S21:dB/Ang(F2)	S12:dB/Ang(F2)	S22:dB/Ang(F2)
5.00000000000E+06	-9.67480550592E+00	-7.73175153190E+01	3.64256067027E+01	3.67970742723E+01	-4.85784908860E+01	3.98312065770E+01	-1.45600094063E+01	6.96327658427E+01
5.19500000000E+06	-1.00314255735E+01	-7.83940063341E+01	3.65050100628E+01	3.46325640245E+01	-4.85128650413E+01	3.75897880022E+01	-1.51924487950E+01	6.86686885313E+01
5.39000000000E+06	-1.03680007050E+01	-7.93819526880E+01	3.65764522204E+01	3.25965093182E+01	-4.85145176288E+01	3.50028181061E+01	-1.58259418351E+01	6.78561874230E+01
5.58500000000E+06	-1.07075127449E+01	-8.02997028195E+01	3.66413720841E+01	3.06534358169E+01	-4.82677385137E+01	3.39292414164E+01	-1.64217499110E+01	6.71860426583E+01
5.78000000000E+06	-1.10285533958E+01	-8.11956311266E+01	3.66958911205E+01	2.88256199854E+01	-4.83371416907E+01	3.13936345927E+01	-1.70148181467E+01	6.65989056806E+01
5.97500000000E+06	-1.13425663443E+01	-8.20272538600E+01	3.67538195994E+01	2.70857673269E+01	-4.83421869587E+01	3.03669050195E+01	-1.76124692425E+01	6.61502763298E+01
6.17000000000E+06	-1.16514927676E+01	-8.27835024021E+01	3.67959386463E+01	2.54239786129E+01	-4.81375660366E+01	2.79941315231E+01	-1.82126179665E+01	6.57691683048E+01
6.36500000000E+06	-1.19500870265E+01	-8.35924140405E+01	3.68367038656E+01	2.38205863070E+01	-4.81967508480E+01	2.68540925326E+01	-1.87717637632E+01	6.55170263296E+01
6.56000000000E+06	-1.22420739009E+01	-8.42555616092E+01	3.68761963844E+01	2.23029977050E+01	-4.80283224105E+01	2.51738189860E+01	-1.93268455846E+01	6.52532769804E+01
6.75500000000E+06	-1.25325981434E+01	-8.49478172062E+01	3.69112219241E+01	2.08517435375E+01	-4.80190608512E+01	2.43080702713E+01	-1.98585821085E+01	6.51331279597E+01
6.95000000000E+06	-1.28088454300E+01	-8.55920239370E+01	3.69446072401E+01	1.94628497562E+01	-4.80484972120E+01	2.26433969931E+01	-2.04439427194E+01	6.50053956836E+01
7.14500000000E+06	-1.30864191644E+01	-8.62131708898E+01	3.69700940210E+01	1.81106418945E+01	-4.79207704567E+01	2.10045157966E+01	-2.09719245405E+01	6.51698488048E+01
7.34000000000E+06	-1.33610844058E+01	-8.68123681849E+01	3.69955151752E+01	1.68322164031E+01	-4.79863853195E+01	1.98834219084E+01	-2.15353274673E+01	6.53825128408E+01
7.53500000000E+06	-1.36213441083E+01	-8.74191402236E+01	3.70228917760E+01	1.55614657035E+01	-4.79239470422E+01	1.83057064256E+01	-2.20548860551E+01	6.53831622618E+01
7.73000000000E+06	-1.38842089453E+01	-8.79769494827E+01	3.70431198117E+01	1.43559184391E+01	-4.79483202948E+01	1.70742496763E+01	-2.25669542754E+01	6.57243039015E+01
7.92500000000E+06	-1.41435009160E+01	-8.85083732984E+01	3.70648729667E+01	1.31976707302E+01	-4.78501728486E+01	1.59590684978E+01	-2.31185518118E+01	6.62908725618E+01
8.12000000000E+06	-1.43997048305E+01	-8.90221375479E+01	3.70836646127E+01	1.20474220379E+01	-4.77886819240E+01	1.50509966243E+01	-2.36328266927E+01	6.65315378592E+01
8.31500000000E+06	-1.46551106250E+01	-8.95346999683E+01	3.70959400458E+01	1.09666444077E+01	-4.77400501106E+01	1.41851319137E+01	-2.41287370854E+01	6.68062575030E+01
8.51000000000E+06	-1.48985347600E+01	-9.00565870784E+01	3.71145636716E+01	9.88800217522E+00	-4.77545803845E+01	1.27312819728E+01	-2.46452179825E+01	6.73937372400E+01
8.70500000000E+06	-1.51404286618E+01	-9.05814347991E+01	3.71284665787E+01	8.82544417309E+00	-4.78639200989E+01	1.21406279920E+01	-2.51360666627E+01	6.81726778156E+01
8.90000000000E+06	-1.53842037349E+01	-9.10529033013E+01	3.71424428686E+01	7.85741565354E+00	-4.77611886786E+01	1.06320800999E+01	-2.56300530905E+01	6.88682670018E+01
9.09500000000E+06	-1.56299294537E+01	-9.14931500541E+01	3.71572526248E+01	6.87238523035E+00	-4.78652098457E+01	1.00605765847E+01	-2.61233033600E+01	6.95131872760E+01
9.29000000000E+06	-1.58585115340E+01	-9.19829465649E+01	3.71671651872E+01	5.91032224882E+00	-4.77028494102E+01	8.98263664845E+00	-2.66057367213E+01	7.02020247207E+01
9.48500000000E+06	-1.61026456789E+01	-9.24381459428E+01	3.71789511632E+01	4.96760155404E+00	-4.77499172346E+01	8.67456220543E+00	-2.71247596304E+01	7.13360090595E+01
9.68000000000E+06	-1.63275696097E+01	-9.28666031377E+01	3.71915593334E+01	4.03318047536E+00	-4.76983856770E+01	6.81091509612E+00	-2.75782617905E+01	7.22434009251E+01
9.87500000000E+06	-1.65685267508E+01	-9.32829086565E+01	3.71969635682E+01	3.15709168632E+00	-4.76998202248E+01	6.40524299417E+00	-2.81067029603E+01	7.35264410046E+01
1.00700000000E+07	-1.67974626955E+01	-9.37383671010E+01	3.72085870785E+01	2.26428069760E+00	-4.77108635231E+01	5.27680512995E+00	-2.85534114116E+01	7.45133126045E+01
1.02650000000E+07	-1.70320925070E+01	-9.41243081811E+01	3.72153778247E+01	1.40554297677E+00	-4.76807405726E+01	4.73426251144E+00	-2.90023160649E+01	7.59273656695E+01
1.04600000000E+07	-1.72682584364E+01	-9.45578002702E+01	3.72223801118E+01	5.30622966722E-01	-4.77464999344E+01	3.54149188587E+00	-2.95292053203E+01	7.73671689671E+01
1.06550000000E+07	-1.74868890745E+01	-9.49504168050E+01	3.72324588427E+01	-3.05258812053E-01	-4.76694237872E+01	3.00241997761E+00	-3.00038267936E+01	7.87606044089E+01
1.08500000000E+07	-1.77114993367E+01	-9.53141241146E+01	3.72371479188E+01	-1.12000965707E+00	-4.76749852841E+01	2.16603743323E+00	-3.03630443044E+01	8.06397957696E+01
1.10450000000E+07	-1.79213759604E+01	-9.56900315412E+01	3.72456689454E+01	-1.92128468096E+00	-4.76436271754E+01	9.61790243204E-01	-3.08347995855E+01	8.25565081166E+01
1.12400000000E+07	-1.81492308964E+01	-9.60643924211E+01	3.72503020209E+01	-2.71643797748E+00	-4.76615363407E+01	7.61117087194E-01	-3.11873393539E+01	8.43685323211E+01
1.14350000000E+07	-1.83508499046E+01	-9.64962023052E+01	3.72600691273E+01	-3.50601698925E+00	-4.76697641129E+01	-7.10057897421E-01	-3.15923906271E+01	8.63734605835E+01
1.16300000000E+07	-1.85679340592E+01	-9.68392346421E+01	3.72647180299E+01	-4.29615852933E+00	-4.76460150667E+01	-1.45775613610E+00	-3.18923784879E+01	8.81254606181E+01
1.18250000000E+07	-1.87898931574E+01	-9.72018958418E+01	3.72692530501E+01	-5.08036315721E+00	-4.76247587653E+01	-1.81758791241E+00	-3.23234193199E+01	8.97536242959E+01
1.20200000000E+07	-1.89953241430E+01	-9.76649901850E+01	3.72731010973E+01	-5.84041232942E+00	-4.76419623033E+01	-2.83324441122E+00	-3.27419928741E+01	9.14055195617E+01
1.22150000000E+07	-1.92096707736E+01	-9.79509804181E+01	3.72727883244E+01	-6.57596337545E+00	-4.75908611844E+01	-3.04566808926E+00	-3.31214921649E+01	9.43586674015E+01
1.24100000000E+07	-1.94181079697E+01	-9.83449927153E+01	3.72808638241E+01	-7.30112468278E+00	-4.76086119594E+01	-4.35881238466E+00	-3.35012396536E+01	9.63372300668E+01
1.26050000000E+07	-1.96374918437E+01	-9.86403766562E+01	3.72821774925E+01	-8.00929388223E+00	-4.76182973526E+01	-5.02790836493E+00	-3.38467782803E+01	9.90441543321E+01
1.28000000000E+07	-1.98499630250E+01	-9.90088437692E+01	3.72854148347E+01	-8.69574373007E+00	-4.76240728141E+01	-5.61132347533E+00	-3.42234063669E+01	1.01023598996E+02
1.29950000000E+07	-2.00559840527E+01	-9.92779247000E+01	3.72908378301E+01	-9.37244755361E+00	-4.75918439201E+01	-6.52548840430E+00	-3.44870957114E+01	1.04003611500E+02
1.31900000000E+07	-2.02781137941E+01	-9.95585533946E+01	3.72954154918E+01	-1.00406796901E+01	-4.75921817106E+01	-7.18436530576E+00	-3.48245191323E+01	1.06904048065E+02
1.33850000000E+07	-2.04980572685E+01	-9.99083170818E+01	3.72974075393E+01	-1.07053413414E+01	-4.75789332530E+01	-7.79902035019E+00	-3.52239021040E+01	1.08993508083E+02
1.35800000000E+07	-2.07157686134E+01	-1.00127734263E+02	3.72992561687E+01	-1.13560459365E+01	-4.75711888650E+01	-8.46085641183E+00	-3.53835947590E+01	1.12353735230E+02
1.37750000000E+07	-2.09235311155E+01	-1.00475044653E+02	3.73096198422E+01	-1.19999402086E+01	-4.75665110479E+01	-8.88713545011E+00	-3.56481922335E+01	1.15437115811E+02
1.39700000000E+07	-2.11428480078E+01	-1.00786418233E+02	3.73071847893E+01	-1.26629930361E+01	-4.75280992809E+01	-1.00794630975E+01	-3.58655508200E+01	1.17638217007E+02
1.41650000000E+07	-2.13694127066E+01	-1.00969435313E+02	3.73112155342E+01	-1.33057042320E+01	-4.76144422799E+01	-1.04193233031E+01	-3.60503998406E+01	1.21283201412E+02
1.43600000000E+07	-2.15735958898E+01	-1.01190711797E+02	3.73157607724E+01	-1.39367809910E+01	-4.75916059122E+01	-1.13640867129E+01	-3.60627834918E+01	1.23358576274E+02
1.45550000000E+07	-2.17888099749E+01	-1.01470418341E+02	3.73162513018E+01	-1.45766818918E+01	-4.75489635624E+01	-1.17040781331E+01	-3.63138245413E+01	1.27536735440E+02
1.47500000000E+07	-2.20019589203E+01	-1.01736663725E+02	3.73235209942E+01	-1.52025128823E+01	-4.75613262990E+01	-1.24569551987E+01	-3.62912966584E+01	1.29617131664E+02
1.49450000000E+07	-2.22241966120E+01	-1.01946923952E+02	3.73223283775E+01	-1.58160418892E+01	-4.75521581583E+01	-1.27960934968E+01	-3.65087175176E+01	1.33783130267E+02
1.51400000000E+07	-2.24526524111E+01	-1.02154287303E+02	3.73249474742E+01	-1.64356795023E+01	-4.75805047195E+01	-1.38428316691E+01	-3.66230587413E+01	1.35394562555E+02
1.53350000000E+07	-2.26611262061E+01	-1.02343056886E+02	3.73311497744E+01	-1.70513704038E+01	-4.75522751706E+01	-1.38581759886E+01	-3.67441660821E+01	1.38141823413E+02
1.55300000000E+07	-2.28878086845E+01	-1.02608089221E+02	3.73308936527E+01	-1.76702570157E+01	-4.75157637207E+01	-1.46490056165E+01	-3.66977801365E+01	1.40605525654E+02
1.57250000000E+07	-2.31098528840E+01	-1.02750909907E+02	3.73314208701E+01	-1.82569246324E+01	-4.76344701910E+01	-1.50686498945E+01	-3.66562218304E+01	1.43404342402E+02
1.59200000000E+07	-2.33305396342E+01	-1.02943660203E+02	3.73328291793E+01	-1.88696084805E+01	-4.76315537167E+01	-1.56732188413E+01	-3.65590731914E+01	1.47057752609E+02
1.61150000000E+07	-2.35539412224E+01	-1.03146693719E+02	3.73347299418E+01	-1.94707923645E+01	-4.75453906663E+01	-1.62988645410E+01	-3.65787990612E+01	1.48848438718E+02
1.63100000000E+07	-2.37865087850E+01	-1.03296667771E+02	3.73363361785E+01	-2.00489628041E+01	-4.75959912491E+01	-1.67589434263E+01	-3.65587640060E+01	1.51903619567E+02
1.65050000000E+07	-2.40157956026E+01	-1.03573704180E+02	3.73379544641E+01	-2.06449231670E+01	-4.75505493970E+01	-1.77255545962E+01	-3.64630980333E+01	1.53751786170E+02
1.67000000000E+07	-2.42333055239E+01	-1.03590152951E+02	3.73434845430E+01	-2.12078513875E+01	-4.75360878822E+01	-1.81476399265E+01	-3.63856537353E+01	1.56239891815E+02
1.68950000000E+07	-2.44791739981E+01	-1.03692368076E+02	3.73447344229E+01	-2.17894038323E+01	-4.75936429204E+01	-1.92222367788E+01	-3.64231616281E+01	1.57560911602E+02
1.70900000000E+07	-2.47114560473E+01	-1.03825785224E+02	3.73451426569E+01	-2.23669134712E+01	-4.75309022502E+01	-1.95689061211E+01	-3.62245166478E+01	1.60549522105E+02
1.72850000000E+07	-2.49479978940E+01	-1.04021438623E+02	3.73452637776E+01	-2.29247718436E+01	-4.75220785206E+01	-2.03880442972E+01	-3.61632057146E+01	1.61385097326E+02
1.74800000000E+07	-2.51818129206E+01	-1.04086226650E+02	3.73460134721E+01	-2.35070808567E+01	-4.75952928425E+01	-2.05834803674E+01	-3.60180654833E+01	1.64943147616E+02
1.76750000000E+07	-2.54330577663E+01	-1.04114254608E+02	3.73496804244E+01	-2.40614972161E+01	-4.76539582299E+01	-2.08848051364E+01	-3.60230150752E+01	1.65808640593E+02
1.78700000000E+07	-2.56469780278E+01	-1.04171480125E+02	3.73511211812E+01	-2.46371520023E+01	-4.75917475848E+01	-2.17640587068E+01	-3.58740110338E+01	1.67472986747E+02
1.80650000000E+07	-2.59085548753E+01	-1.04367667464E+02	3.73497047465E+01	-2.51888224588E+01	-4.75873943986E+01	-2.24067417651E+01	-3.58597729755E+01	1.68792752403E+02
1.82600000000E+07	-2.61457605855E+01	-1.04320189839E+02	3.73525323700E+01	-2.57551935316E+01	-4.75733697115E+01	-2.28404467970E+01	-3.56839600925E+01	1.71200917653E+02
1.84550000000E+07	-2.63975909397E+01	-1.04307845873E+02	3.73520914383E+01	-2.62704550035E+01	-4.75821498489E+01	-2.32852225678E+01	-3.55229053052E+01	1.72557869406E+02
1.86500000000E+07	-2.66439503552E+01	-1.04186785300E+02	3.73527523211E+01	-2.68383969633E+01	-4.75390965409E+01	-2.34233319941E+01	-3.54107009073E+01	1.73299085111E+02
1.88450000000E+07	-2.69240238450E+01	-1.04197859043E+02	3.73572706849E+01	-2.73726795386E+01	-4.76214416604E+01	-2.43545990961E+01	-3.52991432140E+01	1.75251148339E+02
1.90400000000E+07	-2.71776730304E+01	-1.04358318596E+02	3.73557683590E+01	-2.79283938704E+01	-4.75565811853E+01	-2.49706875958E+01	-3.51955808816E+01	1.77024392020E+02
1.92350000000E+07	-2.74407468679E+01	-1.04259176762E+02	3.73531798971E+01	-2.84696849129E+01	-4.75465416620E+01	-2.53178854394E+01	-3.51326145973E+01	1.77916402167E+02
1.94300000000E+07	-2.76907806266E+01	-1.04127172952E+02	3.73582365060E+01	-2.89847472147E+01	-4.75863225435E+01	-2.57234503721E+01	-3.49682426903E+01	1.79699645653E+02
1.96250000000E+07	-2.79592291292E+01	-1.04175932470E+02	3.73582736962E+01	-2.95357942376E+01	-4.75698222272E+01	-2.63322742613E+01	-3.49903488929E+01	-1.79501115340E+02
1.98200000000E+07	-2.82252169923E+01	-1.03980579134E+02	3.73563883853E+01	-3.00667726650E+01	-4.75746037000E+01	-2.71447594066E+01	-3.47785688818E+01	-1.78164871594E+02
2.00150000000E+07	-2.85030259841E+01	-1.03910625063E+02	3.73598076345E+01	-3.06039934916E+01	-4.75610676128E+01	-2.72962350418E+01	-3.47004089150E+01	-1.76994263084E+02
2.02100000000E+07	-2.87975111226E+01	-1.03528520280E+02	3.73599155793E+01	-3.11337261333E+01	-4.75512280101E+01	-2.81218494305E+01	-3.45436280548E+01	-1.76408632938E+02
2.04050000000E+07	-2.90764536700E+01	-1.03377362409E+02	3.73601127502E+01	-3.16747345004E+01	-4.76251399714E+01	-2.86662175984E+01	-3.44417214798E+01	-1.75202816562E+02
2.06000000000E+07	-2.93413601052E+01	-1.03214729223E+02	3.73610187571E+01	-3.21877822804E+01	-4.75989742105E+01	-2.89048790731E+01	-3.43322552674E+01	-1.73792307720E+02
2.07950000000E+07	-2.96590436059E+01	-1.02875634891E+02	3.73606189264E+01	-3.27195410753E+01	-4.75867268003E+01	-2.94240170785E+01	-3.42829301644E+01	-1.73592947503E+02
2.09900000000E+07	-2.99413969645E+01	-1.02473568980E+02	3.73621562751E+01	-3.32405847631E+01	-4.75373999010E+01	-3.02103085289E+01	-3.41634460139E+01	-1.72615753470E+02
2.11850000000E+07	-3.02579249729E+01	-1.01968119824E+02	3.73628526752E+01	-3.37668963270E+01	-4.75038291989E+01	-3.06636144097E+01	-3.40866846529E+01	-1.71639483665E+02
2.13800000000E+07	-3.05881968507E+01	-1.01806835595E+02	3.73631874108E+01	-3.42750267906E+01	-4.75378583002E+01	-3.12823231998E+01	-3.39525533167E+01	-1.71006242098E+02
2.15750000000E+07	-3.08880510536E+01	-1.01519307379E+02	3.73615473480E+01	-3.48081351065E+01	-4.75450479170E+01	-3.11924918696E+01	-3.37676266047E+01	-1.69931874042E+02
2.17700000000E+07	-3.11970349713E+01	-1.00851556638E+02	3.73600775902E+01	-3.53107002620E+01	-4.75368215382E+01	-3.20007608570E+01	-3.36951915922E+01	-1.68708765381E+02
2.19650000000E+07	-3.15158419680E+01	-1.00312763305E+02	3.73661774200E+01	-3.58207587014E+01	-4.74979931655E+01	-3.21628386085E+01	-3.35854881446E+01	-1.67683671232E+02
2.21600000000E+07	-3.18110959763E+01	-9.96558030256E+01	3.73660804889E+01	-3.63186579655E+01	-4.75422817415E+01	-3.32082910992E+01	-3.35613060320E+01	-1.67814428331E+02
2.23550000000E+07	-3.21758626241E+01	-9.90533155754E+01	3.73634794410E+01	-3.68314650064E+01	-4.75164763656E+01	-3.30888085250E+01	-3.34805617888E+01	-1.65972169278E+02
2.25500000000E+07	-3.25055778113E+01	-9.84983970940E+01	3.73676814698E+01	-3.73453612282E+01	-4.75248458938E+01	-3.39363603923E+01	-3.33248357451E+01	-1.65211568273E+02
2.27450000000E+07	-3.28181989421E+01	-9.74626740466E+01	3.73628840098E+01	-3.78510963479E+01	-4.75377755808E+01	-3.42600363940E+01	-3.32555455711E+01	-1.64762925205E+02
2.29400000000E+07	-3.32124113809E+01	-9.65428600076E+01	3.73621728639E+01	-3.83453245399E+01	-4.76133915984E+01	-3.47302234948E+01	-3.32406154251E+01	-1.63694594983E+02
2.31350000000E+07	-3.35037894123E+01	-9.57768267205E+01	3.73662221586E+01	-3.88678693949E+01	-4.75650979534E+01	-3.46127530442E+01	-3.30632177025E+01	-1.63410643465E+02
2.33300000000E+07	-3.38906063360E+01	-9.45947660979E+01	3.73644276841E+01	-3.93818023838E+01	-4.75423529945E+01	-3.57897615622E+01	-3.30033993829E+01	-1.62366848044E+02
2.35250000000E+07	-3.42810870052E+01	-9.33060710369E+01	3.73653668613E+01	-3.98847443049E+01	-4.75547263111E+01	-3.61167564086E+01	-3.29453109308E+01	-1.62004045043E+02
2.37200000000E+07	-3.46182777382E+01	-9.21426178641E+01	3.73635346584E+01	-4.03879675796E+01	-4.75203408030E+01	-3.65486641991E+01	-3.28344156294E+01	-1.61564908302E+02
2.39150000000E+07	-3.49912123012E+01	-9.08992439141E+01	3.73654361207E+01	-4.08715324200E+01	-4.75342743170E+01	-3.69738943083E+01	-3.27118936799E+01	-1.60799327358E+02
2.41100000000E+07	-3.53929796073E+01	-8.89699177494E+01	3.73647027983E+01	-4.13571276004E+01	-4.75358368720E+01	-3.76874055141E+01	-3.26757010722E+01	-1.60193401392E+02
2.43050000000E+07	-3.57820362073E+01	-8.75176967839E+01	3.73649780895E+01	-4.18331121959E+01	-4.75902844317E+01	-3.80676792032E+01	-3.25979761705E+01	-1.59997124731E+02
2.45000000000E+07	-3.61384610704E+01	-8.51411753288E+01	3.73638660599E+01	-4.23533931689E+01	-4.75513758705E+01	-3.87999946403E+01	-3.24592292051E+01	-1.59464263575E+02
2.46950000000E+07	-3.65214573974E+01	-8.32701514150E+01	3.73661359997E+01	-4.28449256917E+01	-4.75411342736E+01	-3.93783983239E+01	-3.24766549209E+01	-1.58746758059E+02
2.48900000000E+07	-3.68384693631E+01	-8.11431809343E+01	3.73629973833E+01	-4.33420373628E+01	-4.75856135950E+01	-3.99983429393E+01	-3.23410860077E+01	-1.58335730143E+02
2.50850000000E+07	-3.71960133436E+01	-7.85327859462E+01	3.73642419402E+01	-4.38038664395E+01	-4.75524899190E+01	-3.97073826991E+01	-3.22237777046E+01	-1.57332967579E+02
2.52800000000E+07	-3.75536422808E+01	-7.62268843879E+01	3.73649319222E+01	-4.43147012928E+01	-4.75995486749E+01	-4.04571823277E+01	-3.22153574376E+01	-1.56990655102E+02
2.54750000000E+07	-3.78596231833E+01	-7.31196846760E+01	3.73657403469E+01	-4.48070229144E+01	-4.75656021308E+01	-4.10207688244E+01	-3.20585433715E+01	-1.56561552959E+02
2.56700000000E+07	-3.81599435941E+01	-6.97084871146E+01	3.73624565796E+01	-4.52700285980E+01	-4.75518472712E+01	-4.15968603092E+01	-3.19760785986E+01	-1.56054529259E+02
2.58650000000E+07	-3.83673437223E+01	-6.70302152820E+01	3.73653769204E+01	-4.57446334889E+01	-4.75626206245E+01	-4.16342011691E+01	-3.19131742353E+01	-1.55919931546E+02
2.60600000000E+07	-3.86568595335E+01	-6.34669011122E+01	3.73621644947E+01	-4.62410104865E+01	-4.75613105338E+01	-4.23656607687E+01	-3.17972383775E+01	-1.54749696619E+02
2.62550000000E+07	-3.88627112553E+01	-6.02506687384E+01	3.73643432514E+01	-4.67424931420E+01	-4.76036839259E+01	-4.28905307606E+01	-3.17321097952E+01	-1.54757001904E+02
2.64500000000E+07	-3.90363676565E+01	-5.59283129865E+01	3.73682289070E+01	-4.72125981765E+01	-4.75683037992E+01	-4.34056849141E+01	-3.16352389556E+01	-1.54140136268E+02
2.66450000000E+07	-3.91158277065E+01	-5.24109800266E+01	3.73636758450E+01	-4.77116515948E+01	-4.75919002218E+01	-4.38652041641E+01	-3.15850117041E+01	-1.54262929376E+02
2.68400000000E+07	-3.93110349722E+01	-4.87676261569E+01	3.73636779916E+01	-4.81767779213E+01	-4.74849513080E+01	-4.42620173398E+01	-3.14695752983E+01	-1.53185482972E+02
2.70350000000E+07	-3.93165744696E+01	-4.52898806107E+01	3.73627314332E+01	-4.86729573393E+01	-4.75935086427E+01	-4.44414262097E+01	-3.13873265021E+01	-1.52884161845E+02
2.72300000000E+07	-3.93601835930E+01	-4.10711194029E+01	3.73636601483E+01	-4.91292374037E+01	-4.75560022901E+01	-4.49851167709E+01	-3.13173128527E+01	-1.52529374225E+02
2.74250000000E+07	-3.91939854579E+01	-3.74070521791E+01	3.73660517382E+01	-4.96263407115E+01	-4.75842640172E+01	-4.57028473878E+01	-3.12421645541E+01	-1.52185892552E+02
2.76200000000E+07	-3.90786637482E+01	-3.35591184623E+01	3.73632403941E+01	-5.01024418886E+01	-4.75705849498E+01	-4.58949905798E+01	-3.12235356168E+01	-1.51801954438E+02
