# Hz S DB R 50
! CMT, M5045, 22160017, 22.3.3/2
! Date: 10/8/2022 18:13:26
! Data: Format (Calibration Info)
! Freq	S11:dB/Ang(F2)	S21:dB/Ang(F2)	S12:dB/Ang(F2)	S22:dB/Ang(F2)
5.00000000000E+06	-1.00614731745E+01	-9.37452719982E+01	3.63896919124E+01	-1.50337193356E+02	-4.85143203420E+01	-1.47465811432E+02	-1.40082458363E+01	6.46219398917E+01
5.19500000000E+06	-1.04003824908E+01	-9.53163528424E+01	3.64595176288E+01	-1.52602288966E+02	-4.84409486622E+01	-1.49813911080E+02	-1.45549099287E+01	6.32204646977E+01
5.39000000000E+06	-1.07286442497E+01	-9.68968825697E+01	3.65223993592E+01	-1.54787695375E+02	-4.83736599990E+01	-1.51989392270E+02	-1.50909615668E+01	6.19070815236E+01
5.58500000000E+06	-1.10369822934E+01	-9.83470646649E+01	3.65841681366E+01	-1.56833235939E+02	-4.83047409482E+01	-1.54103880604E+02	-1.56129261128E+01	6.06758870724E+01
5.78000000000E+06	-1.13488594167E+01	-9.97767108000E+01	3.66304914440E+01	-1.58791385395E+02	-4.82485814539E+01	-1.56019331304E+02	-1.61254671774E+01	5.95156557272E+01
5.97500000000E+06	-1.16371214715E+01	-1.01170473807E+02	3.66815399162E+01	-1.60697896299E+02	-4.81964697929E+01	-1.57893904541E+02	-1.66259071795E+01	5.84160995782E+01
6.17000000000E+06	-1.19283040338E+01	-1.02445876970E+02	3.67171361015E+01	-1.62450223011E+02	-4.81552962457E+01	-1.59740445413E+02	-1.71179390195E+01	5.73635776679E+01
6.36500000000E+06	-1.22026252504E+01	-1.03774991985E+02	3.67572666698E+01	-1.64205608575E+02	-4.81106215248E+01	-1.61484242269E+02	-1.76002834550E+01	5.63556023330E+01
6.56000000000E+06	-1.24725642113E+01	-1.05045517985E+02	3.67860493445E+01	-1.65868452393E+02	-4.80633271842E+01	-1.63128949053E+02	-1.80750725229E+01	5.54156122222E+01
6.75500000000E+06	-1.27318793662E+01	-1.06304489528E+02	3.68183956621E+01	-1.67471286826E+02	-4.80319775146E+01	-1.64754076542E+02	-1.85404896728E+01	5.44613119506E+01
6.95000000000E+06	-1.29937556712E+01	-1.07522481819E+02	3.68412569954E+01	-1.69006109447E+02	-4.79989323365E+01	-1.66293660290E+02	-1.90017141448E+01	5.35754508479E+01
7.14500000000E+06	-1.32374882271E+01	-1.08725734118E+02	3.68720031391E+01	-1.70518504116E+02	-4.79702879882E+01	-1.67791671101E+02	-1.94584395303E+01	5.26965947478E+01
7.34000000000E+06	-1.34812439946E+01	-1.09871964660E+02	3.68908249402E+01	-1.71939748523E+02	-4.79437774555E+01	-1.69249224095E+02	-1.99089727490E+01	5.18385291113E+01
7.53500000000E+06	-1.37176262018E+01	-1.11010444018E+02	3.69137859124E+01	-1.73352138637E+02	-4.79113435137E+01	-1.70635278727E+02	-2.03510561969E+01	5.10322861634E+01
7.73000000000E+06	-1.39443389063E+01	-1.12173599801E+02	3.69323017590E+01	-1.74732836436E+02	-4.78864491455E+01	-1.72002405095E+02	-2.07901564899E+01	5.02278515879E+01
7.92500000000E+06	-1.41732221718E+01	-1.13275330847E+02	3.69476087371E+01	-1.76048520393E+02	-4.78608390642E+01	-1.73315932346E+02	-2.12255500229E+01	4.94127163815E+01
8.12000000000E+06	-1.43925078824E+01	-1.14372640672E+02	3.69620828658E+01	-1.77345567238E+02	-4.78451664204E+01	-1.74605348726E+02	-2.16608014918E+01	4.86589969039E+01
8.31500000000E+06	-1.46091418536E+01	-1.15446967999E+02	3.69772833987E+01	-1.78587107697E+02	-4.78221406172E+01	-1.75878940035E+02	-2.20896109144E+01	4.79075587165E+01
8.51000000000E+06	-1.48281227517E+01	-1.16541730592E+02	3.69892528193E+01	-1.79806474977E+02	-4.78026782707E+01	-1.77101360068E+02	-2.25239394726E+01	4.71321394340E+01
8.70500000000E+06	-1.50359599308E+01	-1.17609786053E+02	3.70017770509E+01	1.78990366269E+02	-4.77872380074E+01	-1.78283655321E+02	-2.29549054876E+01	4.63674741395E+01
8.90000000000E+06	-1.52329735758E+01	-1.18707359213E+02	3.70140464569E+01	1.77824777812E+02	-4.77699771390E+01	-1.79445226892E+02	-2.33820833362E+01	4.56072767531E+01
9.09500000000E+06	-1.54374840217E+01	-1.19710303081E+02	3.70197724781E+01	1.76677848141E+02	-4.77583671495E+01	1.79424119223E+02	-2.38057837417E+01	4.48687230825E+01
9.29000000000E+06	-1.56336169777E+01	-1.20799558985E+02	3.70318901837E+01	1.75541009110E+02	-4.77373035144E+01	1.78270948746E+02	-2.42368999000E+01	4.41611356149E+01
9.48500000000E+06	-1.58310551278E+01	-1.21810111570E+02	3.70399501741E+01	1.74431150119E+02	-4.77301345276E+01	1.77143087818E+02	-2.46625762783E+01	4.34030602811E+01
9.68000000000E+06	-1.60175186907E+01	-1.22864223973E+02	3.70447787270E+01	1.73356284624E+02	-4.77170558998E+01	1.76087422592E+02	-2.50966715856E+01	4.26841327538E+01
9.87500000000E+06	-1.62065567319E+01	-1.23868654733E+02	3.70535740692E+01	1.72299247598E+02	-4.77024258484E+01	1.75000028838E+02	-2.55164115539E+01	4.19357774141E+01
1.00700000000E+07	-1.63918684080E+01	-1.24912627451E+02	3.70558220972E+01	1.71264276393E+02	-4.76951283697E+01	1.73964224908E+02	-2.59617053808E+01	4.10758383634E+01
1.02650000000E+07	-1.65717012018E+01	-1.25930689693E+02	3.70653542159E+01	1.70222546814E+02	-4.76824464868E+01	1.72912019393E+02	-2.64004327275E+01	4.03952786543E+01
1.04600000000E+07	-1.67499815526E+01	-1.26967614971E+02	3.70691319288E+01	1.69222524133E+02	-4.76753601642E+01	1.71879391451E+02	-2.68356295740E+01	3.96129992701E+01
1.06550000000E+07	-1.69184728995E+01	-1.27935105032E+02	3.70743643768E+01	1.68244370293E+02	-4.76671911864E+01	1.70820687324E+02	-2.72748671032E+01	3.87641496556E+01
1.08500000000E+07	-1.71037719526E+01	-1.28987536434E+02	3.70777789496E+01	1.67253283704E+02	-4.76655177230E+01	1.69874365915E+02	-2.77184390662E+01	3.79007728671E+01
1.10450000000E+07	-1.72712737107E+01	-1.30077519492E+02	3.70808763822E+01	1.66282949806E+02	-4.76526929873E+01	1.68873205585E+02	-2.81663014514E+01	3.69699046072E+01
1.12400000000E+07	-1.74392085214E+01	-1.31079630624E+02	3.70892373608E+01	1.65315797976E+02	-4.76492630156E+01	1.67906341006E+02	-2.86337499957E+01	3.60414996437E+01
1.14350000000E+07	-1.76144609341E+01	-1.32063816409E+02	3.70952235612E+01	1.64348101631E+02	-4.76341831473E+01	1.66970558116E+02	-2.91114835347E+01	3.51064272119E+01
1.16300000000E+07	-1.77798813907E+01	-1.33101204261E+02	3.70986642534E+01	1.63411523585E+02	-4.76277739280E+01	1.66010897815E+02	-2.95979165979E+01	3.40441652951E+01
1.18250000000E+07	-1.79406258082E+01	-1.34136470890E+02	3.71023619168E+01	1.62472598812E+02	-4.76245795985E+01	1.65060339941E+02	-3.00874703052E+01	3.30568246359E+01
1.20200000000E+07	-1.81051912488E+01	-1.35095971638E+02	3.71028346160E+01	1.61555706733E+02	-4.76169860818E+01	1.64089665676E+02	-3.05907374949E+01	3.19555882484E+01
1.22150000000E+07	-1.82742120563E+01	-1.36172153169E+02	3.71065316547E+01	1.60607759520E+02	-4.76118042810E+01	1.63164619923E+02	-3.11079924965E+01	3.08290919818E+01
1.24100000000E+07	-1.84315233299E+01	-1.37170139672E+02	3.71057163620E+01	1.59694443304E+02	-4.76006786764E+01	1.62274305853E+02	-3.16404294692E+01	2.97212723016E+01
1.26050000000E+07	-1.85879460679E+01	-1.38134761207E+02	3.71067071565E+01	1.58813313017E+02	-4.76023267448E+01	1.61333436316E+02	-3.21889058704E+01	2.84346394310E+01
1.28000000000E+07	-1.87437503295E+01	-1.39148284732E+02	3.71085161653E+01	1.57968275965E+02	-4.75953524436E+01	1.60453016867E+02	-3.27472986600E+01	2.71489870855E+01
1.29950000000E+07	-1.89067551290E+01	-1.40114885049E+02	3.71109244404E+01	1.57115948334E+02	-4.75903338313E+01	1.59577636308E+02	-3.33349990106E+01	2.58169406594E+01
1.31900000000E+07	-1.90521230028E+01	-1.41046631945E+02	3.71127941951E+01	1.56268093132E+02	-4.75861614093E+01	1.58712636055E+02	-3.39410528319E+01	2.42271516048E+01
1.33850000000E+07	-1.92102151337E+01	-1.42043402290E+02	3.71154605092E+01	1.55446268095E+02	-4.75759874387E+01	1.57869034584E+02	-3.45710508548E+01	2.27264311078E+01
1.35800000000E+07	-1.93603005578E+01	-1.42896007327E+02	3.71145327545E+01	1.54610226905E+02	-4.75735498844E+01	1.57004543872E+02	-3.52196044855E+01	2.09887980925E+01
1.37750000000E+07	-1.95131931153E+01	-1.43894232562E+02	3.71176395199E+01	1.53762830511E+02	-4.75667070178E+01	1.56160308938E+02	-3.58904929308E+01	1.90799812562E+01
1.39700000000E+07	-1.96582184665E+01	-1.44849196955E+02	3.71174122762E+01	1.52949759717E+02	-4.75688261274E+01	1.55311919352E+02	-3.65935156167E+01	1.70277000993E+01
1.41650000000E+07	-1.98024612031E+01	-1.45811153610E+02	3.71198131727E+01	1.52130352155E+02	-4.75613605433E+01	1.54525144750E+02	-3.73499216246E+01	1.47060435829E+01
1.43600000000E+07	-1.99497178268E+01	-1.46695070400E+02	3.71194870923E+01	1.51323154839E+02	-4.75545618935E+01	1.53698787461E+02	-3.81080293478E+01	1.21572953165E+01
1.45550000000E+07	-2.01006654068E+01	-1.47614184537E+02	3.71213713706E+01	1.50490971805E+02	-4.75540085180E+01	1.52885585707E+02	-3.89511156063E+01	9.22736820807E+00
1.47500000000E+07	-2.02459426930E+01	-1.48528178451E+02	3.71195936294E+01	1.49726403144E+02	-4.75467000282E+01	1.52098597542E+02	-3.97837988529E+01	5.77376841385E+00
1.49450000000E+07	-2.03836284654E+01	-1.49415868480E+02	3.71242537083E+01	1.48922543805E+02	-4.75433921464E+01	1.51339140299E+02	-4.06760623693E+01	1.63345653089E+00
1.51400000000E+07	-2.05293218191E+01	-1.50299157019E+02	3.71233579292E+01	1.48138658637E+02	-4.75430793300E+01	1.50545758821E+02	-4.15878976083E+01	-2.97113377726E+00
1.53350000000E+07	-2.06670782104E+01	-1.51220710493E+02	3.71236976966E+01	1.47359168109E+02	-4.75366417294E+01	1.49749105228E+02	-4.25082285331E+01	-9.04422139411E+00
1.55300000000E+07	-2.08171457148E+01	-1.52089623542E+02	3.71243874132E+01	1.46561837614E+02	-4.75358658028E+01	1.48990287649E+02	-4.34253936649E+01	-1.56555514868E+01
1.57250000000E+07	-2.09525893683E+01	-1.53097314321E+02	3.71208273244E+01	1.45782669106E+02	-4.75259767308E+01	1.48171864398E+02	-4.43030264887E+01	-2.36372059934E+01
1.59200000000E+07	-2.10894714642E+01	-1.53912624955E+02	3.71259158263E+01	1.44994306316E+02	-4.75197656726E+01	1.47438935959E+02	-4.50398654703E+01	-3.32759919827E+01
1.61150000000E+07	-2.12267124576E+01	-1.54839880962E+02	3.71202215819E+01	1.44252717011E+02	-4.75219597407E+01	1.46660394631E+02	-4.55839964577E+01	-4.39197183289E+01
1.63100000000E+07	-2.13636768225E+01	-1.55659027580E+02	3.71239728251E+01	1.43479732515E+02	-4.75209410197E+01	1.45927628017E+02	-4.57472994130E+01	-5.49775792933E+01
1.65050000000E+07	-2.14891613615E+01	-1.56578509356E+02	3.71255697411E+01	1.42738116656E+02	-4.75122295046E+01	1.45166961719E+02	-4.56330294506E+01	-6.67824105565E+01
1.67000000000E+07	-2.16290088118E+01	-1.57429120899E+02	3.71200555405E+01	1.41988814231E+02	-4.75058672587E+01	1.44419828135E+02	-4.52562991660E+01	-7.74848675053E+01
1.68950000000E+07	-2.17616244499E+01	-1.58408673001E+02	3.71234241751E+01	1.41202667305E+02	-4.75076275390E+01	1.43677282002E+02	-4.46906054523E+01	-8.69063256085E+01
1.70900000000E+07	-2.19002607953E+01	-1.59228409592E+02	3.71209351066E+01	1.40445663267E+02	-4.75034322170E+01	1.42943105531E+02	-4.39754997033E+01	-9.47962600581E+01
1.72850000000E+07	-2.20333755175E+01	-1.60150200758E+02	3.71242083106E+01	1.39709508851E+02	-4.75029075667E+01	1.42206673294E+02	-4.32335511636E+01	-1.01569852734E+02
1.74800000000E+07	-2.21719087870E+01	-1.60884293035E+02	3.71212289904E+01	1.38985587058E+02	-4.74975251640E+01	1.41493019056E+02	-4.24791432220E+01	-1.06954010272E+02
1.76750000000E+07	-2.22973817948E+01	-1.61829271409E+02	3.71214444074E+01	1.38241823695E+02	-4.74945807089E+01	1.40744283283E+02	-4.17563255135E+01	-1.11620533717E+02
1.78700000000E+07	-2.24241824125E+01	-1.62648136343E+02	3.71229745627E+01	1.37492437447E+02	-4.74904252315E+01	1.40032950203E+02	-4.10613713895E+01	-1.15537869212E+02
1.80650000000E+07	-2.25531714883E+01	-1.63457300492E+02	3.71209112051E+01	1.36776751517E+02	-4.74837630582E+01	1.39320755908E+02	-4.03916282027E+01	-1.18975542320E+02
1.82600000000E+07	-2.26808581561E+01	-1.64328623432E+02	3.71236682217E+01	1.36028051259E+02	-4.74808956411E+01	1.38575872887E+02	-3.97632230319E+01	-1.21896902233E+02
1.84550000000E+07	-2.28224738099E+01	-1.65151179093E+02	3.71201732252E+01	1.35320430171E+02	-4.74763841882E+01	1.37866025393E+02	-3.91648887305E+01	-1.24409965184E+02
1.86500000000E+07	-2.29349965602E+01	-1.66016791295E+02	3.71175522392E+01	1.34599252243E+02	-4.74745569827E+01	1.37183060812E+02	-3.86397354001E+01	-1.26646026069E+02
1.88450000000E+07	-2.30719788271E+01	-1.66829897817E+02	3.71172256957E+01	1.33879242057E+02	-4.74735129017E+01	1.36470574368E+02	-3.80889224227E+01	-1.28781573039E+02
1.90400000000E+07	-2.31921566597E+01	-1.67599629332E+02	3.71153931254E+01	1.33156789611E+02	-4.74699671961E+01	1.35755317261E+02	-3.76250042605E+01	-1.30522949692E+02
1.92350000000E+07	-2.33431476710E+01	-1.68496815234E+02	3.71151940763E+01	1.32436748922E+02	-4.74627940095E+01	1.35040914128E+02	-3.71492492202E+01	-1.32372051085E+02
1.94300000000E+07	-2.34358132961E+01	-1.69261666082E+02	3.71165809712E+01	1.31703113744E+02	-4.74628452101E+01	1.34372207522E+02	-3.67224097704E+01	-1.33670898268E+02
1.96250000000E+07	-2.35730557331E+01	-1.70158796193E+02	3.71145066558E+01	1.30992506485E+02	-4.74560666961E+01	1.33661792501E+02	-3.62835117275E+01	-1.35126882305E+02
1.98200000000E+07	-2.37218179384E+01	-1.70902569090E+02	3.71106714667E+01	1.30312968016E+02	-4.74542744796E+01	1.32970770310E+02	-3.59179739275E+01	-1.36469871310E+02
2.00150000000E+07	-2.38317882321E+01	-1.71670637216E+02	3.71136522124E+01	1.29626869785E+02	-4.74507570840E+01	1.32281324354E+02	-3.55399154054E+01	-1.37764735594E+02
2.02100000000E+07	-2.39484530264E+01	-1.72672722430E+02	3.71094523016E+01	1.28886460475E+02	-4.74498434034E+01	1.31585227227E+02	-3.51869198648E+01	-1.38849574198E+02
2.04050000000E+07	-2.40651652344E+01	-1.73417344491E+02	3.71127788749E+01	1.28171228631E+02	-4.74461924656E+01	1.30911453906E+02	-3.48607672299E+01	-1.40030108250E+02
2.06000000000E+07	-2.42035892288E+01	-1.74190832052E+02	3.71086948037E+01	1.27495644740E+02	-4.74415013274E+01	1.30195794737E+02	-3.45283077771E+01	-1.41045591616E+02
2.07950000000E+07	-2.43194382113E+01	-1.75168173832E+02	3.71058092231E+01	1.26784404599E+02	-4.74412026328E+01	1.29522412941E+02	-3.42287071812E+01	-1.42016394412E+02
2.09900000000E+07	-2.44329935130E+01	-1.75928772850E+02	3.71090678008E+01	1.26081174105E+02	-4.74358922814E+01	1.28845606806E+02	-3.39352317327E+01	-1.42984719240E+02
2.11850000000E+07	-2.45748317802E+01	-1.76682699383E+02	3.71062164977E+01	1.25371642918E+02	-4.74382273944E+01	1.28169833995E+02	-3.36561277855E+01	-1.43873631069E+02
2.13800000000E+07	-2.46924218473E+01	-1.77485997460E+02	3.71062229120E+01	1.24692106856E+02	-4.74290633962E+01	1.27479401540E+02	-3.33901261669E+01	-1.44838942261E+02
2.15750000000E+07	-2.48097707850E+01	-1.78373908161E+02	3.71062388923E+01	1.23968049756E+02	-4.74280578931E+01	1.26830449847E+02	-3.31371377536E+01	-1.45667397236E+02
2.17700000000E+07	-2.49379040816E+01	-1.79023116608E+02	3.71018495372E+01	1.23308061085E+02	-4.74250910169E+01	1.26174844019E+02	-3.28915147530E+01	-1.46489510659E+02
2.19650000000E+07	-2.50614626105E+01	-1.79860568446E+02	3.71005904708E+01	1.22599033920E+02	-4.74206771671E+01	1.25467438850E+02	-3.26646028920E+01	-1.47257967804E+02
2.21600000000E+07	-2.51784957541E+01	1.79360185897E+02	3.71004846842E+01	1.21944143336E+02	-4.74142951857E+01	1.24819591643E+02	-3.24410792832E+01	-1.48073314306E+02
2.23550000000E+07	-2.53155798977E+01	1.78492929426E+02	3.70957894279E+01	1.21245862881E+02	-4.74111465786E+01	1.24145445923E+02	-3.22180391337E+01	-1.48837231857E+02
2.25500000000E+07	-2.54283775909E+01	1.77760299978E+02	3.70978302146E+01	1.20533869176E+02	-4.74072524506E+01	1.23500165353E+02	-3.20033921517E+01	-1.49618115099E+02
2.27450000000E+07	-2.55553127323E+01	1.76915009887E+02	3.70939727648E+01	1.19870066566E+02	-4.74080783592E+01	1.22821776167E+02	-3.17984075503E+01	-1.50303373187E+02
2.29400000000E+07	-2.56854451534E+01	1.76245180612E+02	3.70916847190E+01	1.19179862127E+02	-4.74062691550E+01	1.22151131573E+02	-3.16039832557E+01	-1.51011146964E+02
2.31350000000E+07	-2.57948641830E+01	1.75345218027E+02	3.70887252282E+01	1.18507810530E+02	-4.73995354763E+01	1.21495517108E+02	-3.14184787428E+01	-1.51716532338E+02
2.33300000000E+07	-2.59182460280E+01	1.74663662339E+02	3.70905187901E+01	1.17848892318E+02	-4.74000757970E+01	1.20845687993E+02	-3.12385002426E+01	-1.52415769047E+02
2.35250000000E+07	-2.60125213389E+01	1.73786362770E+02	3.70898483102E+01	1.17174970078E+02	-4.73942435690E+01	1.20179233730E+02	-3.10573403726E+01	-1.53033762628E+02
2.37200000000E+07	-2.61499584814E+01	1.73090475537E+02	3.70842408788E+01	1.16490167824E+02	-4.73948023090E+01	1.19517929557E+02	-3.08859819117E+01	-1.53695568883E+02
2.39150000000E+07	-2.62764660469E+01	1.72383993846E+02	3.70820127787E+01	1.15798460438E+02	-4.73925842021E+01	1.18907670544E+02	-3.07158192561E+01	-1.54344156434E+02
2.41100000000E+07	-2.64034942075E+01	1.71491948487E+02	3.70809238940E+01	1.15123778089E+02	-4.73863973157E+01	1.18209949663E+02	-3.05536660650E+01	-1.55024257843E+02
2.43050000000E+07	-2.65167297875E+01	1.70736339109E+02	3.70781437841E+01	1.14448351678E+02	-4.73824863515E+01	1.17583662616E+02	-3.04003932967E+01	-1.55612039674E+02
2.45000000000E+07	-2.66296223571E+01	1.69848874182E+02	3.70784179745E+01	1.13778101849E+02	-4.73814357448E+01	1.16928104572E+02	-3.02420970315E+01	-1.56253944395E+02
2.46950000000E+07	-2.67644651130E+01	1.69285979820E+02	3.70775212431E+01	1.13133450648E+02	-4.73766769077E+01	1.16265441714E+02	-3.00913445541E+01	-1.56868353533E+02
2.48900000000E+07	-2.68865620372E+01	1.68371669316E+02	3.70742327851E+01	1.12444948929E+02	-4.73770557983E+01	1.15629730690E+02	-2.99454339420E+01	-1.57463674189E+02
2.50850000000E+07	-2.70077147340E+01	1.67599077292E+02	3.70711210819E+01	1.11783261139E+02	-4.73748797107E+01	1.15005119520E+02	-2.98007921137E+01	-1.58080116893E+02
2.52800000000E+07	-2.71333417369E+01	1.66797499443E+02	3.70707782960E+01	1.11130358978E+02	-4.73708200063E+01	1.14335049822E+02	-2.96664415086E+01	-1.58672460147E+02
2.54750000000E+07	-2.72626274520E+01	1.66003146753E+02	3.70650176379E+01	1.10439347041E+02	-4.73619040755E+01	1.13711265191E+02	-2.95323444445E+01	-1.59259609481E+02
2.56700000000E+07	-2.73678296810E+01	1.65323226304E+02	3.70692014959E+01	1.09796446880E+02	-4.73612733557E+01	1.13057799993E+02	-2.93958087667E+01	-1.59885629059E+02
2.58650000000E+07	-2.74971299456E+01	1.64598649174E+02	3.70649427777E+01	1.09130987191E+02	-4.73581590416E+01	1.12421923753E+02	-2.92675158345E+01	-1.60467679630E+02
2.60600000000E+07	-2.76416722670E+01	1.63802946359E+02	3.70602285645E+01	1.08482320311E+02	-4.73555620286E+01	1.11809636939E+02	-2.91355126699E+01	-1.61038167263E+02
2.62550000000E+07	-2.77625044724E+01	1.62938414126E+02	3.70624889934E+01	1.07793150810E+02	-4.73530691600E+01	1.11152839380E+02	-2.90210172727E+01	-1.61640573361E+02
2.64500000000E+07	-2.78711918595E+01	1.62297860700E+02	3.70548898437E+01	1.07146466076E+02	-4.73518967720E+01	1.10507176144E+02	-2.88980085442E+01	-1.62216886074E+02
2.66450000000E+07	-2.79836577005E+01	1.61523888930E+02	3.70552549823E+01	1.06476022940E+02	-4.73501132929E+01	1.09848986571E+02	-2.87812097933E+01	-1.62805423788E+02
2.68400000000E+07	-2.81386599900E+01	1.60750697113E+02	3.70502748731E+01	1.05830178504E+02	-4.73457723154E+01	1.09225376668E+02	-2.86661104223E+01	-1.63420744282E+02
2.70350000000E+07	-2.82651365970E+01	1.60078584644E+02	3.70518372072E+01	1.05177729639E+02	-4.73416500460E+01	1.08604411801E+02	-2.85557309679E+01	-1.63944963286E+02
2.72300000000E+07	-2.83985036405E+01	1.59447808742E+02	3.70461647757E+01	1.04489922209E+02	-4.73411101652E+01	1.07989759054E+02	-2.84486968037E+01	-1.64529196973E+02
2.74250000000E+07	-2.85004146759E+01	1.58551916187E+02	3.70450041996E+01	1.03863244997E+02	-4.73287905247E+01	1.07352035844E+02	-2.83409955085E+01	-1.65123616382E+02
2.76200000000E+07	-2.86273117514E+01	1.57950303269E+02	3.70434595357E+01	1.03215815736E+02	-4.73333894106E+01	1.06699621741E+02	-2.82384497016E+01	-1.65688171538E+02
2.78150000000E+07	-2.87934130541E+01	1.57069769283E+02	3.70421618498E+01	1.02549266005E+02	-4.73276930542E+01	1.06081161145E+02	-2.81338286206E+01	-1.66241078315E+02
