# Hz S DB R 50
! CMT, M5045, 22160017, 22.4.3/2
! Date: 2/26/2023 22:09:34
! Data: Format (Calibration Info)
! Freq	S11:dB/Ang(F2)	S21:dB/Ang(F2)	S12:dB/Ang(F2)	S22:dB/Ang(F2)
5.00000000000E+06	-9.80454181923E+00	-7.67255468789E+01	3.64199399400E+01	3.65712178496E+01	-4.84560262131E+01	4.00150590689E+01	-1.50236816239E+01	7.43504557319E+01
5.19500000000E+06	-1.01504550484E+01	-7.76716861609E+01	3.65033794975E+01	3.44297671003E+01	-4.83995306826E+01	3.69989897080E+01	-1.56975640509E+01	7.38282841494E+01
5.39000000000E+06	-1.04951125744E+01	-7.85702962744E+01	3.65674181168E+01	3.24046683773E+01	-4.84335613087E+01	3.57641466049E+01	-1.63614231715E+01	7.33917788628E+01
5.58500000000E+06	-1.08161727920E+01	-7.94545754859E+01	3.66350493406E+01	3.04712566142E+01	-4.83456800646E+01	3.25063620719E+01	-1.70086385966E+01	7.29763348087E+01
5.78000000000E+06	-1.11304491383E+01	-8.01883326169E+01	3.66934476850E+01	2.86488012568E+01	-4.82498781292E+01	3.14092581292E+01	-1.76614563891E+01	7.28961850656E+01
5.97500000000E+06	-1.14532947900E+01	-8.09504002622E+01	3.67391642361E+01	2.68912030207E+01	-4.82371502795E+01	2.94623625589E+01	-1.82948039683E+01	7.28434280882E+01
6.17000000000E+06	-1.17521978072E+01	-8.16333471516E+01	3.67870015797E+01	2.52512046905E+01	-4.81076581316E+01	2.82465239432E+01	-1.89158024916E+01	7.30770977800E+01
6.36500000000E+06	-1.20519625870E+01	-8.22699289076E+01	3.68260518761E+01	2.36790944215E+01	-4.80643363499E+01	2.68750304237E+01	-1.95379939099E+01	7.32865600151E+01
6.56000000000E+06	-1.23354238645E+01	-8.29701198871E+01	3.68634172706E+01	2.21348273068E+01	-4.80825648547E+01	2.53165882677E+01	-2.01768949287E+01	7.35520253836E+01
6.75500000000E+06	-1.26109373076E+01	-8.35209318117E+01	3.68982934487E+01	2.06946157657E+01	-4.79191568278E+01	2.34295985150E+01	-2.07555288806E+01	7.43225699299E+01
6.95000000000E+06	-1.28860444308E+01	-8.40979916613E+01	3.69266903759E+01	1.92894389574E+01	-4.80238721547E+01	2.21974212366E+01	-2.13502908748E+01	7.48947677669E+01
7.14500000000E+06	-1.31548275724E+01	-8.46282433701E+01	3.69544592259E+01	1.79566146807E+01	-4.79040598719E+01	2.10284259830E+01	-2.19100736242E+01	7.56709782815E+01
7.34000000000E+06	-1.34156149446E+01	-8.51315356289E+01	3.69820247547E+01	1.66565746509E+01	-4.78511173003E+01	2.00877231936E+01	-2.25173582250E+01	7.65793297301E+01
7.53500000000E+06	-1.36764882257E+01	-8.56613837362E+01	3.70055615206E+01	1.53954131148E+01	-4.78546532932E+01	1.90276860372E+01	-2.30902449584E+01	7.76921264555E+01
7.73000000000E+06	-1.39224292011E+01	-8.61368208787E+01	3.70261352344E+01	1.42014550057E+01	-4.78224512863E+01	1.70025529583E+01	-2.36647736495E+01	7.88829676880E+01
7.92500000000E+06	-1.41706929751E+01	-8.66111948131E+01	3.70428766196E+01	1.30432595504E+01	-4.78678152120E+01	1.62393596126E+01	-2.42022340310E+01	8.01228243759E+01
8.12000000000E+06	-1.44151704177E+01	-8.70254714976E+01	3.70627258914E+01	1.19246702161E+01	-4.77841532132E+01	1.48246021478E+01	-2.47249640055E+01	8.16303033828E+01
8.31500000000E+06	-1.46571591728E+01	-8.74463994231E+01	3.70752114845E+01	1.08092484298E+01	-4.78050838025E+01	1.41038002106E+01	-2.52713291755E+01	8.30926317323E+01
8.51000000000E+06	-1.48898618201E+01	-8.78560779292E+01	3.70931175323E+01	9.75895409926E+00	-4.77832751538E+01	1.30786127860E+01	-2.57981611613E+01	8.51897751001E+01
8.70500000000E+06	-1.51235820264E+01	-8.82846871205E+01	3.71064770625E+01	8.69982539170E+00	-4.76939154186E+01	1.12322751862E+01	-2.62933780465E+01	8.68566171744E+01
8.90000000000E+06	-1.53525905165E+01	-8.86830006027E+01	3.71239523731E+01	7.70491742437E+00	-4.77206940292E+01	1.08611249595E+01	-2.68111061884E+01	8.87291673953E+01
9.09500000000E+06	-1.55646483014E+01	-8.90796357843E+01	3.71347158092E+01	6.72908505876E+00	-4.76796010180E+01	9.14955346046E+00	-2.72877583745E+01	9.08965433433E+01
9.29000000000E+06	-1.57981730273E+01	-8.95089377581E+01	3.71459430046E+01	5.77418303252E+00	-4.77283019106E+01	8.98260192632E+00	-2.77912434446E+01	9.32677022576E+01
9.48500000000E+06	-1.60151279762E+01	-8.98887198134E+01	3.71550880183E+01	4.84607219903E+00	-4.77028878185E+01	7.60641967360E+00	-2.81888620442E+01	9.56311511950E+01
9.68000000000E+06	-1.62352218834E+01	-9.02324470011E+01	3.71660449441E+01	3.91969434787E+00	-4.76920661854E+01	7.20130350548E+00	-2.85863720296E+01	9.83511297255E+01
9.87500000000E+06	-1.64524495323E+01	-9.05508446460E+01	3.71722529548E+01	3.01995389442E+00	-4.76632656672E+01	6.59626724398E+00	-2.90317113436E+01	1.00817894846E+02
1.00700000000E+07	-1.66630753317E+01	-9.09088971013E+01	3.71850073008E+01	2.15969544105E+00	-4.77028264499E+01	5.19833169186E+00	-2.93620582503E+01	1.03665268753E+02
1.02650000000E+07	-1.68707640856E+01	-9.12947347506E+01	3.71892823644E+01	1.27616456092E+00	-4.76623140770E+01	4.40918046957E+00	-2.97435907704E+01	1.06612753482E+02
1.04600000000E+07	-1.70790217771E+01	-9.16688237104E+01	3.72007373985E+01	4.34871798672E-01	-4.76092736189E+01	3.65002970570E+00	-3.00438943741E+01	1.09631197274E+02
1.06550000000E+07	-1.72930299221E+01	-9.19799914571E+01	3.72055871777E+01	-4.05893401766E-01	-4.76857410958E+01	2.88167076064E+00	-3.02675990958E+01	1.12382191009E+02
1.08500000000E+07	-1.74953523180E+01	-9.22919365718E+01	3.72124060680E+01	-1.19671107412E+00	-4.76114963011E+01	2.02098257413E+00	-3.04493125981E+01	1.16065035833E+02
1.10450000000E+07	-1.76990214417E+01	-9.26016287165E+01	3.72186086684E+01	-2.01955718018E+00	-4.75896291062E+01	1.11608502590E+00	-3.07213548467E+01	1.18874245874E+02
1.12400000000E+07	-1.78889138028E+01	-9.29787643710E+01	3.72279548757E+01	-2.82769767025E+00	-4.76791824931E+01	-1.04963970245E-01	-3.07217546121E+01	1.21919431463E+02
1.14350000000E+07	-1.80808354342E+01	-9.32740391450E+01	3.72372338673E+01	-3.60162628241E+00	-4.77217993967E+01	-4.43285383670E-01	-3.08617308983E+01	1.24897543989E+02
1.16300000000E+07	-1.82792362664E+01	-9.35776142240E+01	3.72402695260E+01	-4.37853375514E+00	-4.76351679425E+01	-1.63271315630E+00	-3.10326191866E+01	1.27310885502E+02
1.18250000000E+07	-1.84670760237E+01	-9.39043180090E+01	3.72437465150E+01	-5.17135719639E+00	-4.76354038513E+01	-2.22223570532E+00	-3.10480097687E+01	1.30118949204E+02
1.20200000000E+07	-1.86549639266E+01	-9.42475144622E+01	3.72526441037E+01	-5.92007096194E+00	-4.75770783123E+01	-2.92920823466E+00	-3.11294480657E+01	1.32931745676E+02
1.22150000000E+07	-1.88460758985E+01	-9.45139829779E+01	3.72519175901E+01	-6.66739338264E+00	-4.75860519352E+01	-3.94080638662E+00	-3.11525508766E+01	1.35700886391E+02
1.24100000000E+07	-1.90302055220E+01	-9.48189871928E+01	3.72561654578E+01	-7.39119094087E+00	-4.75918606734E+01	-4.43750213289E+00	-3.12898847061E+01	1.38670786976E+02
1.26050000000E+07	-1.92291377811E+01	-9.50833421664E+01	3.72566762776E+01	-8.10145168149E+00	-4.75510991693E+01	-5.25344191473E+00	-3.12171587961E+01	1.41455386525E+02
1.28000000000E+07	-1.94064832279E+01	-9.53882034918E+01	3.72603873595E+01	-8.79997767016E+00	-4.75794465302E+01	-5.38437357402E+00	-3.12828517914E+01	1.43488865618E+02
1.29950000000E+07	-1.95950442239E+01	-9.56293279200E+01	3.72664054830E+01	-9.47474082466E+00	-4.75784398487E+01	-6.65705332343E+00	-3.11462053104E+01	1.46046667968E+02
1.31900000000E+07	-1.97796478495E+01	-9.58643484580E+01	3.72671709669E+01	-1.01360226052E+01	-4.76224048781E+01	-7.06312198537E+00	-3.11831713248E+01	1.48266723188E+02
1.33850000000E+07	-1.99757706936E+01	-9.60981148645E+01	3.72730002741E+01	-1.07704141389E+01	-4.75586377711E+01	-8.17914703575E+00	-3.10832471856E+01	1.50349189519E+02
1.35800000000E+07	-2.01469709066E+01	-9.63505461436E+01	3.72756656471E+01	-1.14288938980E+01	-4.75046525944E+01	-8.10107672073E+00	-3.10190746780E+01	1.52678378492E+02
1.37750000000E+07	-2.03383024370E+01	-9.65284604916E+01	3.72795637726E+01	-1.20843319296E+01	-4.75940749866E+01	-9.44714156794E+00	-3.09830367712E+01	1.54114222501E+02
1.39700000000E+07	-2.05205498898E+01	-9.67905074944E+01	3.72836487010E+01	-1.27410741640E+01	-4.75784123654E+01	-9.77989955939E+00	-3.09098016473E+01	1.56447840480E+02
1.41650000000E+07	-2.07083701881E+01	-9.70671542787E+01	3.72850612083E+01	-1.33791084869E+01	-4.76022293437E+01	-1.06622482184E+01	-3.08550861525E+01	1.57783060166E+02
1.43600000000E+07	-2.08869418104E+01	-9.72261442011E+01	3.72879359451E+01	-1.40232449415E+01	-4.75439613095E+01	-1.10391471644E+01	-3.07852700748E+01	1.59980122402E+02
1.45550000000E+07	-2.10633323649E+01	-9.74375191432E+01	3.72930067570E+01	-1.46391707095E+01	-4.75410898688E+01	-1.14615374369E+01	-3.06431968770E+01	1.61208105705E+02
1.47500000000E+07	-2.12476373919E+01	-9.76869385064E+01	3.72952126544E+01	-1.52884523720E+01	-4.75050086896E+01	-1.18210976819E+01	-3.05143044974E+01	1.62803531169E+02
1.49450000000E+07	-2.14288171954E+01	-9.79695627790E+01	3.72952584664E+01	-1.58977838148E+01	-4.75140134520E+01	-1.32980413493E+01	-3.04726452876E+01	1.64188169437E+02
1.51400000000E+07	-2.16151405457E+01	-9.80472372161E+01	3.72990731557E+01	-1.65076107841E+01	-4.75556512520E+01	-1.32209820336E+01	-3.03550126456E+01	1.65478628592E+02
1.53350000000E+07	-2.17950092185E+01	-9.81799182220E+01	3.72993796950E+01	-1.71127556869E+01	-4.75514321108E+01	-1.40542000370E+01	-3.03564812666E+01	1.66544050992E+02
1.55300000000E+07	-2.19724686142E+01	-9.84373043614E+01	3.73038158666E+01	-1.77215134923E+01	-4.75473482990E+01	-1.45106377176E+01	-3.02301770218E+01	1.67918971446E+02
1.57250000000E+07	-2.21615657934E+01	-9.85662712858E+01	3.73034874673E+01	-1.83163645218E+01	-4.74848985270E+01	-1.54893022653E+01	-3.00003149183E+01	1.69223116903E+02
1.59200000000E+07	-2.23453216175E+01	-9.87885162012E+01	3.73049955191E+01	-1.89137759936E+01	-4.75371388108E+01	-1.59292314095E+01	-2.99848023015E+01	1.70625799561E+02
1.61150000000E+07	-2.25320902036E+01	-9.89047038742E+01	3.73071540408E+01	-1.95211720698E+01	-4.75641448170E+01	-1.71284408211E+01	-2.98515805016E+01	1.71402833878E+02
1.63100000000E+07	-2.26987335759E+01	-9.90564431448E+01	3.73059719606E+01	-2.01118138191E+01	-4.75237480464E+01	-1.72300377914E+01	-2.98259682160E+01	1.72074003120E+02
1.65050000000E+07	-2.28826951407E+01	-9.92345194930E+01	3.73114983132E+01	-2.06731381995E+01	-4.75110248531E+01	-1.79431734123E+01	-2.96803394470E+01	1.73263593363E+02
1.67000000000E+07	-2.30610859100E+01	-9.93557929787E+01	3.73152305182E+01	-2.12647169760E+01	-4.74821199783E+01	-1.86741630167E+01	-2.96312988733E+01	1.74282196469E+02
1.68950000000E+07	-2.32392844706E+01	-9.95696441607E+01	3.73165085899E+01	-2.18423203580E+01	-4.75466740243E+01	-1.86689446796E+01	-2.95143674512E+01	1.75367122498E+02
1.70900000000E+07	-2.34178432211E+01	-9.95654707384E+01	3.73190523526E+01	-2.24167009596E+01	-4.75558153220E+01	-1.91939476865E+01	-2.94744594977E+01	1.75765708859E+02
1.72850000000E+07	-2.36058485412E+01	-9.98325206239E+01	3.73172536235E+01	-2.29768762719E+01	-4.74538063040E+01	-2.01773323550E+01	-2.93747362387E+01	1.76536539306E+02
1.74800000000E+07	-2.37883756347E+01	-9.99380562581E+01	3.73153961912E+01	-2.35464310750E+01	-4.75507190308E+01	-2.05563859199E+01	-2.93284756785E+01	1.77535358842E+02
1.76750000000E+07	-2.39623979329E+01	-1.00127017145E+02	3.73196076488E+01	-2.41114950483E+01	-4.75302400950E+01	-2.12073387181E+01	-2.91973266337E+01	1.78290823854E+02
1.78700000000E+07	-2.41442746273E+01	-1.00099814568E+02	3.73225403416E+01	-2.46806967983E+01	-4.74802070018E+01	-2.13874107884E+01	-2.91820461074E+01	1.78950091178E+02
1.80650000000E+07	-2.43318486600E+01	-1.00161728429E+02	3.73236684635E+01	-2.52202009157E+01	-4.75654644450E+01	-2.24209898251E+01	-2.90240639594E+01	1.79544210067E+02
1.82600000000E+07	-2.45261425253E+01	-1.00329201776E+02	3.73228379650E+01	-2.57645077662E+01	-4.74956262382E+01	-2.31722191077E+01	-2.89517652278E+01	-1.79859395079E+02
1.84550000000E+07	-2.46950732847E+01	-1.00377298065E+02	3.73258836572E+01	-2.63263016180E+01	-4.75084332750E+01	-2.35104204629E+01	-2.88914218422E+01	-1.79120736750E+02
1.86500000000E+07	-2.49118544592E+01	-1.00382131556E+02	3.73234082456E+01	-2.68821737940E+01	-4.75278555456E+01	-2.38664441956E+01	-2.88086249828E+01	-1.78489082800E+02
1.88450000000E+07	-2.50740754427E+01	-1.00504558992E+02	3.73290976016E+01	-2.74303208643E+01	-4.75351032464E+01	-2.43422041568E+01	-2.87388846164E+01	-1.77848111744E+02
1.90400000000E+07	-2.52713101700E+01	-1.00573824949E+02	3.73275416271E+01	-2.79807802093E+01	-4.75396919737E+01	-2.48435512262E+01	-2.86610142769E+01	-1.77260142617E+02
1.92350000000E+07	-2.54461597193E+01	-1.00536941045E+02	3.73261280114E+01	-2.85055383002E+01	-4.74877574425E+01	-2.56691855003E+01	-2.85927507877E+01	-1.76466482514E+02
1.94300000000E+07	-2.56295301328E+01	-1.00673480775E+02	3.73276907901E+01	-2.90464582758E+01	-4.75154461768E+01	-2.58745437474E+01	-2.85383414224E+01	-1.76045541132E+02
1.96250000000E+07	-2.58162065703E+01	-1.00782571229E+02	3.73301556271E+01	-2.95752156277E+01	-4.75050164790E+01	-2.65815317371E+01	-2.85095875859E+01	-1.75518219777E+02
1.98200000000E+07	-2.60032233352E+01	-1.00814506433E+02	3.73301849076E+01	-3.01059015317E+01	-4.75730468342E+01	-2.69314920763E+01	-2.84684122300E+01	-1.75378611778E+02
2.00150000000E+07	-2.61994579069E+01	-1.00823338168E+02	3.73326072626E+01	-3.06574815019E+01	-4.74654911277E+01	-2.78375415534E+01	-2.83579804961E+01	-1.74726473663E+02
2.02100000000E+07	-2.64179809389E+01	-1.00774276223E+02	3.73315140867E+01	-3.11674062251E+01	-4.75316074836E+01	-2.84026421333E+01	-2.82893078785E+01	-1.74225302486E+02
2.04050000000E+07	-2.65885633533E+01	-1.00849031572E+02	3.73312118810E+01	-3.17127960220E+01	-4.74267184210E+01	-2.83969642955E+01	-2.81796973240E+01	-1.73636980441E+02
2.06000000000E+07	-2.67718720185E+01	-1.00802141602E+02	3.73337112701E+01	-3.22372086129E+01	-4.75140275600E+01	-2.89064890710E+01	-2.81477380819E+01	-1.73167696958E+02
2.07950000000E+07	-2.69871797967E+01	-1.00710969113E+02	3.73302767791E+01	-3.27577626557E+01	-4.74916990071E+01	-2.97983814888E+01	-2.80377084501E+01	-1.72665175444E+02
2.09900000000E+07	-2.71513430367E+01	-1.00658049065E+02	3.73353666758E+01	-3.32659359381E+01	-4.74983410825E+01	-2.96635569306E+01	-2.80235001071E+01	-1.72292869408E+02
2.11850000000E+07	-2.73716466280E+01	-1.00647886680E+02	3.73340801160E+01	-3.37772504809E+01	-4.74942919513E+01	-3.08953496532E+01	-2.79687238227E+01	-1.71855908111E+02
2.13800000000E+07	-2.75548594860E+01	-1.00514329255E+02	3.73362269581E+01	-3.42917068569E+01	-4.75545349811E+01	-3.09985711932E+01	-2.78998565313E+01	-1.71434410099E+02
2.15750000000E+07	-2.77782812513E+01	-1.00655762186E+02	3.73349324068E+01	-3.48177827223E+01	-4.74553121603E+01	-3.17010229421E+01	-2.79267415026E+01	-1.71668233192E+02
2.17700000000E+07	-2.79575923543E+01	-1.00382467222E+02	3.73377124053E+01	-3.53383393766E+01	-4.75180994801E+01	-3.19640725621E+01	-2.78017815070E+01	-1.70837900579E+02
2.19650000000E+07	-2.81529410346E+01	-1.00268038332E+02	3.73346062436E+01	-3.58264116189E+01	-4.75080846844E+01	-3.19539145846E+01	-2.77017118772E+01	-1.70270757778E+02
2.21600000000E+07	-2.83557966496E+01	-1.00176580015E+02	3.73356718836E+01	-3.63524965201E+01	-4.75208859215E+01	-3.29985304557E+01	-2.76954978326E+01	-1.69784870266E+02
2.23550000000E+07	-2.85708541212E+01	-1.00139809689E+02	3.73397119348E+01	-3.68807665234E+01	-4.75183688250E+01	-3.38686477643E+01	-2.76371521572E+01	-1.69448472325E+02
2.25500000000E+07	-2.87792176932E+01	-9.99737079599E+01	3.73357133535E+01	-3.73574830945E+01	-4.74689586434E+01	-3.39601186830E+01	-2.75815239841E+01	-1.69194896822E+02
2.27450000000E+07	-2.89661793134E+01	-9.98147546374E+01	3.73375934455E+01	-3.78641523042E+01	-4.75070340342E+01	-3.42887713266E+01	-2.75082726841E+01	-1.68973615414E+02
2.29400000000E+07	-2.91949812971E+01	-9.97613154641E+01	3.73370047968E+01	-3.83702681664E+01	-4.75428492069E+01	-3.50329214207E+01	-2.75107783256E+01	-1.68700064716E+02
2.31350000000E+07	-2.93953827837E+01	-9.94620879117E+01	3.73381918039E+01	-3.88650558134E+01	-4.75257962748E+01	-3.55773848072E+01	-2.74144993735E+01	-1.68080474710E+02
2.33300000000E+07	-2.96092302930E+01	-9.93990167480E+01	3.73356632270E+01	-3.93911046341E+01	-4.74812315126E+01	-3.56810005926E+01	-2.73683616892E+01	-1.67458157529E+02
2.35250000000E+07	-2.98304250258E+01	-9.89670178443E+01	3.73387139563E+01	-3.98724081089E+01	-4.74675909010E+01	-3.64052102816E+01	-2.72655613053E+01	-1.67313652311E+02
2.37200000000E+07	-3.00195453755E+01	-9.86657723808E+01	3.73372944656E+01	-4.03846045776E+01	-4.75188127337E+01	-3.69602975442E+01	-2.73191118279E+01	-1.67348574617E+02
2.39150000000E+07	-3.02606557427E+01	-9.86235738987E+01	3.73393363124E+01	-4.08760095420E+01	-4.75076634956E+01	-3.73227855587E+01	-2.72004430732E+01	-1.66758269229E+02
2.41100000000E+07	-3.04732279515E+01	-9.83576289345E+01	3.73391622256E+01	-4.13686292537E+01	-4.75104986160E+01	-3.74866735094E+01	-2.71461248220E+01	-1.66312783169E+02
2.43050000000E+07	-3.07050209069E+01	-9.79497860099E+01	3.73367253799E+01	-4.18664084228E+01	-4.74794657713E+01	-3.80131237372E+01	-2.71192827220E+01	-1.66107071614E+02
2.45000000000E+07	-3.09230593931E+01	-9.74605235819E+01	3.73364926348E+01	-4.23412008311E+01	-4.75713964325E+01	-3.85576776300E+01	-2.70409017904E+01	-1.65804624179E+02
2.46950000000E+07	-3.11485048247E+01	-9.72480531775E+01	3.73377806170E+01	-4.28489021097E+01	-4.74841303354E+01	-3.89740307837E+01	-2.70278928970E+01	-1.65684668149E+02
2.48900000000E+07	-3.13941656172E+01	-9.66126699473E+01	3.73374289946E+01	-4.33304320061E+01	-4.74977881665E+01	-3.97390015438E+01	-2.70154523950E+01	-1.65174466092E+02
2.50850000000E+07	-3.16008201252E+01	-9.61861488574E+01	3.73385697108E+01	-4.38192632165E+01	-4.75471868770E+01	-4.03511623114E+01	-2.69554593019E+01	-1.65018404074E+02
2.52800000000E+07	-3.18008239088E+01	-9.57948902211E+01	3.73363295280E+01	-4.43222036579E+01	-4.75459123437E+01	-4.06989326485E+01	-2.68959653627E+01	-1.64925921327E+02
2.54750000000E+07	-3.20776346192E+01	-9.53726708430E+01	3.73367002576E+01	-4.48127620203E+01	-4.75356720188E+01	-4.12875274080E+01	-2.68654464524E+01	-1.64355205145E+02
2.56700000000E+07	-3.22983990979E+01	-9.48264938916E+01	3.73349589271E+01	-4.52767749329E+01	-4.75280302505E+01	-4.12513590241E+01	-2.68657659924E+01	-1.64074438980E+02
2.58650000000E+07	-3.25257329073E+01	-9.40207697635E+01	3.73367277008E+01	-4.57831268463E+01	-4.74820724570E+01	-4.22612658540E+01	-2.67732908665E+01	-1.64357302488E+02
2.60600000000E+07	-3.27605253924E+01	-9.39374478171E+01	3.73356376638E+01	-4.62686840845E+01	-4.76043590217E+01	-4.24487183377E+01	-2.67252597172E+01	-1.63597282236E+02
2.62550000000E+07	-3.29920038160E+01	-9.30094863914E+01	3.73359549533E+01	-4.67451434935E+01	-4.74759184993E+01	-4.29018377203E+01	-2.66483324049E+01	-1.63250347627E+02
2.64500000000E+07	-3.32341126718E+01	-9.19567415341E+01	3.73345614431E+01	-4.72397610947E+01	-4.75098450061E+01	-4.34393885396E+01	-2.65969714035E+01	-1.63143493557E+02
2.66450000000E+07	-3.34660961403E+01	-9.12759271077E+01	3.73378581368E+01	-4.77109287012E+01	-4.75050093639E+01	-4.38777864695E+01	-2.66085735909E+01	-1.62952066101E+02
2.68400000000E+07	-3.37130213213E+01	-9.08688357268E+01	3.73371682467E+01	-4.81965657500E+01	-4.75407317095E+01	-4.40939508385E+01	-2.65801797919E+01	-1.62813839823E+02
2.70350000000E+07	-3.39608418505E+01	-9.00117287908E+01	3.73308970961E+01	-4.86685898743E+01	-4.75672314278E+01	-4.50589103505E+01	-2.65218067494E+01	-1.62496200132E+02
2.72300000000E+07	-3.42454737107E+01	-8.88149837106E+01	3.73308595603E+01	-4.91186597144E+01	-4.74745017220E+01	-4.48736618748E+01	-2.64403397466E+01	-1.62255004792E+02
2.74250000000E+07	-3.44694101012E+01	-8.79496682362E+01	3.73339248796E+01	-4.96219252848E+01	-4.74897198457E+01	-4.56217961709E+01	-2.64115412433E+01	-1.62295581208E+02
2.76200000000E+07	-3.46887260751E+01	-8.69124914259E+01	3.73340407889E+01	-5.01003908652E+01	-4.75159644601E+01	-4.63518565655E+01	-2.63926599628E+01	-1.62020656724E+02
