# Hz S DB R 50
! CMT, M5045, 22160017, 22.4.3/2
! Date: 2/26/2023 21:50:32
! Data: Format (Calibration Info)
! Freq	S11:dB/Ang(F2)	S21:dB/Ang(F2)	S12:dB/Ang(F2)	S22:dB/Ang(F2)
5.00000000000E+06	-9.76474851199E+00	-7.52187632977E+01	3.65020408890E+01	3.56471136648E+01	-4.85005074914E+01	3.90742295606E+01	-1.56917188202E+01	7.01003859427E+01
5.19500000000E+06	-1.01024816745E+01	-7.61708077462E+01	3.65814852251E+01	3.35241185072E+01	-4.84431202447E+01	3.59209811830E+01	-1.64062177014E+01	6.93968129364E+01
5.39000000000E+06	-1.04377491652E+01	-7.69910459243E+01	3.66478579792E+01	3.15405841444E+01	-4.83148620619E+01	3.39178536892E+01	-1.70721652620E+01	6.88733877147E+01
5.58500000000E+06	-1.07678998007E+01	-7.78735200437E+01	3.67089715084E+01	2.96159081282E+01	-4.83779364365E+01	3.27490874633E+01	-1.77641509808E+01	6.85151667814E+01
5.78000000000E+06	-1.10786766984E+01	-7.86095529185E+01	3.67648200761E+01	2.78241849016E+01	-4.82739964569E+01	3.01448909311E+01	-1.84413960329E+01	6.82457606680E+01
5.97500000000E+06	-1.13893616887E+01	-7.93555134948E+01	3.68141756479E+01	2.60859102997E+01	-4.82416918459E+01	2.92489639033E+01	-1.91158074590E+01	6.82837535951E+01
6.17000000000E+06	-1.16886153208E+01	-7.99983967369E+01	3.68554436812E+01	2.44636209222E+01	-4.81914216653E+01	2.76948285824E+01	-1.97723164411E+01	6.83503310582E+01
6.36500000000E+06	-1.19773758159E+01	-8.06363293421E+01	3.68970986067E+01	2.29051425877E+01	-4.81522346277E+01	2.58829071633E+01	-2.04372585618E+01	6.85408785963E+01
6.56000000000E+06	-1.22561098873E+01	-8.12431089223E+01	3.69326217231E+01	2.14066916166E+01	-4.81269193805E+01	2.44626658403E+01	-2.11121776365E+01	6.88402334168E+01
6.75500000000E+06	-1.25400574555E+01	-8.17842295514E+01	3.69638354158E+01	1.99857338246E+01	-4.80014192467E+01	2.27505989014E+01	-2.17412760992E+01	6.93528973169E+01
6.95000000000E+06	-1.28099447920E+01	-8.23686530692E+01	3.69953834960E+01	1.85744125468E+01	-4.79576652736E+01	2.13977605101E+01	-2.23655206497E+01	7.00783448203E+01
7.14500000000E+06	-1.30812927610E+01	-8.28816386024E+01	3.70199122910E+01	1.72452161776E+01	-4.79067993361E+01	2.04248272247E+01	-2.30277359823E+01	7.06426002251E+01
7.34000000000E+06	-1.33372330496E+01	-8.33940678485E+01	3.70474844993E+01	1.59837108463E+01	-4.79692824697E+01	1.89544223012E+01	-2.36499086135E+01	7.16466106585E+01
7.53500000000E+06	-1.35964375123E+01	-8.38683152531E+01	3.70677857343E+01	1.47388656780E+01	-4.79341034180E+01	1.75372824876E+01	-2.42841629362E+01	7.26139068781E+01
7.73000000000E+06	-1.38418051198E+01	-8.43122807141E+01	3.70886468616E+01	1.35588818747E+01	-4.79018716695E+01	1.66466063621E+01	-2.49152403547E+01	7.40140272334E+01
7.92500000000E+06	-1.40918731385E+01	-8.47543896569E+01	3.71078184749E+01	1.24003864831E+01	-4.78243952508E+01	1.51451787219E+01	-2.55211891019E+01	7.52140384826E+01
8.12000000000E+06	-1.43413974643E+01	-8.51740530199E+01	3.71250210945E+01	1.12797569285E+01	-4.78700280431E+01	1.41476526854E+01	-2.61230842244E+01	7.68085019468E+01
8.31500000000E+06	-1.45782808836E+01	-8.55321444686E+01	3.71380138189E+01	1.01985923480E+01	-4.78378931359E+01	1.31441125770E+01	-2.67500095675E+01	7.88227720075E+01
8.51000000000E+06	-1.48108020446E+01	-8.59466354807E+01	3.71564076564E+01	9.15590180564E+00	-4.78894689140E+01	1.19538913160E+01	-2.72929328865E+01	8.07471767723E+01
8.70500000000E+06	-1.50423456108E+01	-8.63795875073E+01	3.71711393012E+01	8.13605707621E+00	-4.78568666951E+01	1.08495724643E+01	-2.78502076321E+01	8.24476942487E+01
8.90000000000E+06	-1.52706206548E+01	-8.67205719630E+01	3.71851369904E+01	7.10904211780E+00	-4.77533212038E+01	9.83648704537E+00	-2.84577708154E+01	8.47158054230E+01
9.09500000000E+06	-1.55058482034E+01	-8.71078134570E+01	3.71943045633E+01	6.13976600997E+00	-4.78200251280E+01	8.86855304205E+00	-2.89601298774E+01	8.78103386079E+01
9.29000000000E+06	-1.57249231264E+01	-8.74167067091E+01	3.72037921526E+01	5.20688577584E+00	-4.77100873735E+01	8.18701937785E+00	-2.95745208085E+01	9.02632157268E+01
9.48500000000E+06	-1.59443827490E+01	-8.78247486528E+01	3.72156167958E+01	4.25698468338E+00	-4.77045326070E+01	7.41225007825E+00	-2.99993288456E+01	9.29513176239E+01
9.68000000000E+06	-1.61640072231E+01	-8.81110868176E+01	3.72313296200E+01	3.36490118225E+00	-4.77666211226E+01	6.71553964710E+00	-3.04588951006E+01	9.61772100331E+01
9.87500000000E+06	-1.63800131076E+01	-8.84360527944E+01	3.72378193349E+01	2.47062710224E+00	-4.77368075501E+01	5.59700989603E+00	-3.09428952841E+01	9.92694133525E+01
1.00700000000E+07	-1.66026054560E+01	-8.87882339536E+01	3.72440451473E+01	1.60121204607E+00	-4.77218939430E+01	4.80089444434E+00	-3.13038991383E+01	1.02815290284E+02
1.02650000000E+07	-1.68147375572E+01	-8.90807171362E+01	3.72499834430E+01	7.53515481164E-01	-4.77798223012E+01	4.05257515791E+00	-3.16172439164E+01	1.06432400913E+02
1.04600000000E+07	-1.70214407465E+01	-8.94519276155E+01	3.72603893585E+01	-1.09172956163E-01	-4.76372086117E+01	2.69338148842E+00	-3.19957256008E+01	1.10544896090E+02
1.06550000000E+07	-1.72253567878E+01	-8.97091763009E+01	3.72664338756E+01	-9.32920340516E-01	-4.76805162455E+01	1.82368561548E+00	-3.22525724970E+01	1.13969791996E+02
1.08500000000E+07	-1.74387656711E+01	-8.99998968228E+01	3.72718900148E+01	-1.76168614586E+00	-4.76545329957E+01	1.11993003012E+00	-3.23958584417E+01	1.17700753343E+02
1.10450000000E+07	-1.76346271316E+01	-9.02924385991E+01	3.72804056418E+01	-2.52940629605E+00	-4.76709371569E+01	6.78357296793E-01	-3.25557450665E+01	1.20964289074E+02
1.12400000000E+07	-1.78307354982E+01	-9.05662974386E+01	3.72867848830E+01	-3.32905736640E+00	-4.76164696892E+01	-2.33448905841E-02	-3.25653252973E+01	1.25173812040E+02
1.14350000000E+07	-1.80271915502E+01	-9.08278748290E+01	3.72918566439E+01	-4.11494317958E+00	-4.76482290444E+01	-6.47965536061E-01	-3.26667547865E+01	1.28067881976E+02
1.16300000000E+07	-1.82253549986E+01	-9.11355080997E+01	3.72979902281E+01	-4.89883621732E+00	-4.75947195476E+01	-2.03488425643E+00	-3.26704322171E+01	1.31521980123E+02
1.18250000000E+07	-1.84214047734E+01	-9.14480753726E+01	3.73018931776E+01	-5.66318887849E+00	-4.76514550090E+01	-3.12059043243E+00	-3.28226978910E+01	1.34589066172E+02
1.20200000000E+07	-1.86171863478E+01	-9.16266745764E+01	3.73077622779E+01	-6.42196770165E+00	-4.77164954611E+01	-3.62564820308E+00	-3.27017400137E+01	1.38326078123E+02
1.22150000000E+07	-1.88104959679E+01	-9.19421194931E+01	3.73109620709E+01	-7.17996927227E+00	-4.76275733825E+01	-4.58140613261E+00	-3.28093538039E+01	1.41298459040E+02
1.24100000000E+07	-1.89998657911E+01	-9.21364205972E+01	3.73121842707E+01	-7.90189901087E+00	-4.76318073491E+01	-4.46642545898E+00	-3.27357981438E+01	1.44251433404E+02
1.26050000000E+07	-1.91915745893E+01	-9.24280661558E+01	3.73170828640E+01	-8.60109837784E+00	-4.75644359366E+01	-5.42730708820E+00	-3.27771817883E+01	1.47089321645E+02
1.28000000000E+07	-1.93850569662E+01	-9.25990635815E+01	3.73213688377E+01	-9.24885795893E+00	-4.76337442757E+01	-6.59839805812E+00	-3.25681189487E+01	1.48992164719E+02
1.29950000000E+07	-1.95809678956E+01	-9.27980729754E+01	3.73216722537E+01	-9.93714111516E+00	-4.76827219582E+01	-7.10674566759E+00	-3.24196891627E+01	1.51586219100E+02
1.31900000000E+07	-1.97699849817E+01	-9.29981970967E+01	3.73229219130E+01	-1.05829429250E+01	-4.76113508022E+01	-7.63402125737E+00	-3.23504733661E+01	1.53778930806E+02
1.33850000000E+07	-1.99585926845E+01	-9.31749813247E+01	3.73295331973E+01	-1.12811943838E+01	-4.76078223561E+01	-8.10994022235E+00	-3.22873918189E+01	1.56243924404E+02
1.35800000000E+07	-2.01444779077E+01	-9.33876695791E+01	3.73322221434E+01	-1.19181973487E+01	-4.76563473487E+01	-8.76713504928E+00	-3.21470380390E+01	1.57868531475E+02
1.37750000000E+07	-2.03381032699E+01	-9.35345211121E+01	3.73344383002E+01	-1.25594120679E+01	-4.76163256478E+01	-9.69176676949E+00	-3.19583251846E+01	1.60310783121E+02
1.39700000000E+07	-2.05339183867E+01	-9.37324136950E+01	3.73392594119E+01	-1.32244249231E+01	-4.76309351486E+01	-1.06789320435E+01	-3.18705592829E+01	1.61226052202E+02
1.41650000000E+07	-2.07125525142E+01	-9.38855869059E+01	3.73387909749E+01	-1.38658990341E+01	-4.75844447221E+01	-1.11496569843E+01	-3.17544042916E+01	1.63278981824E+02
1.43600000000E+07	-2.08949342781E+01	-9.39945076246E+01	3.73445714876E+01	-1.44851227320E+01	-4.76492034371E+01	-1.22678575518E+01	-3.15371296339E+01	1.64999473446E+02
1.45550000000E+07	-2.10932111469E+01	-9.41293000025E+01	3.73463949202E+01	-1.51067972748E+01	-4.76278524826E+01	-1.25839728252E+01	-3.15048154672E+01	1.65918969926E+02
1.47500000000E+07	-2.12679810797E+01	-9.43194771646E+01	3.73509193466E+01	-1.57456108883E+01	-4.76181316868E+01	-1.31842579660E+01	-3.13421750348E+01	1.67500777862E+02
1.49450000000E+07	-2.14573863231E+01	-9.44282812603E+01	3.73544513696E+01	-1.63598541877E+01	-4.75997049485E+01	-1.36610722350E+01	-3.12965201804E+01	1.68942701959E+02
1.51400000000E+07	-2.16477310882E+01	-9.45294273209E+01	3.73546978574E+01	-1.69885140304E+01	-4.75482351084E+01	-1.39503013728E+01	-3.10634492251E+01	1.69885278412E+02
1.53350000000E+07	-2.18319664006E+01	-9.46401771289E+01	3.73588285997E+01	-1.75773859949E+01	-4.75600092454E+01	-1.44310665337E+01	-3.09621201582E+01	1.71442817514E+02
1.55300000000E+07	-2.20216989036E+01	-9.47540953633E+01	3.73576814367E+01	-1.81920854367E+01	-4.75535510009E+01	-1.53170382274E+01	-3.08708449598E+01	1.72333812364E+02
1.57250000000E+07	-2.21899618027E+01	-9.48118906466E+01	3.73617644511E+01	-1.88014853486E+01	-4.76600645349E+01	-1.54846158761E+01	-3.08327278907E+01	1.73260114638E+02
1.59200000000E+07	-2.24019143246E+01	-9.48087536867E+01	3.73587955781E+01	-1.93870527156E+01	-4.76174099346E+01	-1.66265385775E+01	-3.06382545906E+01	1.74176109528E+02
1.61150000000E+07	-2.25835132338E+01	-9.50059386320E+01	3.73657741337E+01	-1.99931981534E+01	-4.75485604585E+01	-1.70847710874E+01	-3.05288524854E+01	1.75350859234E+02
1.63100000000E+07	-2.27549549608E+01	-9.50694842844E+01	3.73676511926E+01	-2.05686845800E+01	-4.75884178489E+01	-1.73329327131E+01	-3.04360837375E+01	1.76442061816E+02
1.65050000000E+07	-2.29456535253E+01	-9.51014155534E+01	3.73689182796E+01	-2.11418793757E+01	-4.75628811857E+01	-1.80715855380E+01	-3.02712112454E+01	1.77300013288E+02
1.67000000000E+07	-2.31302578113E+01	-9.51089956216E+01	3.73686417986E+01	-2.17183020961E+01	-4.76061904906E+01	-1.88085597339E+01	-3.03068978504E+01	1.77845592490E+02
1.68950000000E+07	-2.33259380554E+01	-9.51376412902E+01	3.73702586949E+01	-2.23090964785E+01	-4.75674748233E+01	-1.94762230648E+01	-3.00694209219E+01	1.78420439477E+02
1.70900000000E+07	-2.35155519782E+01	-9.52046950959E+01	3.73691147485E+01	-2.28640409365E+01	-4.75496119815E+01	-1.98682646179E+01	-3.00180609166E+01	1.79174631426E+02
1.72850000000E+07	-2.36931755007E+01	-9.51881429149E+01	3.73719039199E+01	-2.34361861861E+01	-4.75494080647E+01	-2.05716182002E+01	-2.99150018058E+01	1.79376129428E+02
1.74800000000E+07	-2.38853612662E+01	-9.52192003893E+01	3.73764197293E+01	-2.39906581815E+01	-4.75354830790E+01	-2.11613383036E+01	-2.98154712993E+01	-1.79842661291E+02
1.76750000000E+07	-2.40707383464E+01	-9.51772048482E+01	3.73758280506E+01	-2.45735638547E+01	-4.76363050833E+01	-2.19881223880E+01	-2.97914991324E+01	-1.78939782601E+02
1.78700000000E+07	-2.42506394963E+01	-9.52427687347E+01	3.73790256086E+01	-2.51311430183E+01	-4.75575845994E+01	-2.20948260395E+01	-2.96828069114E+01	-1.78024580567E+02
1.80650000000E+07	-2.44493714598E+01	-9.50773862241E+01	3.73791538129E+01	-2.56906538713E+01	-4.75975915809E+01	-2.27522554640E+01	-2.95626022734E+01	-1.77863506493E+02
1.82600000000E+07	-2.46383176030E+01	-9.50308323520E+01	3.73779766779E+01	-2.62125166175E+01	-4.75638784489E+01	-2.31956848039E+01	-2.95021698038E+01	-1.76808978818E+02
1.84550000000E+07	-2.48221060364E+01	-9.49513742911E+01	3.73802901756E+01	-2.67813193120E+01	-4.75987074289E+01	-2.39861407327E+01	-2.94699106580E+01	-1.76949437899E+02
1.86500000000E+07	-2.50261082590E+01	-9.49221472679E+01	3.73797432090E+01	-2.73526711802E+01	-4.75820739629E+01	-2.45074448123E+01	-2.93856225230E+01	-1.75817968151E+02
1.88450000000E+07	-2.52193892188E+01	-9.48089034830E+01	3.73844417370E+01	-2.78988494986E+01	-4.75979645956E+01	-2.50534815923E+01	-2.93430853331E+01	-1.75605713283E+02
1.90400000000E+07	-2.54056763011E+01	-9.48142443314E+01	3.73848701771E+01	-2.84266351623E+01	-4.76169957987E+01	-2.52533324344E+01	-2.91669392843E+01	-1.75225290399E+02
1.92350000000E+07	-2.55864486371E+01	-9.46300073555E+01	3.73846751981E+01	-2.89474478828E+01	-4.75492876464E+01	-2.60591995150E+01	-2.91466313738E+01	-1.74855166166E+02
1.94300000000E+07	-2.57716331411E+01	-9.45998919843E+01	3.73871277152E+01	-2.94909622657E+01	-4.76030470146E+01	-2.63622009607E+01	-2.91107392735E+01	-1.74246178526E+02
1.96250000000E+07	-2.59672730232E+01	-9.43258907162E+01	3.73861421005E+01	-3.00422422479E+01	-4.75983602512E+01	-2.67457890373E+01	-2.90030930603E+01	-1.73773133798E+02
1.98200000000E+07	-2.61563532766E+01	-9.42142586567E+01	3.73833242544E+01	-3.05761704301E+01	-4.75558208292E+01	-2.77080102241E+01	-2.89411339562E+01	-1.73193074591E+02
2.00150000000E+07	-2.63545286718E+01	-9.40095307282E+01	3.73882570855E+01	-3.10946216550E+01	-4.75774040630E+01	-2.76963762991E+01	-2.88294643505E+01	-1.72531614071E+02
2.02100000000E+07	-2.65471542118E+01	-9.39919700364E+01	3.73856206602E+01	-3.16576792944E+01	-4.76175952841E+01	-2.82149749658E+01	-2.88239338509E+01	-1.71829038023E+02
2.04050000000E+07	-2.67521048573E+01	-9.37318168829E+01	3.73877851487E+01	-3.21570720459E+01	-4.74650381846E+01	-2.88979574048E+01	-2.87381224851E+01	-1.72064910508E+02
2.06000000000E+07	-2.69390225803E+01	-9.34410725353E+01	3.73885832103E+01	-3.26802295803E+01	-4.76168206349E+01	-2.94438871983E+01	-2.87893914706E+01	-1.71461358335E+02
2.07950000000E+07	-2.71420230312E+01	-9.32145670877E+01	3.73870362826E+01	-3.31914788474E+01	-4.75003653225E+01	-2.95073008705E+01	-2.86303638943E+01	-1.71335959966E+02
2.09900000000E+07	-2.73523995254E+01	-9.30441224456E+01	3.73893146343E+01	-3.37378028908E+01	-4.75381293033E+01	-3.04694939374E+01	-2.86168221898E+01	-1.70702995426E+02
2.11850000000E+07	-2.75526901793E+01	-9.26612580984E+01	3.73914013009E+01	-3.42373756779E+01	-4.75968375072E+01	-3.11721827081E+01	-2.85514171313E+01	-1.70498250981E+02
2.13800000000E+07	-2.77324234381E+01	-9.24586808408E+01	3.73915818724E+01	-3.47647258691E+01	-4.75730375539E+01	-3.13113460228E+01	-2.85294094722E+01	-1.70068472370E+02
2.15750000000E+07	-2.79511058104E+01	-9.21001594143E+01	3.73901375925E+01	-3.52769195617E+01	-4.75151002482E+01	-3.21495410967E+01	-2.84228569695E+01	-1.69959927711E+02
2.17700000000E+07	-2.81296464399E+01	-9.16769908780E+01	3.73877181891E+01	-3.57845823201E+01	-4.75742193234E+01	-3.24970998812E+01	-2.83844967779E+01	-1.69749697908E+02
2.19650000000E+07	-2.83536066897E+01	-9.13135170549E+01	3.73905867230E+01	-3.63262453451E+01	-4.75288774773E+01	-3.30632350271E+01	-2.83703068996E+01	-1.68882607575E+02
2.21600000000E+07	-2.85440815881E+01	-9.10353190610E+01	3.73911033235E+01	-3.68137515426E+01	-4.76394709744E+01	-3.34094520321E+01	-2.82593492053E+01	-1.68746968982E+02
2.23550000000E+07	-2.87572469096E+01	-9.07051492446E+01	3.73892842952E+01	-3.73095526655E+01	-4.75552611696E+01	-3.41054812781E+01	-2.82204151640E+01	-1.68390071432E+02
2.25500000000E+07	-2.89435476023E+01	-9.02838226391E+01	3.73922999176E+01	-3.78160160950E+01	-4.75174678846E+01	-3.45541188886E+01	-2.82173193153E+01	-1.68266680111E+02
2.27450000000E+07	-2.91658314288E+01	-8.96363456761E+01	3.73868627901E+01	-3.83329738002E+01	-4.76249391987E+01	-3.51363424713E+01	-2.81628972455E+01	-1.67247253131E+02
2.29400000000E+07	-2.93338263507E+01	-8.93486487060E+01	3.73938357816E+01	-3.88292744864E+01	-4.75439412014E+01	-3.55432193534E+01	-2.81313564956E+01	-1.67603560777E+02
2.31350000000E+07	-2.95452266765E+01	-8.87513359234E+01	3.73948269332E+01	-3.93424873212E+01	-4.75335473555E+01	-3.56552482342E+01	-2.80374394259E+01	-1.67070885991E+02
2.33300000000E+07	-2.97499280719E+01	-8.82677499767E+01	3.73917538764E+01	-3.98604870293E+01	-4.75410055503E+01	-3.61099461302E+01	-2.79942197415E+01	-1.66775087546E+02
2.35250000000E+07	-2.99120490536E+01	-8.77614957878E+01	3.73894849852E+01	-4.03416577451E+01	-4.76349650183E+01	-3.64763213339E+01	-2.79347600031E+01	-1.66120448494E+02
2.37200000000E+07	-3.01777289190E+01	-8.71105801697E+01	3.73904473329E+01	-4.08612196577E+01	-4.75439001801E+01	-3.69922364294E+01	-2.79155675803E+01	-1.66121611647E+02
2.39150000000E+07	-3.03583451138E+01	-8.63364256037E+01	3.73915411042E+01	-4.13355536350E+01	-4.76562891072E+01	-3.77875788151E+01	-2.78633906791E+01	-1.65710622545E+02
2.41100000000E+07	-3.05713306466E+01	-8.57054093033E+01	3.73942253334E+01	-4.18313455201E+01	-4.75234744689E+01	-3.88078739961E+01	-2.77829332720E+01	-1.65380557473E+02
2.43050000000E+07	-3.07466103409E+01	-8.50178381789E+01	3.73934996095E+01	-4.23523667421E+01	-4.76285726780E+01	-3.90158915474E+01	-2.78147646384E+01	-1.65234106106E+02
2.45000000000E+07	-3.09393807025E+01	-8.42990628218E+01	3.73913983212E+01	-4.28376388700E+01	-4.75889249397E+01	-3.93313296824E+01	-2.77402080697E+01	-1.64925706772E+02
2.46950000000E+07	-3.11551866677E+01	-8.37168684136E+01	3.73913446880E+01	-4.33350822719E+01	-4.76797019935E+01	-3.96707635919E+01	-2.76757035955E+01	-1.64982302336E+02
2.48900000000E+07	-3.13751341072E+01	-8.28322526195E+01	3.73897173234E+01	-4.38248535857E+01	-4.75860120264E+01	-3.98435054437E+01	-2.76159235498E+01	-1.64503115851E+02
2.50850000000E+07	-3.15629468093E+01	-8.20075237848E+01	3.73879612339E+01	-4.43122923143E+01	-4.75305772681E+01	-4.03677095604E+01	-2.75916749840E+01	-1.63979084175E+02
2.52800000000E+07	-3.17650268515E+01	-8.09293993633E+01	3.73912840583E+01	-4.47766474825E+01	-4.76042928297E+01	-4.11760815135E+01	-2.75596882772E+01	-1.63950178452E+02
2.54750000000E+07	-3.19590600358E+01	-7.98508263839E+01	3.73901724591E+01	-4.52922674858E+01	-4.76195937293E+01	-4.12477174619E+01	-2.75142261934E+01	-1.63171509032E+02
2.56700000000E+07	-3.21496807470E+01	-7.90290844260E+01	3.73897822415E+01	-4.57941534125E+01	-4.75890730381E+01	-4.17147822239E+01	-2.74610917854E+01	-1.63251695562E+02
2.58650000000E+07	-3.23521770497E+01	-7.78860493549E+01	3.73909261568E+01	-4.62602379541E+01	-4.75785633707E+01	-4.26407768686E+01	-2.74317566923E+01	-1.63007691607E+02
2.60600000000E+07	-3.25183868657E+01	-7.70740097673E+01	3.73885516793E+01	-4.67324183918E+01	-4.75682286177E+01	-4.28987932546E+01	-2.74254480284E+01	-1.62993734840E+02
2.62550000000E+07	-3.27249687527E+01	-7.57368462728E+01	3.73895240741E+01	-4.72271292594E+01	-4.75917689652E+01	-4.31075472266E+01	-2.73197432476E+01	-1.62575320680E+02
2.64500000000E+07	-3.28880775763E+01	-7.45988487343E+01	3.73887398093E+01	-4.77056480755E+01	-4.75961711807E+01	-4.42339539263E+01	-2.73103682775E+01	-1.62352620963E+02
2.66450000000E+07	-3.30370611173E+01	-7.33014407502E+01	3.73850928027E+01	-4.81663651706E+01	-4.75491586273E+01	-4.44426239163E+01	-2.72840045162E+01	-1.62095145389E+02
2.68400000000E+07	-3.32140795035E+01	-7.19139503282E+01	3.73891998446E+01	-4.86609236776E+01	-4.76362480157E+01	-4.50761701095E+01	-2.72495112987E+01	-1.61669737148E+02
2.70350000000E+07	-3.33867346063E+01	-7.07647986487E+01	3.73898376561E+01	-4.91413017943E+01	-4.76032544544E+01	-4.53262745895E+01	-2.71856514981E+01	-1.61824312869E+02
2.72300000000E+07	-3.35029135956E+01	-6.98077833662E+01	3.73897388478E+01	-4.96255231752E+01	-4.76006548907E+01	-4.55919409296E+01	-2.71043855074E+01	-1.61449195823E+02
2.74250000000E+07	-3.36787290061E+01	-6.80486085217E+01	3.73877445286E+01	-5.01058252188E+01	-4.75283509841E+01	-4.63754835720E+01	-2.70836622186E+01	-1.61547750003E+02
2.76200000000E+07	-3.38208178794E+01	-6.67177165677E+01	3.73898617218E+01	-5.06044023121E+01	-4.75945549454E+01	-4.66098000906E+01	-2.70545859398E+01	-1.60942973484E+02
