# Hz S DB R 50
! CMT, M5045, 22160017, 22.4.3/2
! Date: 2/27/2023 00:39:40
! Data: Format (Calibration Info)
! Freq	S11:dB/Ang(F2)	S21:dB/Ang(F2)	S12:dB/Ang(F2)	S22:dB/Ang(F2)
5.00000000000E+06	-9.72403944466E+00	-7.57989243616E+01	3.63954820328E+01	3.63059198381E+01	-4.85666197920E+01	4.00677650211E+01	-1.52183570835E+01	7.18063869155E+01
5.19500000000E+06	-1.00813007775E+01	-7.67689805305E+01	3.64714979194E+01	3.41475488526E+01	-4.84846196869E+01	3.74028686698E+01	-1.58873114874E+01	7.11036793495E+01
5.39000000000E+06	-1.04183539136E+01	-7.76725475675E+01	3.65461392161E+01	3.20903321922E+01	-4.83926678765E+01	3.50315071707E+01	-1.65684893143E+01	7.05967416102E+01
5.58500000000E+06	-1.07523638566E+01	-7.85530312903E+01	3.66089638446E+01	3.01589363042E+01	-4.82681321250E+01	3.29214867047E+01	-1.72236231560E+01	7.01447545581E+01
5.78000000000E+06	-1.10820005450E+01	-7.93505120943E+01	3.66651850062E+01	2.83221613041E+01	-4.82572661358E+01	3.13804270557E+01	-1.78686703511E+01	7.00452774346E+01
5.97500000000E+06	-1.14009248114E+01	-8.00482868810E+01	3.67127146623E+01	2.65670424862E+01	-4.82271093216E+01	2.93903561707E+01	-1.85233891241E+01	7.00257702136E+01
6.17000000000E+06	-1.17023095793E+01	-8.07628937302E+01	3.67608749862E+01	2.48934303601E+01	-4.81438142078E+01	2.80136205031E+01	-1.91442355904E+01	6.99713758218E+01
6.36500000000E+06	-1.20027825922E+01	-8.14529124940E+01	3.68013382516E+01	2.32967688247E+01	-4.80878988595E+01	2.58887772869E+01	-1.97754824010E+01	7.00182362315E+01
6.56000000000E+06	-1.23026048466E+01	-8.20608617222E+01	3.68352237107E+01	2.17539066879E+01	-4.79992728479E+01	2.45732109585E+01	-2.03911146548E+01	7.03639094766E+01
6.75500000000E+06	-1.25975934391E+01	-8.26680281663E+01	3.68678783989E+01	2.02983909618E+01	-4.81147371465E+01	2.34584554355E+01	-2.10202334605E+01	7.09908961845E+01
6.95000000000E+06	-1.28857927362E+01	-8.32108833010E+01	3.68998820933E+01	1.88916079960E+01	-4.79605906731E+01	2.19079887720E+01	-2.16112951426E+01	7.14424915778E+01
7.14500000000E+06	-1.31546474436E+01	-8.37326573683E+01	3.69263130559E+01	1.75243276386E+01	-4.79605891984E+01	2.03339812196E+01	-2.22124717505E+01	7.22646454327E+01
7.34000000000E+06	-1.34212507084E+01	-8.42443895002E+01	3.69532810758E+01	1.62655360708E+01	-4.79959079979E+01	1.86713696710E+01	-2.27898071204E+01	7.29364153244E+01
7.53500000000E+06	-1.36925220718E+01	-8.47634870533E+01	3.69784201127E+01	1.49838279012E+01	-4.78829443335E+01	1.79127002391E+01	-2.33995000551E+01	7.38440813698E+01
7.73000000000E+06	-1.39595691743E+01	-8.52282514937E+01	3.69988294243E+01	1.37427627456E+01	-4.78995062184E+01	1.63482364805E+01	-2.39652532304E+01	7.50400835336E+01
7.92500000000E+06	-1.42213643738E+01	-8.56724917052E+01	3.70152404094E+01	1.25901453540E+01	-4.78801138744E+01	1.53984767907E+01	-2.45220117388E+01	7.61189266407E+01
8.12000000000E+06	-1.44824169174E+01	-8.61132206599E+01	3.70293601037E+01	1.14344503322E+01	-4.77705536134E+01	1.45038448320E+01	-2.50635238759E+01	7.74133996971E+01
8.31500000000E+06	-1.47298308026E+01	-8.65011224643E+01	3.70489776239E+01	1.03254926998E+01	-4.77729411245E+01	1.31014410051E+01	-2.56260605452E+01	7.89536231055E+01
8.51000000000E+06	-1.49815324342E+01	-8.68826033162E+01	3.70643703890E+01	9.23948554480E+00	-4.77926718968E+01	1.24374351171E+01	-2.61665248893E+01	8.10706021835E+01
8.70500000000E+06	-1.52325935225E+01	-8.72641264677E+01	3.70758476380E+01	8.20732345688E+00	-4.77319584243E+01	1.14667567174E+01	-2.66770673950E+01	8.24890689399E+01
8.90000000000E+06	-1.54778091080E+01	-8.76421650343E+01	3.70866990848E+01	7.19757462408E+00	-4.78084572863E+01	9.91815768825E+00	-2.71618055027E+01	8.43704689778E+01
9.09500000000E+06	-1.57183539200E+01	-8.80358516209E+01	3.70960083799E+01	6.19183487932E+00	-4.76803767048E+01	9.17142758924E+00	-2.76974286063E+01	8.62228871834E+01
9.29000000000E+06	-1.59597555116E+01	-8.83406732977E+01	3.71087228759E+01	5.21846659867E+00	-4.77067982508E+01	8.36283037972E+00	-2.81255923079E+01	8.88008248909E+01
9.48500000000E+06	-1.61952128858E+01	-8.86739792932E+01	3.71197195217E+01	4.26582956097E+00	-4.76544325719E+01	7.06294987371E+00	-2.86073537206E+01	9.12411953552E+01
9.68000000000E+06	-1.64323299168E+01	-8.90115541327E+01	3.71257840559E+01	3.34996121447E+00	-4.76825409645E+01	6.34864222387E+00	-2.90234889262E+01	9.37221853407E+01
9.87500000000E+06	-1.66567075296E+01	-8.93626628353E+01	3.71379244509E+01	2.44185790328E+00	-4.76814184742E+01	4.98639975853E+00	-2.94644570830E+01	9.64584262497E+01
1.00700000000E+07	-1.68873908058E+01	-8.96209982745E+01	3.71438223169E+01	1.55278959042E+00	-4.76122917478E+01	4.30535938172E+00	-2.98563131649E+01	9.93062023984E+01
1.02650000000E+07	-1.71209822958E+01	-8.99008089675E+01	3.71532648469E+01	6.93642375506E-01	-4.76457295781E+01	3.95807553976E+00	-3.00700049081E+01	1.01875916596E+02
1.04600000000E+07	-1.73408158642E+01	-9.02863644521E+01	3.71569656342E+01	-1.68545330678E-01	-4.75581275701E+01	2.72578863914E+00	-3.04621537228E+01	1.04711890681E+02
1.06550000000E+07	-1.75683668868E+01	-9.05958158061E+01	3.71629609073E+01	-1.01040660506E+00	-4.76056043922E+01	1.85587671176E+00	-3.06847297090E+01	1.07391632966E+02
1.08500000000E+07	-1.77885241231E+01	-9.08923622171E+01	3.71702386224E+01	-1.83871488187E+00	-4.76499309627E+01	4.90408210961E-01	-3.09378980422E+01	1.10779269766E+02
1.10450000000E+07	-1.80106879067E+01	-9.11588310999E+01	3.71762133908E+01	-2.67432000687E+00	-4.75906030867E+01	-2.67318653040E-02	-3.11567490981E+01	1.13561712680E+02
1.12400000000E+07	-1.82325165250E+01	-9.15101209031E+01	3.71853847080E+01	-3.46539849362E+00	-4.75960126393E+01	-7.08767587914E-01	-3.12416937718E+01	1.16448284589E+02
1.14350000000E+07	-1.84566838024E+01	-9.18103004566E+01	3.71881364557E+01	-4.27634251474E+00	-4.75946459684E+01	-1.75700066737E+00	-3.15202520601E+01	1.19289045228E+02
1.16300000000E+07	-1.86691092648E+01	-9.19845963802E+01	3.71965449829E+01	-5.06771721260E+00	-4.76045151774E+01	-1.81120552244E+00	-3.16120348849E+01	1.21899401995E+02
1.18250000000E+07	-1.88996175674E+01	-9.22868518593E+01	3.71986032386E+01	-5.87205014246E+00	-4.75419898845E+01	-3.03089551158E+00	-3.16792554736E+01	1.24703425398E+02
1.20200000000E+07	-1.91074683691E+01	-9.24484979641E+01	3.72047408007E+01	-6.62429625966E+00	-4.75658733950E+01	-4.38241695578E+00	-3.17474944274E+01	1.27094503740E+02
1.22150000000E+07	-1.93285361633E+01	-9.26931790493E+01	3.72060805168E+01	-7.38661389682E+00	-4.75712729027E+01	-4.29611447487E+00	-3.18199246343E+01	1.29555438221E+02
1.24100000000E+07	-1.95561728392E+01	-9.29638519050E+01	3.72054372748E+01	-8.13743099042E+00	-4.76058871333E+01	-5.54087461940E+00	-3.19612568151E+01	1.32542546238E+02
1.26050000000E+07	-1.97667370187E+01	-9.31301463019E+01	3.72068944320E+01	-8.83335972377E+00	-4.75763036137E+01	-6.19414408347E+00	-3.19296736513E+01	1.35786577535E+02
1.28000000000E+07	-1.99947171266E+01	-9.32693044725E+01	3.72082182745E+01	-9.52513664972E+00	-4.75608065539E+01	-6.83612004925E+00	-3.18897679879E+01	1.37588458586E+02
1.29950000000E+07	-2.02066338982E+01	-9.33554739761E+01	3.72116186364E+01	-1.02060100421E+01	-4.75021955476E+01	-7.87965140333E+00	-3.20088271417E+01	1.40710597555E+02
1.31900000000E+07	-2.04226514104E+01	-9.35265300723E+01	3.72131403486E+01	-1.08944533814E+01	-4.75176128948E+01	-8.08306184873E+00	-3.19528096795E+01	1.42683196870E+02
1.33850000000E+07	-2.06432499089E+01	-9.37014756552E+01	3.72154444807E+01	-1.15748420504E+01	-4.74952236182E+01	-9.05858268208E+00	-3.19011348854E+01	1.44769921324E+02
1.35800000000E+07	-2.08661853421E+01	-9.38522109373E+01	3.72191156600E+01	-1.22512227947E+01	-4.75252843343E+01	-9.77179634498E+00	-3.17991934314E+01	1.47056982685E+02
1.37750000000E+07	-2.10867332889E+01	-9.38194969362E+01	3.72188346898E+01	-1.28989650566E+01	-4.75636449770E+01	-1.03438505713E+01	-3.17792270588E+01	1.48448677760E+02
1.39700000000E+07	-2.12919357853E+01	-9.39911962852E+01	3.72233683336E+01	-1.35690574909E+01	-4.74513666187E+01	-1.11457738658E+01	-3.17445206840E+01	1.50647072017E+02
1.41650000000E+07	-2.15139693345E+01	-9.40465142729E+01	3.72217089594E+01	-1.41931942328E+01	-4.75239090902E+01	-1.13119774475E+01	-3.16940072327E+01	1.52506505071E+02
1.43600000000E+07	-2.17397491384E+01	-9.41194413433E+01	3.72221796218E+01	-1.48608037359E+01	-4.75187589371E+01	-1.26713990167E+01	-3.15374348088E+01	1.54595498462E+02
1.45550000000E+07	-2.19526228570E+01	-9.41433929398E+01	3.72254165773E+01	-1.54980205959E+01	-4.74497825914E+01	-1.26031543603E+01	-3.14395802318E+01	1.55682556955E+02
1.47500000000E+07	-2.21746591561E+01	-9.41585629878E+01	3.72271178216E+01	-1.61251261938E+01	-4.74910954951E+01	-1.35518165677E+01	-3.14000606603E+01	1.57213319926E+02
1.49450000000E+07	-2.24019311399E+01	-9.41633615580E+01	3.72270007185E+01	-1.67570281781E+01	-4.75465940227E+01	-1.40467033790E+01	-3.13637969529E+01	1.58879932780E+02
1.51400000000E+07	-2.26193215101E+01	-9.41895971089E+01	3.72259797815E+01	-1.73741046717E+01	-4.74731601556E+01	-1.48209638611E+01	-3.12545180540E+01	1.60226169336E+02
1.53350000000E+07	-2.28597660522E+01	-9.40729785882E+01	3.72278145116E+01	-1.80018600044E+01	-4.75070478306E+01	-1.53955454420E+01	-3.11458684251E+01	1.61116276474E+02
1.55300000000E+07	-2.30787135366E+01	-9.41574664561E+01	3.72265990730E+01	-1.86263491448E+01	-4.74721335685E+01	-1.59117547569E+01	-3.10303454035E+01	1.62020024469E+02
1.57250000000E+07	-2.32998058968E+01	-9.40202997271E+01	3.72296938558E+01	-1.92411976015E+01	-4.74627536627E+01	-1.68012292083E+01	-3.09490975292E+01	1.63356067722E+02
1.59200000000E+07	-2.35171286476E+01	-9.39719273600E+01	3.72320430300E+01	-1.98187051285E+01	-4.74547476109E+01	-1.69192281557E+01	-3.09253787086E+01	1.65015670746E+02
1.61150000000E+07	-2.37410013970E+01	-9.39731029986E+01	3.72280310527E+01	-2.04263611496E+01	-4.73944163407E+01	-1.74698168352E+01	-3.08453160832E+01	1.66090909624E+02
1.63100000000E+07	-2.39578258075E+01	-9.37452612162E+01	3.72304450107E+01	-2.10264138959E+01	-4.74994376159E+01	-1.83921074746E+01	-3.07597320818E+01	1.66630320912E+02
1.65050000000E+07	-2.41790328683E+01	-9.36049869405E+01	3.72278940375E+01	-2.16140105637E+01	-4.75116702096E+01	-1.84889432458E+01	-3.06888279189E+01	1.67902916681E+02
1.67000000000E+07	-2.44329513824E+01	-9.34954654981E+01	3.72279298219E+01	-2.22037056681E+01	-4.74565942011E+01	-1.94323862612E+01	-3.05908610643E+01	1.68307750734E+02
1.68950000000E+07	-2.46631414792E+01	-9.33268239061E+01	3.72294908094E+01	-2.27867086240E+01	-4.74848359379E+01	-1.96126223664E+01	-3.04953700294E+01	1.69335256027E+02
1.70900000000E+07	-2.48725229091E+01	-9.31909908592E+01	3.72311703075E+01	-2.33595440284E+01	-4.74711351141E+01	-2.05696564938E+01	-3.04777161555E+01	1.70598929379E+02
1.72850000000E+07	-2.51287205205E+01	-9.27851628650E+01	3.72282943894E+01	-2.39381989300E+01	-4.74944420516E+01	-2.17752837098E+01	-3.03438024304E+01	1.70932194782E+02
1.74800000000E+07	-2.53496310702E+01	-9.26846844772E+01	3.72265176930E+01	-2.45345997938E+01	-4.73905131064E+01	-2.15602470422E+01	-3.02879552395E+01	1.71751168724E+02
1.76750000000E+07	-2.55982681538E+01	-9.23732607646E+01	3.72245651294E+01	-2.50918218865E+01	-4.74685398696E+01	-2.26705027471E+01	-3.02408749757E+01	1.72606413292E+02
1.78700000000E+07	-2.58058171192E+01	-9.21491729585E+01	3.72262580670E+01	-2.56593018397E+01	-4.74319683886E+01	-2.29895418244E+01	-3.01180845281E+01	1.73058210850E+02
1.80650000000E+07	-2.60546293236E+01	-9.15565871548E+01	3.72253578900E+01	-2.62138729750E+01	-4.74665053112E+01	-2.34310349084E+01	-3.00909023855E+01	1.74104931593E+02
1.82600000000E+07	-2.63023887735E+01	-9.13522271253E+01	3.72253406966E+01	-2.67974882515E+01	-4.74139303896E+01	-2.41045610268E+01	-3.00930766226E+01	1.74308753962E+02
1.84550000000E+07	-2.65657597548E+01	-9.10511448395E+01	3.72221804639E+01	-2.73634471623E+01	-4.73634457848E+01	-2.49920343546E+01	-2.99854541554E+01	1.74619418336E+02
1.86500000000E+07	-2.67743941370E+01	-9.04499457244E+01	3.72241529692E+01	-2.78806572645E+01	-4.74382290126E+01	-2.49122518595E+01	-2.99460182156E+01	1.75461537812E+02
1.88450000000E+07	-2.70097482815E+01	-9.00968893185E+01	3.72222805089E+01	-2.84529659910E+01	-4.74086985159E+01	-2.55071115431E+01	-2.98565583371E+01	1.75973320046E+02
1.90400000000E+07	-2.72673879175E+01	-8.95463089553E+01	3.72215803575E+01	-2.89881766016E+01	-4.74202671350E+01	-2.60629858006E+01	-2.98288332600E+01	1.76863523429E+02
1.92350000000E+07	-2.75324293012E+01	-8.88949402577E+01	3.72219409133E+01	-2.95501798833E+01	-4.74476981862E+01	-2.68574524631E+01	-2.97707641844E+01	1.77357252532E+02
1.94300000000E+07	-2.77575921550E+01	-8.84738911038E+01	3.72182321387E+01	-3.00967280207E+01	-4.73498917499E+01	-2.73801245400E+01	-2.97075477522E+01	1.77777719539E+02
1.96250000000E+07	-2.80276123624E+01	-8.76102563928E+01	3.72183530279E+01	-3.06203284026E+01	-4.74280921894E+01	-2.81028038307E+01	-2.96180520996E+01	1.78328513380E+02
1.98200000000E+07	-2.82820049202E+01	-8.71773361788E+01	3.72131536304E+01	-3.11748344557E+01	-4.73771952924E+01	-2.83098513919E+01	-2.95777429773E+01	1.78899961777E+02
2.00150000000E+07	-2.84946404876E+01	-8.61810011605E+01	3.72119057953E+01	-3.17135015345E+01	-4.73915295545E+01	-2.86988163823E+01	-2.95240785168E+01	1.79380199843E+02
2.02100000000E+07	-2.87493402179E+01	-8.56299045994E+01	3.72132355746E+01	-3.22413963228E+01	-4.74074913438E+01	-2.91160523221E+01	-2.95040681959E+01	-1.79674854905E+02
2.04050000000E+07	-2.89630840885E+01	-8.48233410110E+01	3.72155584662E+01	-3.27820708074E+01	-4.73380958649E+01	-2.96308024691E+01	-2.94619429008E+01	-1.79595114165E+02
2.06000000000E+07	-2.92621678706E+01	-8.38216844266E+01	3.72127806447E+01	-3.32864822754E+01	-4.73274104474E+01	-3.03977797301E+01	-2.93006727178E+01	-1.78921343668E+02
2.07950000000E+07	-2.94727861810E+01	-8.30249611674E+01	3.72057801856E+01	-3.38352707474E+01	-4.74515305398E+01	-3.07483887865E+01	-2.94141717023E+01	-1.78046838530E+02
2.09900000000E+07	-2.97368376132E+01	-8.17423036011E+01	3.72068462925E+01	-3.43663674615E+01	-4.73917465802E+01	-3.13107960390E+01	-2.92685657084E+01	-1.78274211123E+02
2.11850000000E+07	-2.99855479132E+01	-8.07747570700E+01	3.72056913549E+01	-3.48767399439E+01	-4.73628845192E+01	-3.20274493523E+01	-2.92816662154E+01	-1.77593239009E+02
2.13800000000E+07	-3.02174710711E+01	-7.96232925240E+01	3.72000524520E+01	-3.54232060688E+01	-4.74157793997E+01	-3.20649075064E+01	-2.92574633207E+01	-1.77272198354E+02
2.15750000000E+07	-3.04437605878E+01	-7.86727542356E+01	3.72035805202E+01	-3.59246891191E+01	-4.73398210152E+01	-3.23730297156E+01	-2.91640534194E+01	-1.76652116291E+02
2.17700000000E+07	-3.06817306478E+01	-7.71318496497E+01	3.71984438680E+01	-3.64618983117E+01	-4.73876502841E+01	-3.33298718970E+01	-2.91872392898E+01	-1.76797894035E+02
2.19650000000E+07	-3.08990179797E+01	-7.58414428501E+01	3.71982018623E+01	-3.69519955867E+01	-4.74206289247E+01	-3.35627063696E+01	-2.91757348796E+01	-1.76019276066E+02
2.21600000000E+07	-3.11250755450E+01	-7.44136512699E+01	3.71973596859E+01	-3.74647028938E+01	-4.73677669774E+01	-3.42847582736E+01	-2.91143364452E+01	-1.75723290529E+02
2.23550000000E+07	-3.13644695063E+01	-7.30505084202E+01	3.71892942450E+01	-3.79982381435E+01	-4.74005119859E+01	-3.48304343249E+01	-2.90518454668E+01	-1.75156124944E+02
2.25500000000E+07	-3.15557387402E+01	-7.14766837511E+01	3.71931342929E+01	-3.84932097175E+01	-4.73942783272E+01	-3.54294115142E+01	-2.89885592993E+01	-1.74728933076E+02
2.27450000000E+07	-3.17453987616E+01	-6.97686615778E+01	3.71905754322E+01	-3.90034847256E+01	-4.73553702741E+01	-3.62414450646E+01	-2.89977371805E+01	-1.74851346430E+02
2.29400000000E+07	-3.19508548552E+01	-6.84149313893E+01	3.71884797282E+01	-3.95324084022E+01	-4.73894414516E+01	-3.63246006839E+01	-2.89420286995E+01	-1.74210042509E+02
2.31350000000E+07	-3.21102543472E+01	-6.66250781223E+01	3.71868422616E+01	-4.00207593355E+01	-4.73246818410E+01	-3.68396685088E+01	-2.89004159350E+01	-1.74129037857E+02
2.33300000000E+07	-3.23208068938E+01	-6.46953534382E+01	3.71829306653E+01	-4.05375472127E+01	-4.73494514783E+01	-3.72449668200E+01	-2.89046786761E+01	-1.73750687687E+02
2.35250000000E+07	-3.24537755375E+01	-6.26662213198E+01	3.71823401749E+01	-4.10188262967E+01	-4.73537609871E+01	-3.78169352143E+01	-2.88422088163E+01	-1.73172187481E+02
2.37200000000E+07	-3.26024314818E+01	-6.08048401084E+01	3.71796653711E+01	-4.15278491915E+01	-4.74127548005E+01	-3.84351983960E+01	-2.88162964844E+01	-1.72643365673E+02
2.39150000000E+07	-3.27278669451E+01	-5.87270316435E+01	3.71785438182E+01	-4.20337936112E+01	-4.73457461811E+01	-3.87447741481E+01	-2.88101927630E+01	-1.72519521183E+02
2.41100000000E+07	-3.28516108001E+01	-5.66322408362E+01	3.71729736595E+01	-4.25278545270E+01	-4.73949723289E+01	-3.95168922683E+01	-2.87442642628E+01	-1.72150104336E+02
2.43050000000E+07	-3.29804438108E+01	-5.49005311381E+01	3.71753282044E+01	-4.30172450536E+01	-4.72966008412E+01	-3.96941450960E+01	-2.87130619595E+01	-1.71853748659E+02
2.45000000000E+07	-3.30402521671E+01	-5.25217974956E+01	3.71725677735E+01	-4.35300442636E+01	-4.73844869770E+01	-4.03572466603E+01	-2.87073891100E+01	-1.71507378653E+02
2.46950000000E+07	-3.31295858259E+01	-5.02043609209E+01	3.71685993376E+01	-4.40050736938E+01	-4.72978171245E+01	-4.10414990140E+01	-2.86552490147E+01	-1.71340150833E+02
2.48900000000E+07	-3.32095059265E+01	-4.84715477347E+01	3.71662196685E+01	-4.45162916769E+01	-4.73443289896E+01	-4.12303253505E+01	-2.86205885063E+01	-1.70787511899E+02
2.50850000000E+07	-3.32609477357E+01	-4.64609914910E+01	3.71652140999E+01	-4.49982004986E+01	-4.72918107305E+01	-4.18992346788E+01	-2.86249124497E+01	-1.70504868313E+02
2.52800000000E+07	-3.32413030028E+01	-4.39113095669E+01	3.71630828879E+01	-4.54728708228E+01	-4.72956460512E+01	-4.22454040205E+01	-2.85554956103E+01	-1.69982292970E+02
2.54750000000E+07	-3.32495562392E+01	-4.22736849794E+01	3.71592591087E+01	-4.59836026513E+01	-4.73561343491E+01	-4.25019897281E+01	-2.85469404259E+01	-1.69734993778E+02
2.56700000000E+07	-3.32543621431E+01	-4.00508675019E+01	3.71562058951E+01	-4.64755909065E+01	-4.73448873281E+01	-4.24414791021E+01	-2.85468939991E+01	-1.69785709685E+02
2.58650000000E+07	-3.32175371261E+01	-3.79733450301E+01	3.71537726483E+01	-4.69510508238E+01	-4.73122486199E+01	-4.37505891544E+01	-2.84626212205E+01	-1.69182702760E+02
2.60600000000E+07	-3.31836701597E+01	-3.60505751320E+01	3.71525088189E+01	-4.74306731356E+01	-4.73668847338E+01	-4.40841189501E+01	-2.84465001142E+01	-1.68799654623E+02
2.62550000000E+07	-3.31062317270E+01	-3.41084025499E+01	3.71518953849E+01	-4.79172622073E+01	-4.73276041818E+01	-4.46011883160E+01	-2.84439837838E+01	-1.68904096244E+02
2.64500000000E+07	-3.30691542106E+01	-3.21837768049E+01	3.71501996901E+01	-4.84154803013E+01	-4.73070321674E+01	-4.48069830895E+01	-2.83822393382E+01	-1.68647222997E+02
2.66450000000E+07	-3.29886079948E+01	-3.03524798057E+01	3.71453091718E+01	-4.89206199872E+01	-4.73258443571E+01	-4.54719866176E+01	-2.83938552701E+01	-1.68209367061E+02
2.68400000000E+07	-3.29108176345E+01	-2.86055292622E+01	3.71413424158E+01	-4.93752399133E+01	-4.72982947145E+01	-4.56913495146E+01	-2.83066410808E+01	-1.67541995756E+02
2.70350000000E+07	-3.27798481116E+01	-2.70577338632E+01	3.71382912661E+01	-4.98507506423E+01	-4.73054885747E+01	-4.63071313356E+01	-2.83693255773E+01	-1.67676064664E+02
2.72300000000E+07	-3.26612565541E+01	-2.52965636742E+01	3.71356531971E+01	-5.03170075032E+01	-4.73171506946E+01	-4.70001695867E+01	-2.82750927897E+01	-1.67034720515E+02
2.74250000000E+07	-3.25699853068E+01	-2.39200437723E+01	3.71337357846E+01	-5.08134595059E+01	-4.72722731636E+01	-4.72586067587E+01	-2.82422772999E+01	-1.67182275961E+02
2.76200000000E+07	-3.24555524186E+01	-2.23567686752E+01	3.71309067350E+01	-5.12708460233E+01	-4.72700597001E+01	-4.73692871786E+01	-2.82700627498E+01	-1.66702558844E+02
