# Hz S DB R 50
! CMT, M5045, 22160017, 22.4.3/2
! Date: 2/26/2023 21:41:02
! Data: Format (Calibration Info)
! Freq	S11:dB/Ang(F2)	S21:dB/Ang(F2)	S12:dB/Ang(F2)	S22:dB/Ang(F2)
5.00000000000E+06	-9.79848977576E+00	-7.68937710141E+01	3.64390992493E+01	3.67452042507E+01	-4.85528730561E+01	3.92886656218E+01	-1.46594589045E+01	7.20308541416E+01
5.19500000000E+06	-1.01463417374E+01	-7.78756228908E+01	3.65202352601E+01	3.46043206105E+01	-4.84605312286E+01	3.71819667019E+01	-1.53042000379E+01	7.12425622136E+01
5.39000000000E+06	-1.04865070854E+01	-7.88505361508E+01	3.65941062091E+01	3.25401624052E+01	-4.84147014881E+01	3.52319597703E+01	-1.59451243769E+01	7.05735746149E+01
5.58500000000E+06	-1.08190288673E+01	-7.96605343579E+01	3.66573336458E+01	3.06398143932E+01	-4.83212815693E+01	3.36725304353E+01	-1.65782981707E+01	7.00580779658E+01
5.78000000000E+06	-1.11429478700E+01	-8.05089512722E+01	3.67145995546E+01	2.88017771988E+01	-4.83388097298E+01	3.16387369005E+01	-1.72028194684E+01	6.96423387351E+01
5.97500000000E+06	-1.14564901019E+01	-8.12423872436E+01	3.67671978035E+01	2.70770979158E+01	-4.81893231086E+01	2.96590317386E+01	-1.77885108490E+01	6.93734565776E+01
6.17000000000E+06	-1.17618920167E+01	-8.19647342398E+01	3.68104341575E+01	2.54107075018E+01	-4.81406642450E+01	2.86738852526E+01	-1.83667541668E+01	6.92287177552E+01
6.36500000000E+06	-1.20556820617E+01	-8.26632519156E+01	3.68547471731E+01	2.38177541269E+01	-4.81387056542E+01	2.70935096426E+01	-1.89796481171E+01	6.91452557228E+01
6.56000000000E+06	-1.23484322726E+01	-8.33251747808E+01	3.68898449717E+01	2.23002385784E+01	-4.81268380143E+01	2.52179563413E+01	-1.95407529330E+01	6.91359795437E+01
6.75500000000E+06	-1.26340996080E+01	-8.39189471513E+01	3.69265810147E+01	2.08493155862E+01	-4.80468052723E+01	2.36164188619E+01	-2.01226427656E+01	6.91565894232E+01
6.95000000000E+06	-1.29121819937E+01	-8.45073394891E+01	3.69550535202E+01	1.94417465082E+01	-4.80105766421E+01	2.28268990576E+01	-2.06856389796E+01	6.95471960631E+01
7.14500000000E+06	-1.31851389042E+01	-8.50870798112E+01	3.69845321514E+01	1.81156694454E+01	-4.80442415748E+01	2.09247754630E+01	-2.12584995098E+01	6.98751537863E+01
7.34000000000E+06	-1.34514385564E+01	-8.56025651140E+01	3.70076475853E+01	1.68211746650E+01	-4.79977071885E+01	1.95641059830E+01	-2.18100787500E+01	7.02621094042E+01
7.53500000000E+06	-1.37136086736E+01	-8.61607436339E+01	3.70359765265E+01	1.55527988240E+01	-4.79620601762E+01	1.87895761588E+01	-2.23377213477E+01	7.07418395051E+01
7.73000000000E+06	-1.39735022066E+01	-8.66853496477E+01	3.70536402420E+01	1.43451856950E+01	-4.78970326733E+01	1.74497246219E+01	-2.28762724585E+01	7.12097744692E+01
7.92500000000E+06	-1.42268586124E+01	-8.71264098386E+01	3.70739957752E+01	1.32034788635E+01	-4.79663987171E+01	1.56462607686E+01	-2.34425783920E+01	7.21625924134E+01
8.12000000000E+06	-1.44776861976E+01	-8.76330256732E+01	3.70899949005E+01	1.20614649006E+01	-4.77989188604E+01	1.46510404223E+01	-2.39583225345E+01	7.28156436359E+01
8.31500000000E+06	-1.47236097742E+01	-8.80857187173E+01	3.71104494596E+01	1.09590301953E+01	-4.78684386398E+01	1.37208215151E+01	-2.45096217388E+01	7.37086793427E+01
8.51000000000E+06	-1.49641853098E+01	-8.84859649780E+01	3.71251834774E+01	9.92145481665E+00	-4.78472179008E+01	1.27982818988E+01	-2.50347675697E+01	7.47574036865E+01
8.70500000000E+06	-1.52046095618E+01	-8.89883576687E+01	3.71392142830E+01	8.86300988262E+00	-4.78483604277E+01	1.18577357913E+01	-2.55085474717E+01	7.55452732651E+01
8.90000000000E+06	-1.54414286004E+01	-8.93860269477E+01	3.71516256762E+01	7.85990133258E+00	-4.78064494960E+01	1.04371939807E+01	-2.60172475769E+01	7.71401315153E+01
9.09500000000E+06	-1.56757764782E+01	-8.97474476433E+01	3.71638342619E+01	6.88332956088E+00	-4.77501529379E+01	9.98747930944E+00	-2.64929544846E+01	7.83301324168E+01
9.29000000000E+06	-1.59097994158E+01	-9.02281300436E+01	3.71737468724E+01	5.90077642287E+00	-4.77760202549E+01	8.75317031388E+00	-2.69925744020E+01	7.96856498401E+01
9.48500000000E+06	-1.61423811641E+01	-9.06210840705E+01	3.71874568708E+01	4.98810653267E+00	-4.77525079683E+01	8.30897215940E+00	-2.75140975520E+01	8.10474115895E+01
9.68000000000E+06	-1.63693888086E+01	-9.09831015771E+01	3.71986291105E+01	4.06444187270E+00	-4.77170323600E+01	7.54091135126E+00	-2.79895711462E+01	8.24435977688E+01
9.87500000000E+06	-1.65925661918E+01	-9.14015943718E+01	3.72093385475E+01	3.16141959771E+00	-4.77239133341E+01	6.14322183731E+00	-2.84150292776E+01	8.41261649674E+01
1.00700000000E+07	-1.68251933757E+01	-9.18029578938E+01	3.72160085128E+01	2.25937710931E+00	-4.76962792623E+01	5.24226189748E+00	-2.89751427458E+01	8.60675403361E+01
1.02650000000E+07	-1.70495429569E+01	-9.20807146016E+01	3.72246232427E+01	1.42698325048E+00	-4.77154453298E+01	4.60004898186E+00	-2.93818420147E+01	8.80505217875E+01
1.04600000000E+07	-1.72716136797E+01	-9.24604219946E+01	3.72284152506E+01	5.55891151856E-01	-4.76742011424E+01	4.11325831852E+00	-2.98866492194E+01	9.04139608734E+01
1.06550000000E+07	-1.74909704177E+01	-9.27838697874E+01	3.72373638087E+01	-2.69467582562E-01	-4.76380862807E+01	3.12694782569E+00	-3.01899972155E+01	9.28626319356E+01
1.08500000000E+07	-1.77030386286E+01	-9.30450199651E+01	3.72411044414E+01	-1.07154736544E+00	-4.76846533666E+01	1.92987977538E+00	-3.06166756653E+01	9.57528970448E+01
1.10450000000E+07	-1.79122442240E+01	-9.33606417865E+01	3.72478792109E+01	-1.87642440990E+00	-4.76628680975E+01	1.39525748408E+00	-3.08759489819E+01	9.79709392452E+01
1.12400000000E+07	-1.81145103931E+01	-9.37317256907E+01	3.72577199839E+01	-2.68916913755E+00	-4.77048221398E+01	4.10375241252E-01	-3.12022646503E+01	1.00392622900E+02
1.14350000000E+07	-1.83172824982E+01	-9.40071990163E+01	3.72630022548E+01	-3.47860800516E+00	-4.76910286732E+01	-2.52658283343E-01	-3.14339293450E+01	1.03139944449E+02
1.16300000000E+07	-1.85210881243E+01	-9.43518491804E+01	3.72690253565E+01	-4.24408225622E+00	-4.76855901203E+01	-1.21438932545E+00	-3.17993530655E+01	1.05356383867E+02
1.18250000000E+07	-1.87206527616E+01	-9.46874703716E+01	3.72745497542E+01	-5.02788449729E+00	-4.76480600617E+01	-2.22884239995E+00	-3.20288080134E+01	1.07838161774E+02
1.20200000000E+07	-1.89238810497E+01	-9.50144426117E+01	3.72813562629E+01	-5.79136741296E+00	-4.75896124778E+01	-2.78315366883E+00	-3.23443424211E+01	1.11077021477E+02
1.22150000000E+07	-1.91273836026E+01	-9.52987683778E+01	3.72849521505E+01	-6.52861464854E+00	-4.76126570735E+01	-3.94322933371E+00	-3.25277524497E+01	1.13122010183E+02
1.24100000000E+07	-1.93354499636E+01	-9.55878124515E+01	3.72842108576E+01	-7.23995024338E+00	-4.76347978470E+01	-4.71417300962E+00	-3.27272319795E+01	1.15904148084E+02
1.26050000000E+07	-1.95377466748E+01	-9.58922763607E+01	3.72875027574E+01	-7.96717670650E+00	-4.75699853263E+01	-5.15150678803E+00	-3.29432841940E+01	1.19129485999E+02
1.28000000000E+07	-1.97351444283E+01	-9.61300682007E+01	3.72898744567E+01	-8.62712170776E+00	-4.75729352622E+01	-6.07019863281E+00	-3.31343952756E+01	1.21746509090E+02
1.29950000000E+07	-1.99302063110E+01	-9.63874959260E+01	3.72962080118E+01	-9.29571823710E+00	-4.76115446569E+01	-6.61356094742E+00	-3.32929678778E+01	1.24630149623E+02
1.31900000000E+07	-2.01353183935E+01	-9.66896997912E+01	3.72994110650E+01	-9.97988894214E+00	-4.76345086919E+01	-6.89449567300E+00	-3.33351890810E+01	1.27564114651E+02
1.33850000000E+07	-2.03463014014E+01	-9.68914736134E+01	3.73022957180E+01	-1.06365674360E+01	-4.76187930517E+01	-7.44579488862E+00	-3.33945280652E+01	1.30833688329E+02
1.35800000000E+07	-2.05369075355E+01	-9.70547665050E+01	3.73077604597E+01	-1.12764054074E+01	-4.76085988801E+01	-8.48007406449E+00	-3.35358558407E+01	1.33088949886E+02
1.37750000000E+07	-2.07467848653E+01	-9.73726402907E+01	3.73071649141E+01	-1.19296494511E+01	-4.75801629760E+01	-8.97457632809E+00	-3.36443805406E+01	1.35833843985E+02
1.39700000000E+07	-2.09306424534E+01	-9.75289804303E+01	3.73129434016E+01	-1.26031457445E+01	-4.76181649820E+01	-9.40746733950E+00	-3.36296509308E+01	1.38089187187E+02
1.41650000000E+07	-2.11425906313E+01	-9.77905882518E+01	3.73201957903E+01	-1.32323927136E+01	-4.75978480684E+01	-1.03129523202E+01	-3.35539299317E+01	1.41025380574E+02
1.43600000000E+07	-2.13426929972E+01	-9.79650504846E+01	3.73172743547E+01	-1.38656313072E+01	-4.75829827793E+01	-1.08616516021E+01	-3.35951423438E+01	1.43315583275E+02
1.45550000000E+07	-2.15444296439E+01	-9.81879974241E+01	3.73238340260E+01	-1.44941753786E+01	-4.75819495697E+01	-1.19025869082E+01	-3.35754157686E+01	1.44780714356E+02
1.47500000000E+07	-2.17458053074E+01	-9.83877138654E+01	3.73273934359E+01	-1.51141456666E+01	-4.75845430382E+01	-1.25570186509E+01	-3.35100347442E+01	1.47544747139E+02
1.49450000000E+07	-2.19616953586E+01	-9.85165438683E+01	3.73247039469E+01	-1.57408784157E+01	-4.76045186780E+01	-1.29006598131E+01	-3.34502549006E+01	1.49262149922E+02
1.51400000000E+07	-2.21370916060E+01	-9.86417653477E+01	3.73277271324E+01	-1.63490455956E+01	-4.75105040274E+01	-1.33694853358E+01	-3.34075822529E+01	1.51890456168E+02
1.53350000000E+07	-2.23459449004E+01	-9.88786473207E+01	3.73324532289E+01	-1.69580852825E+01	-4.75563119724E+01	-1.37750265407E+01	-3.34090492051E+01	1.53774149616E+02
1.55300000000E+07	-2.25436179938E+01	-9.90131745461E+01	3.73342627926E+01	-1.75577795359E+01	-4.75388262805E+01	-1.45985038790E+01	-3.33504387499E+01	1.55315352438E+02
1.57250000000E+07	-2.27547258578E+01	-9.91329167657E+01	3.73339302188E+01	-1.81631903700E+01	-4.75573845375E+01	-1.53141808536E+01	-3.32706085914E+01	1.57157808155E+02
1.59200000000E+07	-2.29562531274E+01	-9.91581655953E+01	3.73380769452E+01	-1.87854994255E+01	-4.76062817951E+01	-1.59289319723E+01	-3.32023782942E+01	1.58737996068E+02
1.61150000000E+07	-2.31577410326E+01	-9.93251809026E+01	3.73409271951E+01	-1.93531715935E+01	-4.75887400444E+01	-1.66686762608E+01	-3.31234403810E+01	1.61118893881E+02
1.63100000000E+07	-2.33453555583E+01	-9.95080661202E+01	3.73426203060E+01	-1.99473354219E+01	-4.75251966518E+01	-1.69030437987E+01	-3.30454598457E+01	1.62775875845E+02
1.65050000000E+07	-2.35580297338E+01	-9.95336251982E+01	3.73407178860E+01	-2.05365063815E+01	-4.75340489213E+01	-1.77156580387E+01	-3.28913487276E+01	1.63894845402E+02
1.67000000000E+07	-2.37759663371E+01	-9.97196968823E+01	3.73444724324E+01	-2.10987032226E+01	-4.75599453014E+01	-1.82648222428E+01	-3.28330074559E+01	1.65336732718E+02
1.68950000000E+07	-2.39909066791E+01	-9.98231650932E+01	3.73460021114E+01	-2.16796454474E+01	-4.75519922208E+01	-1.90434080350E+01	-3.27578086990E+01	1.66499392392E+02
1.70900000000E+07	-2.41923018707E+01	-9.98154061174E+01	3.73496144923E+01	-2.22406059041E+01	-4.75823950567E+01	-1.95288040874E+01	-3.27185518290E+01	1.67854447254E+02
1.72850000000E+07	-2.44073422964E+01	-9.98561249567E+01	3.73481404185E+01	-2.28137930531E+01	-4.76121247130E+01	-2.01500182822E+01	-3.26156732459E+01	1.69191038062E+02
1.74800000000E+07	-2.45924198166E+01	-1.00031904014E+02	3.73494515445E+01	-2.33759012064E+01	-4.75513933882E+01	-2.06102629825E+01	-3.24591780419E+01	1.70324954028E+02
1.76750000000E+07	-2.48134904347E+01	-9.99544339653E+01	3.73506059816E+01	-2.39245297991E+01	-4.75465486027E+01	-2.04287587290E+01	-3.24141837783E+01	1.72062868197E+02
1.78700000000E+07	-2.50150121469E+01	-1.00058730985E+02	3.73542395231E+01	-2.44950065969E+01	-4.75817775649E+01	-2.12629502021E+01	-3.23759764107E+01	1.72864425443E+02
1.80650000000E+07	-2.52346969717E+01	-1.00016166962E+02	3.73558681576E+01	-2.50422870653E+01	-4.76038241285E+01	-2.19105350603E+01	-3.22592619000E+01	1.73859370833E+02
1.82600000000E+07	-2.54555856366E+01	-9.99967434736E+01	3.73546605212E+01	-2.55873675002E+01	-4.75407029383E+01	-2.20885722940E+01	-3.21212739056E+01	1.75031788724E+02
1.84550000000E+07	-2.56733496144E+01	-9.99900976186E+01	3.73579169277E+01	-2.61566202614E+01	-4.75227448232E+01	-2.30830633806E+01	-3.19866785025E+01	1.75933836496E+02
1.86500000000E+07	-2.58748990225E+01	-9.99635407474E+01	3.73575421761E+01	-2.67058808927E+01	-4.75254462321E+01	-2.32986016037E+01	-3.19069771702E+01	1.77273148894E+02
1.88450000000E+07	-2.60945127773E+01	-9.99430986511E+01	3.73592093246E+01	-2.72293440452E+01	-4.75667708578E+01	-2.41542131719E+01	-3.18768384284E+01	1.77699555888E+02
1.90400000000E+07	-2.63191169925E+01	-9.98677503406E+01	3.73583319030E+01	-2.77864344186E+01	-4.75115240281E+01	-2.43321672584E+01	-3.18317868547E+01	1.79116485382E+02
1.92350000000E+07	-2.65625532694E+01	-9.98882005866E+01	3.73594666677E+01	-2.83368853905E+01	-4.75621940297E+01	-2.50406154288E+01	-3.16695323992E+01	1.79357410875E+02
1.94300000000E+07	-2.67755781458E+01	-9.96453567350E+01	3.73637821065E+01	-2.88587296810E+01	-4.75941403998E+01	-2.59683857616E+01	-3.16568201544E+01	-1.79844395299E+02
1.96250000000E+07	-2.69906511389E+01	-9.95476112699E+01	3.73619744983E+01	-2.93853744130E+01	-4.75708898015E+01	-2.59649117509E+01	-3.15703756755E+01	-1.78607161314E+02
1.98200000000E+07	-2.72107992358E+01	-9.94459091457E+01	3.73630766509E+01	-2.99460404747E+01	-4.75110253646E+01	-2.68628393966E+01	-3.14503218986E+01	-1.78093804959E+02
2.00150000000E+07	-2.74674019624E+01	-9.93159792848E+01	3.73642534307E+01	-3.04730744128E+01	-4.75365777265E+01	-2.77086033747E+01	-3.13863073804E+01	-1.77865224981E+02
2.02100000000E+07	-2.76709617413E+01	-9.91567047957E+01	3.73643942914E+01	-3.09983847907E+01	-4.75468410740E+01	-2.80257775013E+01	-3.13797509915E+01	-1.76625402199E+02
2.04050000000E+07	-2.79108883220E+01	-9.89584868265E+01	3.73629439824E+01	-3.15105685706E+01	-4.75651825599E+01	-2.85846466685E+01	-3.12540528274E+01	-1.75930868454E+02
2.06000000000E+07	-2.81394085338E+01	-9.87452948830E+01	3.73641558504E+01	-3.20424524783E+01	-4.75507244633E+01	-2.90428682052E+01	-3.11451276286E+01	-1.75491588467E+02
2.07950000000E+07	-2.83805852689E+01	-9.85479438141E+01	3.73663297400E+01	-3.25491476153E+01	-4.76273802501E+01	-2.93310800762E+01	-3.10426346140E+01	-1.74546923611E+02
2.09900000000E+07	-2.86224376798E+01	-9.81792125318E+01	3.73682227285E+01	-3.30798387091E+01	-4.75191124013E+01	-2.98330971928E+01	-3.09557482885E+01	-1.73726062281E+02
2.11850000000E+07	-2.88615040508E+01	-9.79661808182E+01	3.73654784735E+01	-3.36131310096E+01	-4.75410971251E+01	-3.03754338708E+01	-3.09247833005E+01	-1.72991067514E+02
2.13800000000E+07	-2.90982967738E+01	-9.75674455745E+01	3.73665870692E+01	-3.40949843367E+01	-4.75628513666E+01	-3.06039550266E+01	-3.08859668401E+01	-1.72669963105E+02
2.15750000000E+07	-2.93296287724E+01	-9.71750003277E+01	3.73674192562E+01	-3.46239491879E+01	-4.75674171445E+01	-3.14002231503E+01	-3.08234716087E+01	-1.72322779888E+02
2.17700000000E+07	-2.95772698881E+01	-9.68270506100E+01	3.73665615544E+01	-3.51243453137E+01	-4.75607370805E+01	-3.16921610125E+01	-3.07414793529E+01	-1.71688921841E+02
2.19650000000E+07	-2.98518278834E+01	-9.64627033844E+01	3.73700369522E+01	-3.56485842937E+01	-4.74807685155E+01	-3.18730480673E+01	-3.05730657644E+01	-1.70956823603E+02
2.21600000000E+07	-3.01052478710E+01	-9.58871493972E+01	3.73657074100E+01	-3.61454305015E+01	-4.75227156473E+01	-3.23834712146E+01	-3.05472593452E+01	-1.70248581927E+02
2.23550000000E+07	-3.03544445022E+01	-9.54186747838E+01	3.73670266473E+01	-3.66654153860E+01	-4.75799929938E+01	-3.31932364635E+01	-3.05446917889E+01	-1.70076487373E+02
2.25500000000E+07	-3.05946940250E+01	-9.50098392176E+01	3.73696781326E+01	-3.71577580186E+01	-4.75556852285E+01	-3.31323662064E+01	-3.04031531867E+01	-1.69117978174E+02
2.27450000000E+07	-3.08493213384E+01	-9.44758738501E+01	3.73681760372E+01	-3.76608468592E+01	-4.76501579089E+01	-3.41118451159E+01	-3.03466539359E+01	-1.68952943760E+02
2.29400000000E+07	-3.10530311280E+01	-9.38344200245E+01	3.73708402627E+01	-3.81658934949E+01	-4.75677231265E+01	-3.43810909247E+01	-3.02952148952E+01	-1.68211834254E+02
2.31350000000E+07	-3.13567040113E+01	-9.32150090232E+01	3.73697481273E+01	-3.86883715375E+01	-4.75733105608E+01	-3.54103596740E+01	-3.02451155426E+01	-1.67770027482E+02
2.33300000000E+07	-3.16225816485E+01	-9.23235833303E+01	3.73693079508E+01	-3.91890667980E+01	-4.75821253054E+01	-3.59296489304E+01	-3.01776943548E+01	-1.66807629926E+02
2.35250000000E+07	-3.18744761709E+01	-9.15398251819E+01	3.73710734294E+01	-3.96692624105E+01	-4.75904518712E+01	-3.61484219466E+01	-3.00794925319E+01	-1.66912092513E+02
2.37200000000E+07	-3.21235918562E+01	-9.09217816982E+01	3.73665948967E+01	-4.01608895942E+01	-4.75749682753E+01	-3.66713859712E+01	-3.00306825129E+01	-1.66351869736E+02
2.39150000000E+07	-3.24141633936E+01	-8.97792963126E+01	3.73694981680E+01	-4.06645426973E+01	-4.75800259912E+01	-3.73804782569E+01	-3.00221624881E+01	-1.65649312632E+02
2.41100000000E+07	-3.26889288196E+01	-8.90967404748E+01	3.73704897468E+01	-4.11422637868E+01	-4.75334156334E+01	-3.75108557699E+01	-2.99718487277E+01	-1.65611772867E+02
2.43050000000E+07	-3.29344760575E+01	-8.80934057810E+01	3.73686206394E+01	-4.16683556937E+01	-4.76224286749E+01	-3.81068478225E+01	-2.98813109614E+01	-1.65139145979E+02
2.45000000000E+07	-3.32116379714E+01	-8.68943318340E+01	3.73698060114E+01	-4.21598800014E+01	-4.75876009348E+01	-3.85439895168E+01	-2.97993549177E+01	-1.64742996932E+02
2.46950000000E+07	-3.34714596097E+01	-8.58471161842E+01	3.73703423206E+01	-4.26429789187E+01	-4.75885893763E+01	-3.88327422265E+01	-2.97579578767E+01	-1.64230475387E+02
2.48900000000E+07	-3.37932793691E+01	-8.44932276045E+01	3.73714428965E+01	-4.31547684783E+01	-4.75092768938E+01	-3.94019050524E+01	-2.96746319172E+01	-1.63990440573E+02
2.50850000000E+07	-3.40029187347E+01	-8.31082216154E+01	3.73688538361E+01	-4.36079050640E+01	-4.74869843950E+01	-3.99769885684E+01	-2.95899255979E+01	-1.63280452245E+02
2.52800000000E+07	-3.42904492446E+01	-8.19006322785E+01	3.73688505484E+01	-4.40968303842E+01	-4.75417723768E+01	-4.03100509020E+01	-2.95796025709E+01	-1.62898361149E+02
2.54750000000E+07	-3.45125695445E+01	-8.02916953590E+01	3.73679341996E+01	-4.45978910581E+01	-4.75542012042E+01	-4.10487101257E+01	-2.95306548887E+01	-1.61928513412E+02
2.56700000000E+07	-3.48448006500E+01	-7.89167482165E+01	3.73701092532E+01	-4.50668963445E+01	-4.75059510804E+01	-4.09087431411E+01	-2.94420586479E+01	-1.62608072617E+02
2.58650000000E+07	-3.49948258146E+01	-7.75156924222E+01	3.73702080683E+01	-4.55717329191E+01	-4.75609444744E+01	-4.17342236988E+01	-2.94153552111E+01	-1.62056010060E+02
2.60600000000E+07	-3.52395892329E+01	-7.57618897616E+01	3.73695777926E+01	-4.60302337828E+01	-4.76235568145E+01	-4.22989109292E+01	-2.92973332357E+01	-1.61332357835E+02
2.62550000000E+07	-3.54336635585E+01	-7.36743461740E+01	3.73675736950E+01	-4.65240317545E+01	-4.75941735019E+01	-4.28697394636E+01	-2.92950154016E+01	-1.61022873324E+02
2.64500000000E+07	-3.57510592981E+01	-7.15575922853E+01	3.73684230703E+01	-4.70086113799E+01	-4.75435385226E+01	-4.27779419753E+01	-2.92200834124E+01	-1.60607440537E+02
2.66450000000E+07	-3.58907635241E+01	-6.95116961659E+01	3.73702684185E+01	-4.74674609028E+01	-4.75746153426E+01	-4.38588403623E+01	-2.91915498197E+01	-1.60624479298E+02
2.68400000000E+07	-3.61401289041E+01	-6.78921287856E+01	3.73693728473E+01	-4.79651365266E+01	-4.75718875684E+01	-4.42764898886E+01	-2.90888076040E+01	-1.60245993173E+02
2.70350000000E+07	-3.62636374150E+01	-6.58593146649E+01	3.73646802992E+01	-4.84365421642E+01	-4.76610290376E+01	-4.43909397789E+01	-2.90655853085E+01	-1.59980588098E+02
2.72300000000E+07	-3.64212691537E+01	-6.32299702526E+01	3.73703433523E+01	-4.89201911541E+01	-4.75718097268E+01	-4.48667835153E+01	-2.89660389301E+01	-1.59430643433E+02
2.74250000000E+07	-3.65822960488E+01	-6.06059922577E+01	3.73691650436E+01	-4.93889440659E+01	-4.75332889853E+01	-4.54200611295E+01	-2.88958516327E+01	-1.59400865491E+02
2.76200000000E+07	-3.67549036209E+01	-5.87297657411E+01	3.73670946623E+01	-4.98752163107E+01	-4.75669025308E+01	-4.59727196365E+01	-2.88565221663E+01	-1.58878744076E+02
