# Hz S DB R 50
! CMT, M5045, 22160017, 22.3.3/2
! Date: 10/8/2022 18:49:44
! Data: Format (Calibration Info)
! Freq	S11:dB/Ang(F2)	S21:dB/Ang(F2)	S12:dB/Ang(F2)	S22:dB/Ang(F2)
5.00000000000E+06	-1.00332254240E+01	-9.27134044150E+01	3.64253899962E+01	-1.49802425030E+02	-4.84802893313E+01	-1.46949099964E+02	-1.41959751157E+01	6.73796841796E+01
5.19500000000E+06	-1.03640434011E+01	-9.41989498908E+01	3.65033949098E+01	-1.52067243037E+02	-4.84063920199E+01	-1.49249880973E+02	-1.47708420831E+01	6.61321732885E+01
5.39000000000E+06	-1.06847513607E+01	-9.56232295870E+01	3.65671355966E+01	-1.54221919986E+02	-4.83376615564E+01	-1.51442915953E+02	-1.53343283652E+01	6.49948996531E+01
5.58500000000E+06	-1.09924029275E+01	-9.70250816814E+01	3.66251688358E+01	-1.56298284585E+02	-4.82706384957E+01	-1.53496316599E+02	-1.58859779096E+01	6.39374981029E+01
5.78000000000E+06	-1.12882942533E+01	-9.83768671404E+01	3.66783953473E+01	-1.58276056413E+02	-4.82139194480E+01	-1.55493232842E+02	-1.64290822642E+01	6.29596964557E+01
5.97500000000E+06	-1.15845015418E+01	-9.96666470903E+01	3.67183895025E+01	-1.60124311113E+02	-4.81697577587E+01	-1.57377079411E+02	-1.69624734709E+01	6.20242729133E+01
6.17000000000E+06	-1.18525333312E+01	-1.00908015896E+02	3.67660419174E+01	-1.61936257891E+02	-4.81149620377E+01	-1.59179484535E+02	-1.74870932708E+01	6.11849240308E+01
6.36500000000E+06	-1.21266733277E+01	-1.02127258777E+02	3.68032521771E+01	-1.63678880339E+02	-4.80797294025E+01	-1.60887113700E+02	-1.80056150721E+01	6.03824835476E+01
6.56000000000E+06	-1.23923061655E+01	-1.03351169549E+02	3.68345549044E+01	-1.65338752377E+02	-4.80336644267E+01	-1.62526721304E+02	-1.85166342326E+01	5.96337410884E+01
6.75500000000E+06	-1.26462876838E+01	-1.04447576509E+02	3.68629809043E+01	-1.66934294312E+02	-4.80069189198E+01	-1.64142472485E+02	-1.90207931802E+01	5.89221118533E+01
6.95000000000E+06	-1.28892834857E+01	-1.05585045107E+02	3.68916181821E+01	-1.68475464375E+02	-4.79680037488E+01	-1.65682062426E+02	-1.95244497011E+01	5.82604412144E+01
7.14500000000E+06	-1.31314525746E+01	-1.06704895464E+02	3.69146560391E+01	-1.69940912341E+02	-4.79410783317E+01	-1.67154543330E+02	-2.00224296490E+01	5.76400946456E+01
7.34000000000E+06	-1.33667583835E+01	-1.07778547641E+02	3.69365410241E+01	-1.71377981652E+02	-4.79098892571E+01	-1.68642186335E+02	-2.05152637234E+01	5.70295247451E+01
7.53500000000E+06	-1.35877205090E+01	-1.08857537336E+02	3.69632393330E+01	-1.72803887291E+02	-4.78914270146E+01	-1.70008308301E+02	-2.10031241992E+01	5.65007368618E+01
7.73000000000E+06	-1.38081652992E+01	-1.09921875725E+02	3.69797062553E+01	-1.74156685769E+02	-4.78663460654E+01	-1.71371093913E+02	-2.14923461559E+01	5.59577551617E+01
7.92500000000E+06	-1.40237335922E+01	-1.10950163910E+02	3.69978231401E+01	-1.75472308033E+02	-4.78409872834E+01	-1.72710729566E+02	-2.19834390119E+01	5.54454523945E+01
8.12000000000E+06	-1.42337398488E+01	-1.11958587357E+02	3.70073693523E+01	-1.76769237409E+02	-4.78143519376E+01	-1.73950282985E+02	-2.24732814799E+01	5.49944069226E+01
8.31500000000E+06	-1.44470082609E+01	-1.12961407190E+02	3.70211993309E+01	-1.78012587652E+02	-4.78071518304E+01	-1.75209717891E+02	-2.29615920353E+01	5.45639801631E+01
8.51000000000E+06	-1.46433683236E+01	-1.13945556683E+02	3.70387369743E+01	-1.79238572141E+02	-4.77875669055E+01	-1.76443038927E+02	-2.34568746807E+01	5.41200217666E+01
8.70500000000E+06	-1.48286962588E+01	-1.14915608745E+02	3.70519561455E+01	1.79569813212E+02	-4.77790250845E+01	-1.77620319914E+02	-2.39478411980E+01	5.37321526384E+01
8.90000000000E+06	-1.50216749656E+01	-1.15823277523E+02	3.70624822172E+01	1.78439209579E+02	-4.77587938215E+01	-1.78800228063E+02	-2.44446377177E+01	5.33462427895E+01
9.09500000000E+06	-1.52157784609E+01	-1.16842209202E+02	3.70724227223E+01	1.77276810882E+02	-4.77455322814E+01	-1.79935025222E+02	-2.49448251823E+01	5.30035806740E+01
9.29000000000E+06	-1.53973924290E+01	-1.17840272442E+02	3.70807595558E+01	1.76142271142E+02	-4.77289274009E+01	1.78965542626E+02	-2.54520795600E+01	5.26651809634E+01
9.48500000000E+06	-1.55665906941E+01	-1.18755926549E+02	3.70929465084E+01	1.75058058162E+02	-4.77170615315E+01	1.77894132533E+02	-2.59638372274E+01	5.23529397214E+01
9.68000000000E+06	-1.57497085718E+01	-1.19739490470E+02	3.70975698654E+01	1.73975273823E+02	-4.77134177827E+01	1.76849611602E+02	-2.64854365834E+01	5.20717901171E+01
9.87500000000E+06	-1.59262410488E+01	-1.20652927066E+02	3.71082405266E+01	1.72925720346E+02	-4.77032154297E+01	1.75703624505E+02	-2.70096947048E+01	5.18047437055E+01
1.00700000000E+07	-1.61055814312E+01	-1.21553231529E+02	3.71133320367E+01	1.71912889223E+02	-4.76903914993E+01	1.74706571167E+02	-2.75703472729E+01	5.14257941892E+01
1.02650000000E+07	-1.62662053797E+01	-1.22549007999E+02	3.71171296517E+01	1.70882497457E+02	-4.76832872759E+01	1.73710761193E+02	-2.81339346948E+01	5.13170460235E+01
1.04600000000E+07	-1.64310373808E+01	-1.23438537946E+02	3.71263688438E+01	1.69890495817E+02	-4.76818302254E+01	1.72684029888E+02	-2.87112985643E+01	5.11673798261E+01
1.06550000000E+07	-1.65918363527E+01	-1.24357403060E+02	3.71301318961E+01	1.68882072315E+02	-4.76700989199E+01	1.71728835938E+02	-2.92999227249E+01	5.10517394735E+01
1.08500000000E+07	-1.67550168352E+01	-1.25199083898E+02	3.71349088011E+01	1.67906434452E+02	-4.76598373662E+01	1.70707628812E+02	-2.99062150665E+01	5.10305659182E+01
1.10450000000E+07	-1.69026430700E+01	-1.26182846976E+02	3.71399087267E+01	1.66937784416E+02	-4.76561522722E+01	1.69758768834E+02	-3.05248233790E+01	5.10111992370E+01
1.12400000000E+07	-1.70663778325E+01	-1.27034834200E+02	3.71478413673E+01	1.65990191451E+02	-4.76477811908E+01	1.68792764355E+02	-3.11608872467E+01	5.11258599294E+01
1.14350000000E+07	-1.72167017250E+01	-1.27869626881E+02	3.71507824442E+01	1.65066054766E+02	-4.76402974661E+01	1.67831160283E+02	-3.18374312417E+01	5.12587123482E+01
1.16300000000E+07	-1.73549778544E+01	-1.28889694358E+02	3.71545835020E+01	1.64106714001E+02	-4.76367556730E+01	1.66870132983E+02	-3.25274519516E+01	5.14487921642E+01
1.18250000000E+07	-1.75116285616E+01	-1.29718861379E+02	3.71602380687E+01	1.63173063144E+02	-4.76332530706E+01	1.65898170174E+02	-3.32453220041E+01	5.17448254313E+01
1.20200000000E+07	-1.76475788491E+01	-1.30654740729E+02	3.71636087728E+01	1.62229030418E+02	-4.76240380562E+01	1.64989040999E+02	-3.40082824555E+01	5.20471180755E+01
1.22150000000E+07	-1.77864369614E+01	-1.31461590920E+02	3.71649266084E+01	1.61332711988E+02	-4.76220501342E+01	1.64073376299E+02	-3.48150272916E+01	5.26215971801E+01
1.24100000000E+07	-1.79375248958E+01	-1.32357146437E+02	3.71675554601E+01	1.60440933804E+02	-4.76138032146E+01	1.63144871355E+02	-3.56628593910E+01	5.33391742618E+01
1.26050000000E+07	-1.80704911849E+01	-1.33295548334E+02	3.71691083228E+01	1.59573056076E+02	-4.76098771139E+01	1.62241081063E+02	-3.65899125630E+01	5.42133558195E+01
1.28000000000E+07	-1.82149084002E+01	-1.34125748147E+02	3.71679815539E+01	1.58719367460E+02	-4.76114419151E+01	1.61362034155E+02	-3.75714478930E+01	5.53446797283E+01
1.29950000000E+07	-1.83359799834E+01	-1.34974212270E+02	3.71760214733E+01	1.57895522966E+02	-4.76055373562E+01	1.60477361137E+02	-3.86462630943E+01	5.70520059305E+01
1.31900000000E+07	-1.84757578107E+01	-1.35769374306E+02	3.71770128566E+01	1.57049450843E+02	-4.76051714444E+01	1.59641998735E+02	-3.98352018606E+01	5.91111701679E+01
1.33850000000E+07	-1.86099595793E+01	-1.36630952050E+02	3.71785091862E+01	1.56222681073E+02	-4.75982471033E+01	1.58782440102E+02	-4.11163666845E+01	6.20503946864E+01
1.35800000000E+07	-1.87367041958E+01	-1.37478777893E+02	3.71823638244E+01	1.55400511923E+02	-4.75971165235E+01	1.57988974759E+02	-4.25366149361E+01	6.60697355078E+01
1.37750000000E+07	-1.88721352189E+01	-1.38203829637E+02	3.71833822475E+01	1.54576762045E+02	-4.75960320679E+01	1.57093747646E+02	-4.41133779450E+01	7.16162642392E+01
1.39700000000E+07	-1.89901256115E+01	-1.39080471817E+02	3.71860230314E+01	1.53769203966E+02	-4.75946539724E+01	1.56296270853E+02	-4.57608798258E+01	8.02073230636E+01
1.41650000000E+07	-1.91173994562E+01	-1.39875378853E+02	3.71863204630E+01	1.52947326541E+02	-4.75916299566E+01	1.55503500201E+02	-4.74538188043E+01	9.25888400047E+01
1.43600000000E+07	-1.92436220839E+01	-1.40568414237E+02	3.71914413267E+01	1.52161817278E+02	-4.75875158242E+01	1.54694602522E+02	-4.87330886915E+01	1.09265665326E+02
1.45550000000E+07	-1.93585301621E+01	-1.41420318059E+02	3.71924465745E+01	1.51358385985E+02	-4.75885557887E+01	1.53896947552E+02	-4.91433194558E+01	1.29848348370E+02
1.47500000000E+07	-1.94746283624E+01	-1.42270248737E+02	3.71976577416E+01	1.50569524433E+02	-4.75852784257E+01	1.53101212477E+02	-4.83946569524E+01	1.48696971591E+02
1.49450000000E+07	-1.95969554110E+01	-1.43009049219E+02	3.71973135730E+01	1.49763647499E+02	-4.75835862013E+01	1.52320649330E+02	-4.71099402385E+01	1.63695988858E+02
1.51400000000E+07	-1.97199555781E+01	-1.43776267811E+02	3.71975244642E+01	1.49000785534E+02	-4.75813293704E+01	1.51521983677E+02	-4.56186469481E+01	1.73398902254E+02
1.53350000000E+07	-1.98298936724E+01	-1.44543613701E+02	3.71969376627E+01	1.48211914733E+02	-4.75801346352E+01	1.50799623666E+02	-4.41704882819E+01	-1.79562521209E+02
1.55300000000E+07	-1.99552920292E+01	-1.45301505557E+02	3.72000106841E+01	1.47466804980E+02	-4.75795385560E+01	1.50039418069E+02	-4.29010866856E+01	-1.74726673782E+02
1.57250000000E+07	-2.00538024293E+01	-1.46004906971E+02	3.72019284438E+01	1.46690573159E+02	-4.75777107252E+01	1.49233207379E+02	-4.17502112836E+01	-1.71441354355E+02
1.59200000000E+07	-2.01754331191E+01	-1.46758865587E+02	3.72035123878E+01	1.45913166731E+02	-4.75786539374E+01	1.48514416578E+02	-4.07356162754E+01	-1.68859684793E+02
1.61150000000E+07	-2.02808793514E+01	-1.47545215593E+02	3.72057318911E+01	1.45173074515E+02	-4.75759234587E+01	1.47770801274E+02	-3.98199940841E+01	-1.66945814836E+02
1.63100000000E+07	-2.03902228342E+01	-1.48260283906E+02	3.72081586386E+01	1.44419853016E+02	-4.75713297857E+01	1.46987820929E+02	-3.90334531563E+01	-1.65386041675E+02
1.65050000000E+07	-2.05045625358E+01	-1.49074176011E+02	3.72044743416E+01	1.43662618396E+02	-4.75707030067E+01	1.46261413607E+02	-3.82568853784E+01	-1.64172004699E+02
1.67000000000E+07	-2.06118172602E+01	-1.49708075556E+02	3.72080882477E+01	1.42914614929E+02	-4.75674709773E+01	1.45525181932E+02	-3.75640015867E+01	-1.63361790645E+02
1.68950000000E+07	-2.07074096280E+01	-1.50411439139E+02	3.72107896210E+01	1.42150277775E+02	-4.75680357016E+01	1.44796690916E+02	-3.69315839441E+01	-1.62714509049E+02
1.70900000000E+07	-2.07963337581E+01	-1.51135233738E+02	3.72149171311E+01	1.41415632611E+02	-4.75645962017E+01	1.44057611362E+02	-3.63535569567E+01	-1.62178244146E+02
1.72850000000E+07	-2.09153167139E+01	-1.51744432857E+02	3.72118107514E+01	1.40702243112E+02	-4.75663892076E+01	1.43318231059E+02	-3.58203260954E+01	-1.61837015808E+02
1.74800000000E+07	-2.10139128028E+01	-1.52500082054E+02	3.72150105905E+01	1.39976525173E+02	-4.75690280006E+01	1.42590332468E+02	-3.53318387702E+01	-1.61519343589E+02
1.76750000000E+07	-2.11165003987E+01	-1.53267938407E+02	3.72132814001E+01	1.39222071622E+02	-4.75651614780E+01	1.41899826313E+02	-3.48771449287E+01	-1.61343538919E+02
1.78700000000E+07	-2.12203382992E+01	-1.53946062208E+02	3.72181899834E+01	1.38474529786E+02	-4.75647915945E+01	1.41193368879E+02	-3.44468255795E+01	-1.61250095276E+02
1.80650000000E+07	-2.13030563591E+01	-1.54649422084E+02	3.72196843641E+01	1.37742147008E+02	-4.75639629978E+01	1.40487273146E+02	-3.40498148228E+01	-1.61149520894E+02
1.82600000000E+07	-2.14133445017E+01	-1.55296993951E+02	3.72171685375E+01	1.37035740077E+02	-4.75643257202E+01	1.39770679344E+02	-3.36579104808E+01	-1.61117362319E+02
1.84550000000E+07	-2.14993726621E+01	-1.55930209697E+02	3.72207541680E+01	1.36308828059E+02	-4.75638050557E+01	1.39053648874E+02	-3.32963414283E+01	-1.61104849463E+02
1.86500000000E+07	-2.15907017259E+01	-1.56576888441E+02	3.72181294465E+01	1.35613573964E+02	-4.75623561528E+01	1.38378566758E+02	-3.29560842779E+01	-1.61224778843E+02
1.88450000000E+07	-2.16949324431E+01	-1.57257862168E+02	3.72179068204E+01	1.34891706062E+02	-4.75600336970E+01	1.37644900120E+02	-3.26285384157E+01	-1.61280189537E+02
1.90400000000E+07	-2.17854096725E+01	-1.57956152139E+02	3.72212402388E+01	1.34177892200E+02	-4.75576239039E+01	1.36961155394E+02	-3.23275979523E+01	-1.61388482960E+02
1.92350000000E+07	-2.18660104267E+01	-1.58506693836E+02	3.72232984098E+01	1.33467646482E+02	-4.75588724665E+01	1.36275398681E+02	-3.20180547269E+01	-1.61523821818E+02
1.94300000000E+07	-2.19434669895E+01	-1.59240996395E+02	3.72238639674E+01	1.32767865811E+02	-4.75554382271E+01	1.35591492908E+02	-3.17466855976E+01	-1.61641748768E+02
1.96250000000E+07	-2.20405764921E+01	-1.59899933111E+02	3.72239018808E+01	1.32034017103E+02	-4.75541527831E+01	1.34897261316E+02	-3.14680763205E+01	-1.61831130043E+02
1.98200000000E+07	-2.21490035708E+01	-1.60545002274E+02	3.72235475141E+01	1.31347356727E+02	-4.75546655435E+01	1.34188534302E+02	-3.12138913009E+01	-1.62030230478E+02
2.00150000000E+07	-2.22141088240E+01	-1.61169133180E+02	3.72256141668E+01	1.30631000571E+02	-4.75573677958E+01	1.33507049111E+02	-3.09608029903E+01	-1.62266234724E+02
2.02100000000E+07	-2.23183554177E+01	-1.61845068731E+02	3.72218774112E+01	1.29927361171E+02	-4.75569829806E+01	1.32842857004E+02	-3.07225595737E+01	-1.62429769575E+02
2.04050000000E+07	-2.23842026513E+01	-1.62422256457E+02	3.72266570437E+01	1.29244105093E+02	-4.75572988489E+01	1.32188659800E+02	-3.04934324268E+01	-1.62727580547E+02
2.06000000000E+07	-2.24805466667E+01	-1.63115792264E+02	3.72254833157E+01	1.28545361559E+02	-4.75552253153E+01	1.31469733634E+02	-3.02707717931E+01	-1.62944925132E+02
2.07950000000E+07	-2.25509128821E+01	-1.63766949055E+02	3.72299218689E+01	1.27829154729E+02	-4.75546172576E+01	1.30778110579E+02	-3.00566945414E+01	-1.63244112373E+02
2.09900000000E+07	-2.26462150101E+01	-1.64396252144E+02	3.72265782929E+01	1.27186865520E+02	-4.75533711045E+01	1.30135141556E+02	-2.98424018019E+01	-1.63491253758E+02
2.11850000000E+07	-2.27247548804E+01	-1.64944241260E+02	3.72278207343E+01	1.26473014267E+02	-4.75548523617E+01	1.29449661117E+02	-2.96471916669E+01	-1.63756502750E+02
2.13800000000E+07	-2.28104227705E+01	-1.65523127411E+02	3.72254097730E+01	1.25780661093E+02	-4.75534066255E+01	1.28780017992E+02	-2.94574335142E+01	-1.64101944151E+02
2.15750000000E+07	-2.28875254833E+01	-1.66124658959E+02	3.72284135863E+01	1.25089860614E+02	-4.75500347758E+01	1.28121270431E+02	-2.92682049224E+01	-1.64385471010E+02
2.17700000000E+07	-2.29552585449E+01	-1.66748128700E+02	3.72269163388E+01	1.24419677980E+02	-4.75499858684E+01	1.27470578519E+02	-2.90896947690E+01	-1.64678238432E+02
2.19650000000E+07	-2.30418753116E+01	-1.67351106823E+02	3.72298649946E+01	1.23739258854E+02	-4.75537926057E+01	1.26808942232E+02	-2.89159716664E+01	-1.65006332891E+02
2.21600000000E+07	-2.31116988472E+01	-1.67939252109E+02	3.72257793571E+01	1.23047464668E+02	-4.75518363279E+01	1.26117243288E+02	-2.87466727596E+01	-1.65352733145E+02
2.23550000000E+07	-2.31897907353E+01	-1.68548794723E+02	3.72281323433E+01	1.22370509259E+02	-4.75514540855E+01	1.25456841964E+02	-2.85768784948E+01	-1.65684140167E+02
2.25500000000E+07	-2.32697984965E+01	-1.69114176220E+02	3.72292438664E+01	1.21674639382E+02	-4.75545910258E+01	1.24817673933E+02	-2.84190055732E+01	-1.66027250963E+02
2.27450000000E+07	-2.33446262679E+01	-1.69703013831E+02	3.72314123031E+01	1.21002979227E+02	-4.75484521845E+01	1.24185529974E+02	-2.82604137798E+01	-1.66359683904E+02
2.29400000000E+07	-2.34215509388E+01	-1.70303742224E+02	3.72328456675E+01	1.20320830124E+02	-4.75454744844E+01	1.23492932224E+02	-2.81108245439E+01	-1.66713845948E+02
2.31350000000E+07	-2.34845283923E+01	-1.70872164655E+02	3.72295063488E+01	1.19650736845E+02	-4.75474701799E+01	1.22856428234E+02	-2.79648016255E+01	-1.67058761364E+02
2.33300000000E+07	-2.35541999407E+01	-1.71550767776E+02	3.72270814372E+01	1.18989955543E+02	-4.75533893541E+01	1.22157980519E+02	-2.78256571390E+01	-1.67400221922E+02
2.35250000000E+07	-2.36279523290E+01	-1.72000273729E+02	3.72299677673E+01	1.18311153205E+02	-4.75512409281E+01	1.21532458707E+02	-2.76845433027E+01	-1.67746944888E+02
2.37200000000E+07	-2.36932137628E+01	-1.72721099329E+02	3.72327003442E+01	1.17632967287E+02	-4.75483130152E+01	1.20860623327E+02	-2.75549496726E+01	-1.68141100168E+02
2.39150000000E+07	-2.37691140160E+01	-1.73120288014E+02	3.72280135276E+01	1.16958508167E+02	-4.75477094523E+01	1.20232388785E+02	-2.74118321736E+01	-1.68470569193E+02
2.41100000000E+07	-2.38223248868E+01	-1.73690872416E+02	3.72293238203E+01	1.16294691484E+02	-4.75482418666E+01	1.19595310904E+02	-2.72833250284E+01	-1.68874430763E+02
2.43050000000E+07	-2.38982691228E+01	-1.74331450371E+02	3.72308757472E+01	1.15605119391E+02	-4.75505450339E+01	1.18941140556E+02	-2.71574520682E+01	-1.69249292510E+02
2.45000000000E+07	-2.39750150255E+01	-1.74848915092E+02	3.72273361584E+01	1.14928233700E+02	-4.75481900933E+01	1.18290990736E+02	-2.70297715928E+01	-1.69604810655E+02
2.46950000000E+07	-2.40378300973E+01	-1.75351899169E+02	3.72317599575E+01	1.14289640941E+02	-4.75457848037E+01	1.17671543472E+02	-2.69115758053E+01	-1.69977893127E+02
2.48900000000E+07	-2.40836553531E+01	-1.75981032472E+02	3.72328657232E+01	1.13608217464E+02	-4.75496195292E+01	1.17051160252E+02	-2.67917707965E+01	-1.70363085017E+02
2.50850000000E+07	-2.41736170455E+01	-1.76446678651E+02	3.72324050292E+01	1.12958665729E+02	-4.75538838977E+01	1.16387776694E+02	-2.66758510103E+01	-1.70726138626E+02
2.52800000000E+07	-2.42309676392E+01	-1.76934297906E+02	3.72325478620E+01	1.12304697544E+02	-4.75516736576E+01	1.15737607247E+02	-2.65608552970E+01	-1.71119212534E+02
2.54750000000E+07	-2.42967086637E+01	-1.77522626098E+02	3.72298301952E+01	1.11649488859E+02	-4.75500230100E+01	1.15121001815E+02	-2.64512346105E+01	-1.71494957328E+02
2.56700000000E+07	-2.43512057546E+01	-1.78087227689E+02	3.72296373134E+01	1.10974620964E+02	-4.75488867962E+01	1.14495094245E+02	-2.63363584940E+01	-1.71927435567E+02
2.58650000000E+07	-2.44207100931E+01	-1.78524972146E+02	3.72301459226E+01	1.10334274386E+02	-4.75484345432E+01	1.13825854244E+02	-2.62294041939E+01	-1.72332348178E+02
2.60600000000E+07	-2.44813434397E+01	-1.79143296906E+02	3.72268706112E+01	1.09619392305E+02	-4.75493813593E+01	1.13189464190E+02	-2.61216639011E+01	-1.72719957416E+02
2.62550000000E+07	-2.45568676658E+01	-1.79704355440E+02	3.72340429452E+01	1.09008757485E+02	-4.75513214123E+01	1.12579888858E+02	-2.60193830574E+01	-1.73123854225E+02
2.64500000000E+07	-2.46055851363E+01	1.79837321738E+02	3.72274644134E+01	1.08316744468E+02	-4.75493866082E+01	1.11911355360E+02	-2.59177889132E+01	-1.73530744560E+02
2.66450000000E+07	-2.46614142300E+01	1.79222943686E+02	3.72321781251E+01	1.07681046039E+02	-4.75531923024E+01	1.11293270913E+02	-2.58143054683E+01	-1.73946504619E+02
2.68400000000E+07	-2.47162396321E+01	1.78875182947E+02	3.72286467511E+01	1.07032691764E+02	-4.75458558306E+01	1.10672963705E+02	-2.57171358240E+01	-1.74395566453E+02
2.70350000000E+07	-2.47896633015E+01	1.78288097553E+02	3.72312909966E+01	1.06373623997E+02	-4.75476475853E+01	1.10059593554E+02	-2.56196347198E+01	-1.74765445959E+02
2.72300000000E+07	-2.48519583439E+01	1.77842040044E+02	3.72286363588E+01	1.05704215731E+02	-4.75515763629E+01	1.09389887059E+02	-2.55297704824E+01	-1.75213258311E+02
2.74250000000E+07	-2.48946897808E+01	1.77242579519E+02	3.72301972506E+01	1.05061615865E+02	-4.75512925451E+01	1.08834262872E+02	-2.54372018466E+01	-1.75657327508E+02
2.76200000000E+07	-2.49740189326E+01	1.76745255574E+02	3.72274245259E+01	1.04420806880E+02	-4.75481464418E+01	1.08151468869E+02	-2.53464718197E+01	-1.76077404243E+02
2.78150000000E+07	-2.50147965089E+01	1.76251261446E+02	3.72282253164E+01	1.03763766587E+02	-4.75495357511E+01	1.07533022984E+02	-2.52556820660E+01	-1.76506201629E+02
