# Hz S DB R 50
! CMT, M5045, 22160017, 22.3.3/2
! Date: 10/8/2022 18:32:26
! Data: Format (Calibration Info)
! Freq	S11:dB/Ang(F2)	S21:dB/Ang(F2)	S12:dB/Ang(F2)	S22:dB/Ang(F2)
5.00000000000E+06	-9.97037831823E+00	-9.28327451525E+01	3.63196230742E+01	-1.49120149911E+02	-4.85390522170E+01	-1.46278960667E+02	-1.35812413773E+01	6.71920877038E+01
5.19500000000E+06	-1.03107196280E+01	-9.43342946848E+01	3.63968389745E+01	-1.51401131078E+02	-4.84629025079E+01	-1.48619662694E+02	-1.41258475126E+01	6.58460731019E+01
5.39000000000E+06	-1.06410241623E+01	-9.58315910325E+01	3.64674016231E+01	-1.53612654302E+02	-4.83871463930E+01	-1.50839828852E+02	-1.46598664739E+01	6.45924063232E+01
5.58500000000E+06	-1.09570608525E+01	-9.72846651942E+01	3.65278047696E+01	-1.55719522148E+02	-4.83180255952E+01	-1.52971976875E+02	-1.51813797674E+01	6.34280800926E+01
5.78000000000E+06	-1.12721152669E+01	-9.86024120021E+01	3.65773349143E+01	-1.57695787412E+02	-4.82624739690E+01	-1.54991110019E+02	-1.56953228879E+01	6.23348462538E+01
5.97500000000E+06	-1.15756953128E+01	-9.99638926145E+01	3.66235705011E+01	-1.59660603593E+02	-4.82037444427E+01	-1.56922496113E+02	-1.61953364817E+01	6.13113923000E+01
6.17000000000E+06	-1.18626876821E+01	-1.01253901900E+02	3.66697853893E+01	-1.61459819938E+02	-4.81606627201E+01	-1.58747356458E+02	-1.66878567946E+01	6.03494328674E+01
6.36500000000E+06	-1.21390304419E+01	-1.02557267071E+02	3.67076456665E+01	-1.63236363234E+02	-4.81126147063E+01	-1.60521038425E+02	-1.71703060149E+01	5.94288484015E+01
6.56000000000E+06	-1.24240102697E+01	-1.03779659981E+02	3.67428292170E+01	-1.64922872539E+02	-4.80729154873E+01	-1.62213030786E+02	-1.76449459528E+01	5.85689682340E+01
6.75500000000E+06	-1.26854978292E+01	-1.04951965287E+02	3.67714173059E+01	-1.66542381778E+02	-4.80342390841E+01	-1.63785124104E+02	-1.81119478009E+01	5.77392097815E+01
6.95000000000E+06	-1.29451863240E+01	-1.06127030754E+02	3.68030787338E+01	-1.68109801456E+02	-4.79996367844E+01	-1.65398007161E+02	-1.85715541468E+01	5.69605205378E+01
7.14500000000E+06	-1.31984949909E+01	-1.07271968015E+02	3.68277584247E+01	-1.69625795039E+02	-4.79628315057E+01	-1.66935964211E+02	-1.90301271554E+01	5.62127468172E+01
7.34000000000E+06	-1.34481867439E+01	-1.08411013572E+02	3.68479272982E+01	-1.71125525393E+02	-4.79360167576E+01	-1.68425243319E+02	-1.94793387462E+01	5.54581023022E+01
7.53500000000E+06	-1.36881234298E+01	-1.09517466843E+02	3.68739008576E+01	-1.72548123868E+02	-4.79113738303E+01	-1.69869016236E+02	-1.99247341933E+01	5.47786544717E+01
7.73000000000E+06	-1.39249980558E+01	-1.10628425729E+02	3.68905650663E+01	-1.73906628579E+02	-4.78832047941E+01	-1.71187285704E+02	-2.03635489713E+01	5.41140655217E+01
7.92500000000E+06	-1.41618575614E+01	-1.11724425959E+02	3.69047036672E+01	-1.75280426162E+02	-4.78590213983E+01	-1.72550513844E+02	-2.08014839329E+01	5.34609088782E+01
8.12000000000E+06	-1.43833912309E+01	-1.12747450952E+02	3.69226102051E+01	-1.76566856069E+02	-4.78421273256E+01	-1.73820805954E+02	-2.12362717803E+01	5.28618242273E+01
8.31500000000E+06	-1.46046247804E+01	-1.13780779484E+02	3.69396481982E+01	-1.77826289182E+02	-4.78156927925E+01	-1.75109023546E+02	-2.16669582669E+01	5.22583621178E+01
8.51000000000E+06	-1.48175543129E+01	-1.14926256706E+02	3.69507563530E+01	-1.79115238334E+02	-4.77997813449E+01	-1.76343721117E+02	-2.20989071850E+01	5.16626723948E+01
8.70500000000E+06	-1.50483641153E+01	-1.15832236081E+02	3.69629622953E+01	1.79694403815E+02	-4.77838368643E+01	-1.77526814278E+02	-2.25262596990E+01	5.10930854935E+01
8.90000000000E+06	-1.52482151815E+01	-1.16904053881E+02	3.69745339275E+01	1.78500868799E+02	-4.77627203718E+01	-1.78765113717E+02	-2.29547632097E+01	5.05439627636E+01
9.09500000000E+06	-1.54594558145E+01	-1.17881940008E+02	3.69812481522E+01	1.77330063621E+02	-4.77477686113E+01	-1.79904883532E+02	-2.33824051216E+01	5.00084238347E+01
9.29000000000E+06	-1.56591697439E+01	-1.18911430804E+02	3.69903347136E+01	1.76206819240E+02	-4.77348570637E+01	1.78936688272E+02	-2.38140349276E+01	4.95065108657E+01
9.48500000000E+06	-1.58563869083E+01	-1.19868362640E+02	3.70023754214E+01	1.75104640678E+02	-4.77164314379E+01	1.77816600575E+02	-2.42361821732E+01	4.89847273061E+01
9.68000000000E+06	-1.60553214448E+01	-1.20833331498E+02	3.70065682828E+01	1.73999848886E+02	-4.76996278659E+01	1.76726029738E+02	-2.46652025620E+01	4.85016827947E+01
9.87500000000E+06	-1.62449847496E+01	-1.21786031217E+02	3.70177125650E+01	1.72926994368E+02	-4.76931810151E+01	1.75626898985E+02	-2.50835253249E+01	4.80347737340E+01
1.00700000000E+07	-1.64338025460E+01	-1.22785415266E+02	3.70225270916E+01	1.71900873527E+02	-4.76830826775E+01	1.74565922112E+02	-2.55239554162E+01	4.74572548383E+01
1.02650000000E+07	-1.66210005128E+01	-1.23768991809E+02	3.70272571958E+01	1.70834608101E+02	-4.76762124237E+01	1.73487256285E+02	-2.59600637786E+01	4.70595891641E+01
1.04600000000E+07	-1.67962699751E+01	-1.24782341101E+02	3.70385288543E+01	1.69793187034E+02	-4.76646268838E+01	1.72457169562E+02	-2.63913697981E+01	4.65518901669E+01
1.06550000000E+07	-1.69782738253E+01	-1.25732609275E+02	3.70425981073E+01	1.68821664539E+02	-4.76595278215E+01	1.71406460315E+02	-2.68259425323E+01	4.60232242222E+01
1.08500000000E+07	-1.71530776333E+01	-1.26766554183E+02	3.70456327690E+01	1.67833581190E+02	-4.76548197032E+01	1.70450198506E+02	-2.72718261946E+01	4.54715822109E+01
1.10450000000E+07	-1.73343596187E+01	-1.27695859372E+02	3.70523538665E+01	1.66849249695E+02	-4.76459946528E+01	1.69453078361E+02	-2.77213770761E+01	4.49030207714E+01
1.12400000000E+07	-1.75156607082E+01	-1.28696468291E+02	3.70540743956E+01	1.65861058959E+02	-4.76390381160E+01	1.68471085376E+02	-2.81875302710E+01	4.43592567526E+01
1.14350000000E+07	-1.76945054397E+01	-1.29661582997E+02	3.70658555085E+01	1.64914965908E+02	-4.76270281314E+01	1.67513573366E+02	-2.86669047829E+01	4.38195684161E+01
1.16300000000E+07	-1.78621188738E+01	-1.30668464151E+02	3.70678658907E+01	1.63945138006E+02	-4.76219738010E+01	1.66556409421E+02	-2.91524323037E+01	4.32533040738E+01
1.18250000000E+07	-1.80419376524E+01	-1.31589705310E+02	3.70686739492E+01	1.63007550366E+02	-4.76148927594E+01	1.65592223726E+02	-2.96440860166E+01	4.27535474663E+01
1.20200000000E+07	-1.82025285105E+01	-1.32642132896E+02	3.70743556594E+01	1.62055780891E+02	-4.76066199631E+01	1.64631159988E+02	-3.01543302899E+01	4.21865316118E+01
1.22150000000E+07	-1.83697906676E+01	-1.33571228418E+02	3.70731863798E+01	1.61108087614E+02	-4.76017968289E+01	1.63664808880E+02	-3.06703131920E+01	4.17094021710E+01
1.24100000000E+07	-1.85475283128E+01	-1.34469716261E+02	3.70785971032E+01	1.60234052775E+02	-4.75921002720E+01	1.62785633799E+02	-3.12077854424E+01	4.11742950101E+01
1.26050000000E+07	-1.87101272941E+01	-1.35515176236E+02	3.70792694869E+01	1.59334092384E+02	-4.75836092383E+01	1.61852723603E+02	-3.17724879082E+01	4.06131302358E+01
1.28000000000E+07	-1.88783482934E+01	-1.36400718331E+02	3.70799099003E+01	1.58450697872E+02	-4.75815596334E+01	1.60962784166E+02	-3.23305975579E+01	4.01512891185E+01
1.29950000000E+07	-1.90349218632E+01	-1.37355096655E+02	3.70796607759E+01	1.57595655516E+02	-4.75726462318E+01	1.60048859941E+02	-3.29261235881E+01	3.96935620815E+01
1.31900000000E+07	-1.92076819346E+01	-1.38244158413E+02	3.70802487413E+01	1.56747883576E+02	-4.75750214409E+01	1.59186475256E+02	-3.35463670054E+01	3.91281141436E+01
1.33850000000E+07	-1.93551837090E+01	-1.39131965641E+02	3.70824686102E+01	1.55920590675E+02	-4.75671732997E+01	1.58349299636E+02	-3.41857083356E+01	3.87122685066E+01
1.35800000000E+07	-1.95224135701E+01	-1.40057060451E+02	3.70819838101E+01	1.55059000119E+02	-4.75616708947E+01	1.57527616464E+02	-3.48668919697E+01	3.82118999413E+01
1.37750000000E+07	-1.96831853058E+01	-1.40909567386E+02	3.70868401574E+01	1.54241220082E+02	-4.75603218734E+01	1.56658000418E+02	-3.55679154116E+01	3.76476569652E+01
1.39700000000E+07	-1.98392440141E+01	-1.41880891661E+02	3.70872521175E+01	1.53408232575E+02	-4.75573038755E+01	1.55818497145E+02	-3.63149147374E+01	3.72661141857E+01
1.41650000000E+07	-1.99951905420E+01	-1.42764391375E+02	3.70899135619E+01	1.52587400387E+02	-4.75521223808E+01	1.55028499629E+02	-3.71136469236E+01	3.67336299554E+01
1.43600000000E+07	-2.01378053866E+01	-1.43657313740E+02	3.70899678531E+01	1.51754014151E+02	-4.75476244483E+01	1.54182734503E+02	-3.79566746857E+01	3.63820040317E+01
1.45550000000E+07	-2.02840390523E+01	-1.44530987789E+02	3.70911096102E+01	1.50971314711E+02	-4.75403383242E+01	1.53368873669E+02	-3.89063153096E+01	3.57580893769E+01
1.47500000000E+07	-2.04397594980E+01	-1.45360799086E+02	3.70913765607E+01	1.50163746593E+02	-4.75334502698E+01	1.52588337382E+02	-3.98827827518E+01	3.52577968921E+01
1.49450000000E+07	-2.06034291917E+01	-1.46207084871E+02	3.70905394039E+01	1.49347727184E+02	-4.75395026853E+01	1.51790791827E+02	-4.09882309039E+01	3.46182673683E+01
1.51400000000E+07	-2.07543238973E+01	-1.47084098245E+02	3.70955643816E+01	1.48530748890E+02	-4.75262204275E+01	1.51000274506E+02	-4.22212717631E+01	3.41537954999E+01
1.53350000000E+07	-2.08944191625E+01	-1.47975728659E+02	3.70955917058E+01	1.47755269797E+02	-4.75222659269E+01	1.50174677598E+02	-4.36156144610E+01	3.33169117884E+01
1.55300000000E+07	-2.10534793009E+01	-1.48840698304E+02	3.70912818520E+01	1.46977661088E+02	-4.75185472519E+01	1.49405921398E+02	-4.52344909432E+01	3.25541899127E+01
1.57250000000E+07	-2.11940162369E+01	-1.49695927192E+02	3.70889736913E+01	1.46195312322E+02	-4.75121388703E+01	1.48615207510E+02	-4.71620852601E+01	3.18860260849E+01
1.59200000000E+07	-2.13511912412E+01	-1.50520077081E+02	3.70937513317E+01	1.45423842477E+02	-4.75177757506E+01	1.47860567344E+02	-4.96914073969E+01	3.05740552121E+01
1.61150000000E+07	-2.14891882971E+01	-1.51338998932E+02	3.70922107650E+01	1.44666016447E+02	-4.75055400857E+01	1.47120586113E+02	-5.29605113290E+01	2.87959282314E+01
1.63100000000E+07	-2.16186565787E+01	-1.52228136374E+02	3.70992534645E+01	1.43880952810E+02	-4.75049978313E+01	1.46303048481E+02	-5.81293113302E+01	2.32786158529E+01
1.65050000000E+07	-2.17735424792E+01	-1.53060828808E+02	3.70934131649E+01	1.43128277565E+02	-4.75016561735E+01	1.45585297087E+02	-7.10982833485E+01	-1.96282678607E+01
1.67000000000E+07	-2.19325253350E+01	-1.53831910915E+02	3.70924355676E+01	1.42335066332E+02	-4.74960935681E+01	1.44822186357E+02	-6.12987346490E+01	-1.35080950484E+02
1.68950000000E+07	-2.20663951886E+01	-1.54720559985E+02	3.70945223358E+01	1.41604075960E+02	-4.75005371647E+01	1.44109334457E+02	-5.47408764534E+01	-1.42500354873E+02
1.70900000000E+07	-2.22134785025E+01	-1.55550305353E+02	3.70946308026E+01	1.40855865090E+02	-4.74933262895E+01	1.43359942425E+02	-5.11244673694E+01	-1.44550560187E+02
1.72850000000E+07	-2.23594545798E+01	-1.56469318079E+02	3.70962667702E+01	1.40082567195E+02	-4.74874806599E+01	1.42619035095E+02	-4.86099208720E+01	-1.46488906772E+02
1.74800000000E+07	-2.24875849395E+01	-1.57140787244E+02	3.70950095335E+01	1.39373309647E+02	-4.74828324228E+01	1.41866445229E+02	-4.66622872747E+01	-1.47221565050E+02
1.76750000000E+07	-2.26378263174E+01	-1.58021029427E+02	3.70946871926E+01	1.38608627505E+02	-4.74812097837E+01	1.41158333884E+02	-4.51197850300E+01	-1.48223421378E+02
1.78700000000E+07	-2.27539235863E+01	-1.58720594485E+02	3.70955725764E+01	1.37867884752E+02	-4.74804203045E+01	1.40407426003E+02	-4.38684981334E+01	-1.48826834204E+02
1.80650000000E+07	-2.28926271695E+01	-1.59557594811E+02	3.70920219476E+01	1.37109553574E+02	-4.74742413376E+01	1.39694991302E+02	-4.27830312737E+01	-1.49478659144E+02
1.82600000000E+07	-2.30489599029E+01	-1.60479220803E+02	3.70922829488E+01	1.36383419672E+02	-4.74659690441E+01	1.39006684547E+02	-4.17826081623E+01	-1.50054025648E+02
1.84550000000E+07	-2.31826871002E+01	-1.61102581378E+02	3.70915089750E+01	1.35681329965E+02	-4.74678609415E+01	1.38282892247E+02	-4.09389261999E+01	-1.50444778683E+02
1.86500000000E+07	-2.33163880138E+01	-1.62022913275E+02	3.70918581755E+01	1.34943265460E+02	-4.74631616339E+01	1.37536737916E+02	-4.01911223905E+01	-1.51197188604E+02
1.88450000000E+07	-2.34459854019E+01	-1.62763388011E+02	3.70908330469E+01	1.34226453244E+02	-4.74568362287E+01	1.36844149862E+02	-3.94744966355E+01	-1.51550114636E+02
1.90400000000E+07	-2.36048612297E+01	-1.63706698386E+02	3.70882166411E+01	1.33520346364E+02	-4.74583946410E+01	1.36160297331E+02	-3.88599736083E+01	-1.52107871853E+02
1.92350000000E+07	-2.37421428142E+01	-1.64358377575E+02	3.70893003639E+01	1.32793094409E+02	-4.74540742844E+01	1.35425024319E+02	-3.82514543531E+01	-1.52619533245E+02
1.94300000000E+07	-2.38724371769E+01	-1.65123804655E+02	3.70871678301E+01	1.32062160117E+02	-4.74497389466E+01	1.34717269469E+02	-3.77398095806E+01	-1.53036330543E+02
1.96250000000E+07	-2.40111045742E+01	-1.65929301263E+02	3.70888170099E+01	1.31346422269E+02	-4.74480316236E+01	1.34034734512E+02	-3.72139348833E+01	-1.53466211408E+02
1.98200000000E+07	-2.41645541870E+01	-1.66713014026E+02	3.70861393160E+01	1.30605498911E+02	-4.74503887232E+01	1.33330650053E+02	-3.67666405890E+01	-1.53912610802E+02
2.00150000000E+07	-2.42672325783E+01	-1.67431642302E+02	3.70850996707E+01	1.29913677171E+02	-4.74436216011E+01	1.32623114219E+02	-3.63231363194E+01	-1.54448947004E+02
2.02100000000E+07	-2.44178204206E+01	-1.68284980612E+02	3.70856802294E+01	1.29203941844E+02	-4.74364954978E+01	1.31971343155E+02	-3.59143148781E+01	-1.54826961487E+02
2.04050000000E+07	-2.45498616411E+01	-1.69175374026E+02	3.70823384765E+01	1.28488478787E+02	-4.74357333499E+01	1.31290505283E+02	-3.55250997034E+01	-1.55339428951E+02
2.06000000000E+07	-2.46737709259E+01	-1.69859925577E+02	3.70852812145E+01	1.27828453633E+02	-4.74350442469E+01	1.30581741304E+02	-3.51637188248E+01	-1.55795028228E+02
2.07950000000E+07	-2.48264098049E+01	-1.70681950087E+02	3.70793198381E+01	1.27089285088E+02	-4.74320081506E+01	1.29867644462E+02	-3.48129984336E+01	-1.56223610301E+02
2.09900000000E+07	-2.49598077851E+01	-1.71404798102E+02	3.70787941990E+01	1.26405625166E+02	-4.74247933326E+01	1.29240818328E+02	-3.44769600905E+01	-1.56702204922E+02
2.11850000000E+07	-2.50830762736E+01	-1.72069186275E+02	3.70780744209E+01	1.25722436555E+02	-4.74265269355E+01	1.28551786523E+02	-3.41692920068E+01	-1.57096890524E+02
2.13800000000E+07	-2.52175344338E+01	-1.72896195464E+02	3.70790491695E+01	1.24992395213E+02	-4.74199860048E+01	1.27887358992E+02	-3.38735348805E+01	-1.57624561855E+02
2.15750000000E+07	-2.53508035590E+01	-1.73536638213E+02	3.70769124270E+01	1.24301686738E+02	-4.74168727147E+01	1.27191397797E+02	-3.35997660156E+01	-1.58068769390E+02
2.17700000000E+07	-2.54993580022E+01	-1.74511446145E+02	3.70739436293E+01	1.23610453888E+02	-4.74156196785E+01	1.26514358137E+02	-3.33227955859E+01	-1.58518381466E+02
2.19650000000E+07	-2.56140898751E+01	-1.75173878067E+02	3.70749720905E+01	1.22935940391E+02	-4.74103833398E+01	1.25843253318E+02	-3.30731394973E+01	-1.58972344845E+02
2.21600000000E+07	-2.57807195829E+01	-1.75980685559E+02	3.70689879997E+01	1.22205817132E+02	-4.74108062874E+01	1.25168406582E+02	-3.28260302455E+01	-1.59438819535E+02
2.23550000000E+07	-2.59015458846E+01	-1.76780026392E+02	3.70681604941E+01	1.21537606276E+02	-4.74051327091E+01	1.24519116910E+02	-3.25858527520E+01	-1.59930248865E+02
2.25500000000E+07	-2.60260003958E+01	-1.77589013880E+02	3.70695089811E+01	1.20856360573E+02	-4.73992057381E+01	1.23828988142E+02	-3.23511232570E+01	-1.60375580672E+02
2.27450000000E+07	-2.61621102772E+01	-1.78198924808E+02	3.70681784489E+01	1.20176351430E+02	-4.73977359333E+01	1.23175426054E+02	-3.21349990590E+01	-1.60836931909E+02
2.29400000000E+07	-2.63014669425E+01	-1.78775785093E+02	3.70655110106E+01	1.19486482180E+02	-4.73960198249E+01	1.22497195936E+02	-3.19233193706E+01	-1.61255026866E+02
2.31350000000E+07	-2.64258822100E+01	-1.79632864635E+02	3.70650525961E+01	1.18826548295E+02	-4.73928077392E+01	1.21815413813E+02	-3.17274555755E+01	-1.61719270461E+02
2.33300000000E+07	-2.65684402050E+01	1.79630890246E+02	3.70620436265E+01	1.18110355656E+02	-4.73922186908E+01	1.21196467072E+02	-3.15248484480E+01	-1.62157693560E+02
2.35250000000E+07	-2.67013539504E+01	1.78804216205E+02	3.70595023247E+01	1.17437338889E+02	-4.73820504578E+01	1.20540744152E+02	-3.13431269119E+01	-1.62593713636E+02
2.37200000000E+07	-2.68394715771E+01	1.78244322093E+02	3.70567489188E+01	1.16767830741E+02	-4.73831314671E+01	1.19863075266E+02	-3.11571605933E+01	-1.63046516714E+02
2.39150000000E+07	-2.69782203070E+01	1.77568978613E+02	3.70569819483E+01	1.16133309920E+02	-4.73847433668E+01	1.19193304952E+02	-3.09683519576E+01	-1.63492007719E+02
2.41100000000E+07	-2.70864853686E+01	1.76531094918E+02	3.70560102964E+01	1.15424669296E+02	-4.73790918341E+01	1.18563903308E+02	-3.07936140434E+01	-1.63981902726E+02
2.43050000000E+07	-2.72358144494E+01	1.75903268140E+02	3.70540443952E+01	1.14747550045E+02	-4.73784627652E+01	1.17905091131E+02	-3.06370916231E+01	-1.64430696648E+02
2.45000000000E+07	-2.73689594370E+01	1.75213898210E+02	3.70511370315E+01	1.14068692186E+02	-4.73710296833E+01	1.17288080823E+02	-3.04681516134E+01	-1.64896409129E+02
2.46950000000E+07	-2.74963784858E+01	1.74320602041E+02	3.70519317738E+01	1.13412950370E+02	-4.73714125565E+01	1.16616620456E+02	-3.03162340635E+01	-1.65335968522E+02
2.48900000000E+07	-2.76503806766E+01	1.73606265121E+02	3.70467316382E+01	1.12725913594E+02	-4.73643191770E+01	1.15979299004E+02	-3.01574781908E+01	-1.65772820318E+02
2.50850000000E+07	-2.77844121533E+01	1.73113308503E+02	3.70410984125E+01	1.12059536525E+02	-4.73638044469E+01	1.15321304507E+02	-3.00070502627E+01	-1.66198573572E+02
2.52800000000E+07	-2.79222593969E+01	1.72411366567E+02	3.70399465001E+01	1.11397482593E+02	-4.73636620290E+01	1.14672737128E+02	-2.98608049884E+01	-1.66651822415E+02
2.54750000000E+07	-2.80614230564E+01	1.71618648199E+02	3.70397722267E+01	1.10734937322E+02	-4.73585638071E+01	1.14031022114E+02	-2.97231879709E+01	-1.67088101680E+02
2.56700000000E+07	-2.81676839531E+01	1.70983333373E+02	3.70396764050E+01	1.10072611278E+02	-4.73532252989E+01	1.13389649810E+02	-2.95776872874E+01	-1.67604837874E+02
2.58650000000E+07	-2.83429126329E+01	1.70072191296E+02	3.70395629551E+01	1.09395387724E+02	-4.73559833022E+01	1.12734519552E+02	-2.94500872882E+01	-1.68029001677E+02
2.60600000000E+07	-2.84803562143E+01	1.69356179738E+02	3.70371023054E+01	1.08740730228E+02	-4.73476537788E+01	1.12138096241E+02	-2.93106033136E+01	-1.68516147518E+02
2.62550000000E+07	-2.86260419806E+01	1.68590737879E+02	3.70320887694E+01	1.08085305426E+02	-4.73471175400E+01	1.11510976110E+02	-2.91822371266E+01	-1.68992578622E+02
2.64500000000E+07	-2.87683005668E+01	1.68151976076E+02	3.70314210408E+01	1.07422552824E+02	-4.73429952829E+01	1.10850872155E+02	-2.90609740972E+01	-1.69462844921E+02
2.66450000000E+07	-2.89359603659E+01	1.67307058650E+02	3.70284739786E+01	1.06785795566E+02	-4.73375224266E+01	1.10194324322E+02	-2.89360227453E+01	-1.69905683535E+02
2.68400000000E+07	-2.90594199590E+01	1.66635926455E+02	3.70269341586E+01	1.06084224260E+02	-4.73390797751E+01	1.09554053296E+02	-2.88177435978E+01	-1.70401347768E+02
2.70350000000E+07	-2.91668249934E+01	1.65959503950E+02	3.70284312708E+01	1.05442711247E+02	-4.73346759208E+01	1.08933726661E+02	-2.87039636592E+01	-1.70858144255E+02
2.72300000000E+07	-2.93741429005E+01	1.64975520399E+02	3.70248315785E+01	1.04759452382E+02	-4.73335382505E+01	1.08319020247E+02	-2.85841864067E+01	-1.71343506077E+02
2.74250000000E+07	-2.95083454724E+01	1.64441299491E+02	3.70169605550E+01	1.04129167729E+02	-4.73282836706E+01	1.07656688880E+02	-2.84762180561E+01	-1.71800814189E+02
2.76200000000E+07	-2.96437236186E+01	1.63849219867E+02	3.70189023173E+01	1.03478819063E+02	-4.73243167492E+01	1.06999612870E+02	-2.83689591190E+01	-1.72291777992E+02
2.78150000000E+07	-2.97973183119E+01	1.63005541737E+02	3.70150347868E+01	1.02801807939E+02	-4.73239932098E+01	1.06363492442E+02	-2.82605588251E+01	-1.72749713539E+02
