# Hz S DB R 50
! CMT, M5045, 22160017, 22.4.3/2
! Date: 2/27/2023 00:35:02
! Data: Format (Calibration Info)
! Freq	S11:dB/Ang(F2)	S21:dB/Ang(F2)	S12:dB/Ang(F2)	S22:dB/Ang(F2)
5.00000000000E+06	-9.88645895564E+00	-7.68788800389E+01	3.64092952906E+01	3.59874627757E+01	-4.84413576951E+01	3.86995087686E+01	-1.51317766419E+01	7.32672290880E+01
5.19500000000E+06	-1.02468346939E+01	-7.78245239184E+01	3.64897995618E+01	3.38628576065E+01	-4.83939952650E+01	3.70327183522E+01	-1.58134835816E+01	7.26341002894E+01
5.39000000000E+06	-1.05944973274E+01	-7.87714699168E+01	3.65563827828E+01	3.17913149755E+01	-4.84458579841E+01	3.48947259181E+01	-1.64635150044E+01	7.22222576000E+01
5.58500000000E+06	-1.09288752823E+01	-7.96281086724E+01	3.66184393190E+01	2.98874646976E+01	-4.83750927644E+01	3.29126878880E+01	-1.71114498363E+01	7.19090586654E+01
5.78000000000E+06	-1.12586278352E+01	-8.04195878793E+01	3.66734576994E+01	2.80688970310E+01	-4.82609554487E+01	3.09826962016E+01	-1.77489393260E+01	7.16944609433E+01
5.97500000000E+06	-1.15745273472E+01	-8.11915739656E+01	3.67262138783E+01	2.62964433449E+01	-4.82608600473E+01	2.90304033607E+01	-1.83675124190E+01	7.17697502141E+01
6.17000000000E+06	-1.18906558202E+01	-8.19094411789E+01	3.67687076395E+01	2.46290823148E+01	-4.81494719604E+01	2.81832779674E+01	-1.90040313534E+01	7.18261619980E+01
6.36500000000E+06	-1.21927855423E+01	-8.25404580529E+01	3.68087965565E+01	2.30516232176E+01	-4.80886192513E+01	2.58937523962E+01	-1.96113138991E+01	7.20725888690E+01
6.56000000000E+06	-1.24950467208E+01	-8.31482179471E+01	3.68436458828E+01	2.15291515014E+01	-4.80190384316E+01	2.47813842561E+01	-2.01861993609E+01	7.24037389821E+01
6.75500000000E+06	-1.27881636884E+01	-8.38349560280E+01	3.68766910574E+01	2.00629704760E+01	-4.81075489455E+01	2.31581840669E+01	-2.07882984570E+01	7.28726340783E+01
6.95000000000E+06	-1.30735479752E+01	-8.43740394905E+01	3.69020003913E+01	1.86819869758E+01	-4.79910639633E+01	2.16446808059E+01	-2.13763378673E+01	7.34753325188E+01
7.14500000000E+06	-1.33556557505E+01	-8.49353449868E+01	3.69325805828E+01	1.72975505113E+01	-4.78958175565E+01	2.07458482310E+01	-2.19839172007E+01	7.41813860124E+01
7.34000000000E+06	-1.36191073513E+01	-8.54350893219E+01	3.69570561069E+01	1.60160675481E+01	-4.79352718898E+01	1.89033641735E+01	-2.25486943910E+01	7.48960029117E+01
7.53500000000E+06	-1.38944453898E+01	-8.59103262719E+01	3.69802515930E+01	1.47717139898E+01	-4.78545317255E+01	1.75142600696E+01	-2.30803390767E+01	7.59994818466E+01
7.73000000000E+06	-1.41637050629E+01	-8.64280154239E+01	3.69974387741E+01	1.35537928565E+01	-4.78103803946E+01	1.66449365989E+01	-2.36194046161E+01	7.70976601259E+01
7.92500000000E+06	-1.44288527022E+01	-8.68559869318E+01	3.70152781124E+01	1.23985615856E+01	-4.78585555004E+01	1.54508967157E+01	-2.41662377622E+01	7.84596403255E+01
8.12000000000E+06	-1.46848748468E+01	-8.73578034032E+01	3.70337547858E+01	1.12460046066E+01	-4.77992878783E+01	1.41957693750E+01	-2.47265700065E+01	7.96696690590E+01
8.31500000000E+06	-1.49322605604E+01	-8.77885531015E+01	3.70489088714E+01	1.01425893698E+01	-4.77006448395E+01	1.31359942293E+01	-2.52832641488E+01	8.08846280184E+01
8.51000000000E+06	-1.51922901405E+01	-8.81769290930E+01	3.70619761040E+01	9.05418006691E+00	-4.77468530590E+01	1.22951257810E+01	-2.57746174729E+01	8.25423752753E+01
8.70500000000E+06	-1.54428964290E+01	-8.85720115847E+01	3.70723243808E+01	8.00900521676E+00	-4.77315750798E+01	1.07622904526E+01	-2.62765611338E+01	8.43648216078E+01
8.90000000000E+06	-1.56840328231E+01	-8.89907158180E+01	3.70889811226E+01	7.01905601646E+00	-4.77235562113E+01	1.00461233403E+01	-2.67607558733E+01	8.61833643700E+01
9.09500000000E+06	-1.59302023907E+01	-8.93379994294E+01	3.70955435294E+01	6.01729216704E+00	-4.77248189416E+01	8.79825908234E+00	-2.72004144011E+01	8.79513983429E+01
9.29000000000E+06	-1.61713216044E+01	-8.97122055276E+01	3.71101401485E+01	5.08532784833E+00	-4.77091358949E+01	7.76179145079E+00	-2.76632292708E+01	9.02258681456E+01
9.48500000000E+06	-1.64050679911E+01	-9.01059373689E+01	3.71194328486E+01	4.12161107780E+00	-4.77086251925E+01	6.88453389127E+00	-2.81203917647E+01	9.25214148614E+01
9.68000000000E+06	-1.66413478087E+01	-9.04584352618E+01	3.71286758806E+01	3.19482078618E+00	-4.76321137554E+01	6.35048084407E+00	-2.84823875775E+01	9.48842753334E+01
9.87500000000E+06	-1.68829427876E+01	-9.08024509420E+01	3.71361121835E+01	2.29716501548E+00	-4.77120868500E+01	4.94232327645E+00	-2.88958453292E+01	9.73063416019E+01
1.00700000000E+07	-1.71077919068E+01	-9.11429660904E+01	3.71410054390E+01	1.41028620506E+00	-4.76623049622E+01	3.70517869067E+00	-2.92185567291E+01	9.95025627649E+01
1.02650000000E+07	-1.73470498680E+01	-9.14128740835E+01	3.71468780343E+01	5.56293854697E-01	-4.75921573337E+01	3.94448751199E+00	-2.95849067929E+01	1.02521666490E+02
1.04600000000E+07	-1.75636129653E+01	-9.17541118322E+01	3.71548749563E+01	-3.07997919076E-01	-4.75591895548E+01	2.83016100526E+00	-2.99094355224E+01	1.05161674114E+02
1.06550000000E+07	-1.77904108760E+01	-9.21409356365E+01	3.71621118790E+01	-1.15292804271E+00	-4.75850031646E+01	1.63415896211E+00	-3.01244629165E+01	1.07649998922E+02
1.08500000000E+07	-1.80155368791E+01	-9.24563799976E+01	3.71684872605E+01	-1.98925585065E+00	-4.76779349959E+01	1.01340415242E+00	-3.04070469388E+01	1.10544830691E+02
1.10450000000E+07	-1.82431697188E+01	-9.28795674981E+01	3.71780595861E+01	-2.78839041767E+00	-4.75903881336E+01	1.24672731822E-01	-3.06575237454E+01	1.12815909356E+02
1.12400000000E+07	-1.84633157288E+01	-9.31508975259E+01	3.71813586482E+01	-3.61373494405E+00	-4.75871534697E+01	-4.10909243040E-01	-3.08058227546E+01	1.15233572143E+02
1.14350000000E+07	-1.86864023084E+01	-9.34733513844E+01	3.71858721443E+01	-4.38858584841E+00	-4.76277030470E+01	-2.02026123752E+00	-3.09618767325E+01	1.18359282064E+02
1.16300000000E+07	-1.89142725993E+01	-9.37444985906E+01	3.71921401959E+01	-5.19663680660E+00	-4.75507143649E+01	-2.55900370930E+00	-3.12038009090E+01	1.20494096772E+02
1.18250000000E+07	-1.91345238731E+01	-9.40140457007E+01	3.71933262897E+01	-5.96980018644E+00	-4.75604632149E+01	-2.96832017560E+00	-3.12423720515E+01	1.23349851584E+02
1.20200000000E+07	-1.93461558130E+01	-9.43279792980E+01	3.72013079040E+01	-6.74459935844E+00	-4.75025103460E+01	-3.95316279018E+00	-3.13357398005E+01	1.26264962227E+02
1.22150000000E+07	-1.95855265771E+01	-9.46001000857E+01	3.72000495003E+01	-7.48540318075E+00	-4.75962788526E+01	-5.24322482016E+00	-3.14698571652E+01	1.28827281524E+02
1.24100000000E+07	-1.97981568069E+01	-9.48535152405E+01	3.72012986609E+01	-8.23247976793E+00	-4.75034826850E+01	-5.56261670704E+00	-3.15035250803E+01	1.31682925375E+02
1.26050000000E+07	-2.00102972151E+01	-9.49872338460E+01	3.72035616414E+01	-8.93536182252E+00	-4.75414068214E+01	-5.89957517780E+00	-3.16108270898E+01	1.33786404167E+02
1.28000000000E+07	-2.02362900678E+01	-9.53003006992E+01	3.72067538081E+01	-9.63597474099E+00	-4.75207139534E+01	-7.11219768212E+00	-3.16302268219E+01	1.36627166812E+02
1.29950000000E+07	-2.04551920706E+01	-9.54082501093E+01	3.72068003128E+01	-1.03081463066E+01	-4.76072983851E+01	-7.60712120933E+00	-3.16241546666E+01	1.38636714638E+02
1.31900000000E+07	-2.06827832016E+01	-9.56207558384E+01	3.72046373169E+01	-1.09777167636E+01	-4.75449288753E+01	-7.91793141517E+00	-3.16715777827E+01	1.41528338673E+02
1.33850000000E+07	-2.08991076596E+01	-9.58040679696E+01	3.72140915127E+01	-1.16672041120E+01	-4.75412538919E+01	-8.61203865207E+00	-3.16897964240E+01	1.43114155894E+02
1.35800000000E+07	-2.11232080072E+01	-9.60222940979E+01	3.72114940103E+01	-1.23310863145E+01	-4.75406143117E+01	-9.53754761573E+00	-3.17226443576E+01	1.45210823777E+02
1.37750000000E+07	-2.13476602830E+01	-9.61140025625E+01	3.72163097547E+01	-1.29728083254E+01	-4.76011502869E+01	-1.03594706601E+01	-3.16142872855E+01	1.47319664433E+02
1.39700000000E+07	-2.15717777116E+01	-9.62908777692E+01	3.72144871864E+01	-1.36344961275E+01	-4.74621244477E+01	-1.11183584672E+01	-3.16256344441E+01	1.49069750681E+02
1.41650000000E+07	-2.17860703097E+01	-9.64810451877E+01	3.72181895191E+01	-1.42819825761E+01	-4.75072843755E+01	-1.15216973251E+01	-3.15477425851E+01	1.50750148751E+02
1.43600000000E+07	-2.20248976011E+01	-9.65747546724E+01	3.72165885235E+01	-1.49303044402E+01	-4.74645645855E+01	-1.21070130864E+01	-3.14334464033E+01	1.52949776148E+02
1.45550000000E+07	-2.22523688327E+01	-9.66402060655E+01	3.72177966031E+01	-1.55635423122E+01	-4.75286785818E+01	-1.27165960432E+01	-3.13945586336E+01	1.54806243242E+02
1.47500000000E+07	-2.24726580685E+01	-9.66973434236E+01	3.72196115774E+01	-1.61907771738E+01	-4.75286054458E+01	-1.37175063843E+01	-3.13653169113E+01	1.55890448183E+02
1.49450000000E+07	-2.26943269270E+01	-9.68004002828E+01	3.72205976998E+01	-1.68314354884E+01	-4.74888383888E+01	-1.45227291139E+01	-3.12854715547E+01	1.57549880324E+02
1.51400000000E+07	-2.29262497470E+01	-9.68134731859E+01	3.72197894907E+01	-1.74474963504E+01	-4.74671712642E+01	-1.47026828107E+01	-3.11984996214E+01	1.59140100480E+02
1.53350000000E+07	-2.31423937664E+01	-9.69969285000E+01	3.72220885020E+01	-1.80578139361E+01	-4.74752770751E+01	-1.55872111232E+01	-3.11021055987E+01	1.60589703855E+02
1.55300000000E+07	-2.33855712440E+01	-9.69561369884E+01	3.72208076870E+01	-1.86786482293E+01	-4.74595445840E+01	-1.57537875482E+01	-3.10956539877E+01	1.61864247663E+02
1.57250000000E+07	-2.36030385300E+01	-9.69860341206E+01	3.72245895502E+01	-1.92944775098E+01	-4.74637515258E+01	-1.62596585645E+01	-3.10181682676E+01	1.63008988301E+02
1.59200000000E+07	-2.38430479639E+01	-9.70259469824E+01	3.72213675398E+01	-1.98731240001E+01	-4.74811783546E+01	-1.72170274519E+01	-3.09193966582E+01	1.64192864169E+02
1.61150000000E+07	-2.40722652804E+01	-9.69481851989E+01	3.72240500775E+01	-2.04851608802E+01	-4.74827038207E+01	-1.77014143211E+01	-3.08555132117E+01	1.65173346821E+02
1.63100000000E+07	-2.43106593764E+01	-9.69260665477E+01	3.72243999885E+01	-2.10951159746E+01	-4.75020545353E+01	-1.84468490147E+01	-3.07887194412E+01	1.66325356571E+02
1.65050000000E+07	-2.45291242609E+01	-9.68800895223E+01	3.72227050547E+01	-2.16658968026E+01	-4.74848952296E+01	-1.90399110756E+01	-3.07190708296E+01	1.67444996156E+02
1.67000000000E+07	-2.47823380868E+01	-9.68366945599E+01	3.72241167948E+01	-2.22548804734E+01	-4.74738646046E+01	-1.95572365060E+01	-3.06487351533E+01	1.68448488025E+02
1.68950000000E+07	-2.50244039811E+01	-9.67319557869E+01	3.72221655513E+01	-2.28109727359E+01	-4.74560839234E+01	-2.03229273840E+01	-3.06409671584E+01	1.69386692269E+02
1.70900000000E+07	-2.52677087740E+01	-9.67827870088E+01	3.72235346597E+01	-2.34060830625E+01	-4.74283870613E+01	-2.08496764857E+01	-3.05338280050E+01	1.69956712468E+02
1.72850000000E+07	-2.55098839779E+01	-9.64599586395E+01	3.72214542630E+01	-2.39901576082E+01	-4.74220936258E+01	-2.15144163238E+01	-3.03747469916E+01	1.71013465479E+02
1.74800000000E+07	-2.57603208790E+01	-9.63455392993E+01	3.72227086250E+01	-2.45696045013E+01	-4.74328921393E+01	-2.16841309563E+01	-3.03484759938E+01	1.71498671251E+02
1.76750000000E+07	-2.60002251810E+01	-9.62323539605E+01	3.72188345977E+01	-2.51164069688E+01	-4.74630593401E+01	-2.22135834025E+01	-3.03141350999E+01	1.72730069998E+02
1.78700000000E+07	-2.62594344382E+01	-9.60579505313E+01	3.72205416628E+01	-2.56838997732E+01	-4.74585834964E+01	-2.31494721430E+01	-3.02523799165E+01	1.73490612090E+02
1.80650000000E+07	-2.65132770752E+01	-9.58772481862E+01	3.72220585915E+01	-2.62784921588E+01	-4.73758945014E+01	-2.32275243492E+01	-3.02236856720E+01	1.74354992709E+02
1.82600000000E+07	-2.67694775588E+01	-9.55026491182E+01	3.72184141965E+01	-2.68015690904E+01	-4.74018173115E+01	-2.40027541181E+01	-3.00709688661E+01	1.75422684963E+02
1.84550000000E+07	-2.70216724282E+01	-9.53061851530E+01	3.72157412310E+01	-2.73767037329E+01	-4.73666548844E+01	-2.44742894416E+01	-2.99915945267E+01	1.75935124808E+02
1.86500000000E+07	-2.72969732507E+01	-9.49666247911E+01	3.72170681517E+01	-2.79286367976E+01	-4.74134547949E+01	-2.52771054438E+01	-2.99856683707E+01	1.76209938071E+02
1.88450000000E+07	-2.75281605995E+01	-9.46566674168E+01	3.72123201409E+01	-2.84764478399E+01	-4.74095412767E+01	-2.55417128643E+01	-2.98835835110E+01	1.77224826603E+02
1.90400000000E+07	-2.78096883341E+01	-9.43032805973E+01	3.72153923455E+01	-2.90021517978E+01	-4.74501111545E+01	-2.61562573932E+01	-2.98748249969E+01	1.77868538548E+02
1.92350000000E+07	-2.80667318096E+01	-9.37256514111E+01	3.72133771984E+01	-2.95853557310E+01	-4.74490011939E+01	-2.61499405866E+01	-2.98005896496E+01	1.78460780416E+02
1.94300000000E+07	-2.83567781415E+01	-9.32790124577E+01	3.72120946993E+01	-3.01224554546E+01	-4.74280410439E+01	-2.72414399490E+01	-2.97090911704E+01	1.78902997625E+02
1.96250000000E+07	-2.86136274332E+01	-9.28165348363E+01	3.72103772978E+01	-3.06567408846E+01	-4.74112116229E+01	-2.77944696008E+01	-2.96614456548E+01	1.79194417980E+02
1.98200000000E+07	-2.88885676018E+01	-9.23909788086E+01	3.72108758012E+01	-3.11955145823E+01	-4.74130382444E+01	-2.79896784963E+01	-2.96284792618E+01	-1.79589915286E+02
2.00150000000E+07	-2.91664182807E+01	-9.17835887449E+01	3.72054162365E+01	-3.17271762464E+01	-4.74378564507E+01	-2.91071515459E+01	-2.95874422601E+01	-1.78993105350E+02
2.02100000000E+07	-2.94489419967E+01	-9.10579570249E+01	3.72081906411E+01	-3.22574527775E+01	-4.74009006088E+01	-2.93302221444E+01	-2.95216983616E+01	-1.78522583234E+02
2.04050000000E+07	-2.97561668760E+01	-9.04165518456E+01	3.72028370180E+01	-3.27907157711E+01	-4.73902302161E+01	-2.99760110227E+01	-2.94654991421E+01	-1.78055081817E+02
2.06000000000E+07	-3.00163196996E+01	-8.96110502875E+01	3.72054596963E+01	-3.33029884736E+01	-4.74036071734E+01	-3.03492310534E+01	-2.94761301929E+01	-1.77552929527E+02
2.07950000000E+07	-3.02976282134E+01	-8.88223759488E+01	3.72043777852E+01	-3.38541725679E+01	-4.73889857885E+01	-3.05484747998E+01	-2.93558301003E+01	-1.77217669705E+02
2.09900000000E+07	-3.05908480965E+01	-8.77488559490E+01	3.71999719718E+01	-3.43545172402E+01	-4.74250305737E+01	-3.13001934071E+01	-2.93495356735E+01	-1.76447488011E+02
2.11850000000E+07	-3.08624858380E+01	-8.69050792513E+01	3.71978082045E+01	-3.48933178548E+01	-4.73844549981E+01	-3.17224451399E+01	-2.92671908584E+01	-1.76137074646E+02
2.13800000000E+07	-3.12129769565E+01	-8.57796065808E+01	3.71975140160E+01	-3.54096057804E+01	-4.73711313642E+01	-3.24068802689E+01	-2.92512658097E+01	-1.75936709994E+02
2.15750000000E+07	-3.14669659840E+01	-8.47877653747E+01	3.71927232083E+01	-3.59440193182E+01	-4.74522642927E+01	-3.25790168625E+01	-2.92216812388E+01	-1.75222056479E+02
2.17700000000E+07	-3.17475950337E+01	-8.33362164313E+01	3.71951979676E+01	-3.64532398409E+01	-4.74276529693E+01	-3.34868999410E+01	-2.92005659814E+01	-1.74451979046E+02
2.19650000000E+07	-3.20582567378E+01	-8.23121051827E+01	3.71935430065E+01	-3.69559162066E+01	-4.73875747000E+01	-3.35542526630E+01	-2.91083510233E+01	-1.74342733514E+02
2.21600000000E+07	-3.23017260967E+01	-8.08087073350E+01	3.71897262442E+01	-3.74666307825E+01	-4.74269584672E+01	-3.44534708672E+01	-2.90733105982E+01	-1.73630016546E+02
2.23550000000E+07	-3.26302861103E+01	-7.90960215118E+01	3.71870331915E+01	-3.79705487508E+01	-4.74119977755E+01	-3.55773740221E+01	-2.91221740359E+01	-1.73223369691E+02
2.25500000000E+07	-3.28748462431E+01	-7.81053748759E+01	3.71853166123E+01	-3.84815908625E+01	-4.74302838823E+01	-3.52961422672E+01	-2.89801773330E+01	-1.72833698982E+02
2.27450000000E+07	-3.31546043803E+01	-7.62551099127E+01	3.71875892250E+01	-3.90349901813E+01	-4.73899470486E+01	-3.60057903011E+01	-2.89993423571E+01	-1.72540151296E+02
2.29400000000E+07	-3.33970617350E+01	-7.42239184803E+01	3.71806973297E+01	-3.94954736805E+01	-4.73886548265E+01	-3.61717833433E+01	-2.89016917575E+01	-1.72083698760E+02
2.31350000000E+07	-3.37172584875E+01	-7.23653262538E+01	3.71755993208E+01	-4.00230606630E+01	-4.73276936977E+01	-3.66675599065E+01	-2.88402381637E+01	-1.71978043027E+02
2.33300000000E+07	-3.39242035645E+01	-7.05675703002E+01	3.71771236878E+01	-4.05192998967E+01	-4.73523115042E+01	-3.72759650266E+01	-2.88393582208E+01	-1.71227198813E+02
2.35250000000E+07	-3.42329256773E+01	-6.84099429722E+01	3.71760935286E+01	-4.10312111339E+01	-4.73277890771E+01	-3.77648731967E+01	-2.88027816482E+01	-1.71168443329E+02
2.37200000000E+07	-3.44390885440E+01	-6.59115257760E+01	3.71719709094E+01	-4.15042845161E+01	-4.73121101513E+01	-3.83612907580E+01	-2.87802098770E+01	-1.70494930111E+02
2.39150000000E+07	-3.46006465521E+01	-6.38083960910E+01	3.71735049922E+01	-4.20115359660E+01	-4.72932438638E+01	-3.89833565733E+01	-2.86831399031E+01	-1.69820464131E+02
2.41100000000E+07	-3.48037770714E+01	-6.13402920760E+01	3.71703578984E+01	-4.25170716728E+01	-4.74074642351E+01	-3.96531138051E+01	-2.87020372814E+01	-1.69720938006E+02
2.43050000000E+07	-3.49569966527E+01	-5.92335228493E+01	3.71643529109E+01	-4.30088704310E+01	-4.73778342680E+01	-3.94654882103E+01	-2.86202208144E+01	-1.69432184372E+02
2.45000000000E+07	-3.51746281438E+01	-5.61938310350E+01	3.71630030616E+01	-4.35065587949E+01	-4.73100372019E+01	-4.01771290418E+01	-2.86009923526E+01	-1.69129707852E+02
2.46950000000E+07	-3.52965899701E+01	-5.38809267582E+01	3.71641856297E+01	-4.39861388438E+01	-4.73632500251E+01	-4.09861804638E+01	-2.85581619861E+01	-1.68830667882E+02
2.48900000000E+07	-3.54158209772E+01	-5.10751947980E+01	3.71606790038E+01	-4.44785015488E+01	-4.73589302261E+01	-4.07719435476E+01	-2.85128428306E+01	-1.67949060857E+02
2.50850000000E+07	-3.54729459807E+01	-4.80670575561E+01	3.71585957866E+01	-4.49643414073E+01	-4.73577637148E+01	-4.16660128565E+01	-2.85304273578E+01	-1.68031147574E+02
2.52800000000E+07	-3.55389018817E+01	-4.51252085851E+01	3.71575011849E+01	-4.54670705332E+01	-4.73271476055E+01	-4.20872357333E+01	-2.84736918835E+01	-1.67159728555E+02
2.54750000000E+07	-3.55134166916E+01	-4.25329944665E+01	3.71536621835E+01	-4.59525840943E+01	-4.72908579815E+01	-4.24186312118E+01	-2.84284198793E+01	-1.66962250572E+02
2.56700000000E+07	-3.55541746606E+01	-4.02041410617E+01	3.71534044303E+01	-4.64406358759E+01	-4.73544622801E+01	-4.29159881986E+01	-2.84009914585E+01	-1.66940041662E+02
2.58650000000E+07	-3.55211440740E+01	-3.72400864204E+01	3.71500154997E+01	-4.68976540934E+01	-4.73784722015E+01	-4.35326307915E+01	-2.83325212613E+01	-1.66514373935E+02
2.60600000000E+07	-3.55128724825E+01	-3.48775330690E+01	3.71425759687E+01	-4.74112257337E+01	-4.73611625948E+01	-4.41083092711E+01	-2.83364478403E+01	-1.66078623941E+02
2.62550000000E+07	-3.54463245922E+01	-3.21254446388E+01	3.71411900779E+01	-4.78873300969E+01	-4.73040732734E+01	-4.42603411522E+01	-2.82938336031E+01	-1.65792269566E+02
2.64500000000E+07	-3.53376690304E+01	-2.92713618016E+01	3.71402372261E+01	-4.83760416339E+01	-4.73333871587E+01	-4.48942895034E+01	-2.82820346319E+01	-1.65614495265E+02
2.66450000000E+07	-3.52104994021E+01	-2.71855312925E+01	3.71391147606E+01	-4.88593450180E+01	-4.73120728142E+01	-4.54559336015E+01	-2.82412213313E+01	-1.65229343336E+02
2.68400000000E+07	-3.51058289887E+01	-2.51734846883E+01	3.71364958444E+01	-4.93221946968E+01	-4.73126631655E+01	-4.52371815646E+01	-2.82317290514E+01	-1.64999520746E+02
2.70350000000E+07	-3.49867572635E+01	-2.27116964805E+01	3.71323843450E+01	-4.98137941138E+01	-4.73268734281E+01	-4.58850245697E+01	-2.81538745093E+01	-1.64369909536E+02
2.72300000000E+07	-3.47852659203E+01	-2.04125957086E+01	3.71327785098E+01	-5.02965026589E+01	-4.72521944988E+01	-4.67563308998E+01	-2.81100895727E+01	-1.64294106786E+02
2.74250000000E+07	-3.46452201468E+01	-1.84535913075E+01	3.71287001190E+01	-5.07728380914E+01	-4.72655085211E+01	-4.70862415545E+01	-2.81053609475E+01	-1.64031375152E+02
2.76200000000E+07	-3.44653697597E+01	-1.67749896950E+01	3.71248145105E+01	-5.12354932016E+01	-4.72653180301E+01	-4.71828814758E+01	-2.80732212946E+01	-1.63487904724E+02
