# Hz S DB R 50
! CMT, M5045, 22160017, 22.4.3/2
! Date: 2/27/2023 00:47:27
! Data: Format (Calibration Info)
! Freq	S11:dB/Ang(F2)	S21:dB/Ang(F2)	S12:dB/Ang(F2)	S22:dB/Ang(F2)
5.00000000000E+06	-9.93041775864E+00	-7.45953910107E+01	3.64848068368E+01	3.57028626771E+01	-4.85287091155E+01	3.86577407189E+01	-1.56329120739E+01	7.40760462614E+01
5.19500000000E+06	-1.02870399021E+01	-7.54438208063E+01	3.65658619937E+01	3.35660108072E+01	-4.84912657571E+01	3.64416423948E+01	-1.63243352348E+01	7.36831516386E+01
5.39000000000E+06	-1.06313589972E+01	-7.62655763230E+01	3.66335809240E+01	3.15351401424E+01	-4.84452727834E+01	3.44465452579E+01	-1.70324860646E+01	7.33847945441E+01
5.58500000000E+06	-1.09646134520E+01	-7.69703448517E+01	3.66964351618E+01	2.96308999338E+01	-4.83353091202E+01	3.25252049253E+01	-1.77151040341E+01	7.34039713098E+01
5.78000000000E+06	-1.12934428434E+01	-7.76806268715E+01	3.67520196206E+01	2.77838902528E+01	-4.83309618258E+01	3.05175562256E+01	-1.83928684037E+01	7.35639173201E+01
5.97500000000E+06	-1.16147105567E+01	-7.82922565040E+01	3.67972139580E+01	2.60656119225E+01	-4.83039723198E+01	2.86826884065E+01	-1.90471646376E+01	7.39039412755E+01
6.17000000000E+06	-1.19204943740E+01	-7.88967879985E+01	3.68410915505E+01	2.43926935388E+01	-4.81422258565E+01	2.69367679533E+01	-1.97064497944E+01	7.45130805659E+01
6.36500000000E+06	-1.22259950032E+01	-7.94576926731E+01	3.68797824884E+01	2.28126723036E+01	-4.81405662335E+01	2.56495072201E+01	-2.03467604325E+01	7.50131804876E+01
6.56000000000E+06	-1.25253190820E+01	-7.99615988706E+01	3.69161786105E+01	2.12813797534E+01	-4.81311395246E+01	2.41692352936E+01	-2.10019803417E+01	7.58914054079E+01
6.75500000000E+06	-1.28075814508E+01	-8.04751778199E+01	3.69477009099E+01	1.98352279340E+01	-4.80276980865E+01	2.26200215268E+01	-2.15921336932E+01	7.68758935593E+01
6.95000000000E+06	-1.30975355844E+01	-8.09194863931E+01	3.69742432377E+01	1.84296695985E+01	-4.80367863868E+01	2.09158456071E+01	-2.22086250287E+01	7.78648569755E+01
7.14500000000E+06	-1.33713347144E+01	-8.13839401990E+01	3.70045360357E+01	1.70856700671E+01	-4.79448201203E+01	1.96360754207E+01	-2.27929260387E+01	7.92262726237E+01
7.34000000000E+06	-1.36457457077E+01	-8.17335332634E+01	3.70287133104E+01	1.58171141795E+01	-4.79528450935E+01	1.86872809733E+01	-2.33998741208E+01	8.08314992530E+01
7.53500000000E+06	-1.39141411078E+01	-8.21283861234E+01	3.70476429676E+01	1.45538788066E+01	-4.78774244836E+01	1.74198420060E+01	-2.39676596725E+01	8.23601201639E+01
7.73000000000E+06	-1.41778009987E+01	-8.24750564082E+01	3.70685273787E+01	1.33328774687E+01	-4.78987658437E+01	1.65721133449E+01	-2.44997724870E+01	8.39591770715E+01
7.92500000000E+06	-1.44392527092E+01	-8.27875531025E+01	3.70834063041E+01	1.21712683677E+01	-4.78530762106E+01	1.48430492736E+01	-2.50639154800E+01	8.60481256501E+01
8.12000000000E+06	-1.46958508625E+01	-8.31727238254E+01	3.71046559902E+01	1.10297264549E+01	-4.78936708223E+01	1.30252241437E+01	-2.55627322794E+01	8.78932432385E+01
8.31500000000E+06	-1.49467213992E+01	-8.34697307743E+01	3.71177126913E+01	9.92144079563E+00	-4.78839123334E+01	1.29721091114E+01	-2.60213471542E+01	9.00586354903E+01
8.51000000000E+06	-1.51924929933E+01	-8.36843476753E+01	3.71290121687E+01	8.86849372982E+00	-4.77944630114E+01	1.21209693693E+01	-2.64998913286E+01	9.28080462830E+01
8.70500000000E+06	-1.54424580917E+01	-8.39459331451E+01	3.71449015038E+01	7.82317848151E+00	-4.77851695102E+01	1.05204642272E+01	-2.69961176120E+01	9.56487729397E+01
8.90000000000E+06	-1.56861788098E+01	-8.42610312804E+01	3.71547687065E+01	6.80901914437E+00	-4.77243066907E+01	9.31784805431E+00	-2.73514574184E+01	9.79618172850E+01
9.09500000000E+06	-1.59262696025E+01	-8.45113868595E+01	3.71653997402E+01	5.82196895575E+00	-4.77985012656E+01	8.32689822613E+00	-2.77818935650E+01	1.00646360747E+02
9.29000000000E+06	-1.61587424001E+01	-8.46915443307E+01	3.71768616521E+01	4.86385045563E+00	-4.77941162529E+01	7.41684932270E+00	-2.80637862557E+01	1.03626809915E+02
9.48500000000E+06	-1.63949530276E+01	-8.49513912496E+01	3.71836325749E+01	3.92115783249E+00	-4.77257923585E+01	6.62942495340E+00	-2.83789073549E+01	1.06917724683E+02
9.68000000000E+06	-1.66272589184E+01	-8.51159322985E+01	3.71946909971E+01	2.99878503970E+00	-4.77476018810E+01	5.99271486502E+00	-2.86530786210E+01	1.09761904116E+02
9.87500000000E+06	-1.68633131018E+01	-8.54128993102E+01	3.71994447362E+01	2.10522470341E+00	-4.77270646980E+01	5.10582734899E+00	-2.88830181212E+01	1.12767225867E+02
1.00700000000E+07	-1.70912416660E+01	-8.55425470695E+01	3.72057083185E+01	1.20800232469E+00	-4.77242769393E+01	4.31428803873E+00	-2.90835794821E+01	1.16075620317E+02
1.02650000000E+07	-1.73193101561E+01	-8.57403682324E+01	3.72160211499E+01	3.52324858896E-01	-4.77352865745E+01	3.20183460142E+00	-2.92746006041E+01	1.18925918265E+02
1.04600000000E+07	-1.75354235288E+01	-8.59032992701E+01	3.72199855795E+01	-4.79253378614E-01	-4.76766185590E+01	2.16817535263E+00	-2.93772901066E+01	1.21643690190E+02
1.06550000000E+07	-1.77592158409E+01	-8.60768109867E+01	3.72275466755E+01	-1.33696284992E+00	-4.76725566308E+01	1.89582887943E+00	-2.95147180660E+01	1.23957559833E+02
1.08500000000E+07	-1.79757333203E+01	-8.62224231483E+01	3.72335992784E+01	-2.14875149828E+00	-4.76258340340E+01	7.66208041072E-01	-2.95777303660E+01	1.26701883098E+02
1.10450000000E+07	-1.81983396582E+01	-8.64221694354E+01	3.72388886246E+01	-2.94833002362E+00	-4.76538243536E+01	-5.37772336680E-01	-2.96119355950E+01	1.29053842030E+02
1.12400000000E+07	-1.84131088609E+01	-8.66184258591E+01	3.72461335079E+01	-3.77554971245E+00	-4.76385693487E+01	-9.83153862900E-01	-2.96367692740E+01	1.31343864594E+02
1.14350000000E+07	-1.86233843035E+01	-8.67228824564E+01	3.72521657134E+01	-4.56508576561E+00	-4.75996028000E+01	-1.51960915904E+00	-2.96135310049E+01	1.34163470037E+02
1.16300000000E+07	-1.88251890797E+01	-8.68679433443E+01	3.72584874315E+01	-5.36444333885E+00	-4.76212139737E+01	-2.44691467353E+00	-2.96234161288E+01	1.36508014047E+02
1.18250000000E+07	-1.90516759904E+01	-8.69309365829E+01	3.72591807106E+01	-6.13081700660E+00	-4.76145965052E+01	-3.05409473684E+00	-2.95453121036E+01	1.38038930659E+02
1.20200000000E+07	-1.92727704000E+01	-8.70056274432E+01	3.72616824562E+01	-6.92410327812E+00	-4.77481577212E+01	-3.92643625403E+00	-2.96492316931E+01	1.40193501606E+02
1.22150000000E+07	-1.94731187746E+01	-8.71456592126E+01	3.72637882737E+01	-7.67277597739E+00	-4.75289178437E+01	-4.75708342289E+00	-2.95826039484E+01	1.42718983483E+02
1.24100000000E+07	-1.96895345704E+01	-8.71835254881E+01	3.72628988438E+01	-8.39964251610E+00	-4.75952418597E+01	-6.17347316398E+00	-2.96049952510E+01	1.44283083191E+02
1.26050000000E+07	-1.99088918616E+01	-8.72550134583E+01	3.72649721539E+01	-9.08028791766E+00	-4.76532005856E+01	-6.73215266719E+00	-2.95430422461E+01	1.46442309602E+02
1.28000000000E+07	-2.01225918020E+01	-8.72154793970E+01	3.72649651696E+01	-9.81277809297E+00	-4.76212409610E+01	-7.33643741641E+00	-2.94914651509E+01	1.47992406282E+02
1.29950000000E+07	-2.03262878714E+01	-8.71993842112E+01	3.72678337303E+01	-1.04774091942E+01	-4.76278212993E+01	-7.30801749447E+00	-2.94245548316E+01	1.49553429104E+02
1.31900000000E+07	-2.05408356532E+01	-8.72240630004E+01	3.72756510683E+01	-1.11352574225E+01	-4.76121621045E+01	-8.53064579294E+00	-2.94123992651E+01	1.50542201436E+02
1.33850000000E+07	-2.07621665285E+01	-8.71690951277E+01	3.72703255291E+01	-1.18381724483E+01	-4.75536171775E+01	-9.35746114707E+00	-2.93519034287E+01	1.52774654934E+02
1.35800000000E+07	-2.09503598935E+01	-8.71281217039E+01	3.72765986696E+01	-1.24783917848E+01	-4.75491997230E+01	-9.73519147685E+00	-2.92172162982E+01	1.53904118671E+02
1.37750000000E+07	-2.11525055839E+01	-8.70787652876E+01	3.72790141927E+01	-1.31514746742E+01	-4.75942538473E+01	-1.06042751681E+01	-2.91883361581E+01	1.55000862158E+02
1.39700000000E+07	-2.13678897955E+01	-8.69866388825E+01	3.72799364327E+01	-1.38028117549E+01	-4.75934081373E+01	-1.13032740122E+01	-2.90890488966E+01	1.56513806876E+02
1.41650000000E+07	-2.15879839685E+01	-8.68890468350E+01	3.72827872822E+01	-1.44598451131E+01	-4.75980431100E+01	-1.23940567167E+01	-2.90267256300E+01	1.57275550438E+02
1.43600000000E+07	-2.17919699975E+01	-8.67901555773E+01	3.72800843086E+01	-1.51086620936E+01	-4.75441906822E+01	-1.27201017120E+01	-2.89257545579E+01	1.58263323530E+02
1.45550000000E+07	-2.19926698566E+01	-8.66317624060E+01	3.72858383006E+01	-1.57148338913E+01	-4.75385448090E+01	-1.32241052132E+01	-2.89025207613E+01	1.59609194568E+02
1.47500000000E+07	-2.22033953304E+01	-8.65748738933E+01	3.72847548701E+01	-1.63566395794E+01	-4.75174109919E+01	-1.38413798605E+01	-2.88790118943E+01	1.60610775861E+02
1.49450000000E+07	-2.24131442985E+01	-8.62342944364E+01	3.72839639286E+01	-1.70066774384E+01	-4.76384310247E+01	-1.44486043314E+01	-2.87991901489E+01	1.60821513692E+02
1.51400000000E+07	-2.26253192770E+01	-8.60729573474E+01	3.72889233587E+01	-1.76060544657E+01	-4.75433235830E+01	-1.50408789602E+01	-2.87617878377E+01	1.62339901672E+02
1.53350000000E+07	-2.28191207155E+01	-8.59497045717E+01	3.72849924741E+01	-1.82271167595E+01	-4.74950991150E+01	-1.56526418893E+01	-2.87004247069E+01	1.63299652355E+02
1.55300000000E+07	-2.30327008396E+01	-8.56201589464E+01	3.72870282454E+01	-1.88324054748E+01	-4.75938820694E+01	-1.61503458613E+01	-2.86112258933E+01	1.63893377270E+02
1.57250000000E+07	-2.32258654462E+01	-8.55405702238E+01	3.72867727363E+01	-1.94515949864E+01	-4.75169169720E+01	-1.68574551557E+01	-2.85425125180E+01	1.64600359884E+02
1.59200000000E+07	-2.34410581226E+01	-8.52190285005E+01	3.72891011283E+01	-2.00655027197E+01	-4.75195711581E+01	-1.73346093017E+01	-2.84487278355E+01	1.65524829472E+02
1.61150000000E+07	-2.36412804707E+01	-8.48749709976E+01	3.72874064322E+01	-2.06431658402E+01	-4.75422964080E+01	-1.80473464135E+01	-2.84031438407E+01	1.65949172315E+02
1.63100000000E+07	-2.38647157006E+01	-8.46059148409E+01	3.72865839604E+01	-2.12476221025E+01	-4.75467354127E+01	-1.85000311641E+01	-2.83534879134E+01	1.66526751269E+02
1.65050000000E+07	-2.40598680738E+01	-8.42482670278E+01	3.72877424314E+01	-2.18129336293E+01	-4.75364911523E+01	-1.87218254663E+01	-2.83155896717E+01	1.67469147174E+02
1.67000000000E+07	-2.42605189569E+01	-8.38723570767E+01	3.72876655480E+01	-2.24287585737E+01	-4.75662394568E+01	-1.96205756220E+01	-2.83029864734E+01	1.67873667067E+02
1.68950000000E+07	-2.44722650089E+01	-8.36134320375E+01	3.72877115466E+01	-2.30069709437E+01	-4.75360578134E+01	-2.05380378668E+01	-2.82196263853E+01	1.68652050884E+02
1.70900000000E+07	-2.46609311973E+01	-8.31281643334E+01	3.72841508375E+01	-2.35703218226E+01	-4.75630183362E+01	-2.05796127090E+01	-2.81376077564E+01	1.69202199339E+02
1.72850000000E+07	-2.48881588306E+01	-8.26405551621E+01	3.72837011716E+01	-2.41513156332E+01	-4.74997732568E+01	-2.20241943036E+01	-2.81429473609E+01	1.69477061302E+02
1.74800000000E+07	-2.50692499635E+01	-8.22236308187E+01	3.72881119036E+01	-2.47443224090E+01	-4.74852570942E+01	-2.21755175978E+01	-2.80902792839E+01	1.69972283200E+02
1.76750000000E+07	-2.52743232401E+01	-8.16695992627E+01	3.72843315146E+01	-2.52677074734E+01	-4.75575122740E+01	-2.27301735392E+01	-2.80423146247E+01	1.70589116451E+02
1.78700000000E+07	-2.54966660103E+01	-8.12174434401E+01	3.72820893590E+01	-2.58622577334E+01	-4.75251948989E+01	-2.32890085669E+01	-2.79773801898E+01	1.71279459337E+02
1.80650000000E+07	-2.56935411523E+01	-8.05356114976E+01	3.72847120065E+01	-2.64174698554E+01	-4.74897825842E+01	-2.35873441805E+01	-2.79682006120E+01	1.71608221912E+02
1.82600000000E+07	-2.58930486965E+01	-8.00430614772E+01	3.72836736903E+01	-2.69948703294E+01	-4.75130541603E+01	-2.40569895518E+01	-2.79771029254E+01	1.72359716039E+02
1.84550000000E+07	-2.61006493096E+01	-7.94495665063E+01	3.72779060726E+01	-2.75313754585E+01	-4.74413741024E+01	-2.49556227457E+01	-2.78726068855E+01	1.72592910378E+02
1.86500000000E+07	-2.62885338798E+01	-7.88491015123E+01	3.72780302258E+01	-2.80787850857E+01	-4.74773528188E+01	-2.55240265028E+01	-2.78804105739E+01	1.72986760111E+02
1.88450000000E+07	-2.64842103390E+01	-7.81284999396E+01	3.72823269741E+01	-2.86387495341E+01	-4.75033771834E+01	-2.61419443854E+01	-2.78034454654E+01	1.73521563252E+02
1.90400000000E+07	-2.66731294710E+01	-7.74371888567E+01	3.72798699512E+01	-2.91944227093E+01	-4.74743119714E+01	-2.59615351026E+01	-2.77730382713E+01	1.73911592383E+02
1.92350000000E+07	-2.68835045410E+01	-7.67767152347E+01	3.72796964170E+01	-2.97358315611E+01	-4.74793044220E+01	-2.70741774981E+01	-2.77989264313E+01	1.73934738991E+02
1.94300000000E+07	-2.70637101288E+01	-7.59530026579E+01	3.72789871192E+01	-3.02832633392E+01	-4.75197482925E+01	-2.75176473130E+01	-2.77205539762E+01	1.74313349981E+02
1.96250000000E+07	-2.72527975999E+01	-7.51266895422E+01	3.72746207941E+01	-3.08196114062E+01	-4.74911472504E+01	-2.77334553712E+01	-2.77000103708E+01	1.74959819281E+02
1.98200000000E+07	-2.74296054055E+01	-7.42677661852E+01	3.72770052406E+01	-3.13482736463E+01	-4.75078616309E+01	-2.79862483811E+01	-2.76152013437E+01	1.75363329041E+02
2.00150000000E+07	-2.76234964546E+01	-7.33070120582E+01	3.72694006323E+01	-3.19021445822E+01	-4.74619351873E+01	-2.93095911757E+01	-2.75999481450E+01	1.75690606622E+02
2.02100000000E+07	-2.78205196795E+01	-7.23150502850E+01	3.72703332011E+01	-3.24121371658E+01	-4.74848792082E+01	-2.96096742607E+01	-2.76231829453E+01	1.75660383339E+02
2.04050000000E+07	-2.79843882880E+01	-7.14959401911E+01	3.72659654505E+01	-3.29690126511E+01	-4.74124274997E+01	-3.00495778750E+01	-2.75862006565E+01	1.76265275128E+02
2.06000000000E+07	-2.81625949785E+01	-7.04369248239E+01	3.72675753273E+01	-3.34916245110E+01	-4.74722385720E+01	-3.04988599153E+01	-2.75354459253E+01	1.76493073062E+02
2.07950000000E+07	-2.83068055500E+01	-6.92889062297E+01	3.72661136899E+01	-3.39898079678E+01	-4.75206350285E+01	-3.10463167879E+01	-2.75926641910E+01	1.76901768336E+02
2.09900000000E+07	-2.84555654939E+01	-6.83165648573E+01	3.72635698395E+01	-3.45254139927E+01	-4.75160333937E+01	-3.14557065112E+01	-2.74853187298E+01	1.77352361204E+02
2.11850000000E+07	-2.86431521886E+01	-6.72675517503E+01	3.72629734376E+01	-3.50826771953E+01	-4.74229743210E+01	-3.22097384865E+01	-2.75207841475E+01	1.77664412578E+02
2.13800000000E+07	-2.87822091416E+01	-6.61267131806E+01	3.72611370159E+01	-3.55824066607E+01	-4.74025204389E+01	-3.22178687945E+01	-2.74825158746E+01	1.78047404375E+02
2.15750000000E+07	-2.89643037208E+01	-6.46273071484E+01	3.72578824512E+01	-3.60845722753E+01	-4.74331446354E+01	-3.35753379028E+01	-2.74535375505E+01	1.78368500285E+02
2.17700000000E+07	-2.91052048616E+01	-6.36158427977E+01	3.72531590318E+01	-3.66245229016E+01	-4.74674706212E+01	-3.36167898617E+01	-2.74395631429E+01	1.78421780420E+02
2.19650000000E+07	-2.92198223867E+01	-6.22820180467E+01	3.72519484670E+01	-3.71129614342E+01	-4.74680253771E+01	-3.42928714662E+01	-2.74211642648E+01	1.78977270332E+02
2.21600000000E+07	-2.93657081664E+01	-6.11386737266E+01	3.72507560743E+01	-3.76350416489E+01	-4.74623268198E+01	-3.44122147743E+01	-2.74221860099E+01	1.78827324781E+02
2.23550000000E+07	-2.95047701187E+01	-5.96587035760E+01	3.72515175854E+01	-3.81555953149E+01	-4.74970416622E+01	-3.52946425821E+01	-2.73865448399E+01	1.79259410395E+02
2.25500000000E+07	-2.95775725743E+01	-5.85447157666E+01	3.72515388897E+01	-3.86730597644E+01	-4.74631754720E+01	-3.54005662073E+01	-2.73698452178E+01	-1.79954713816E+02
2.27450000000E+07	-2.97002538399E+01	-5.70347078472E+01	3.72469216017E+01	-3.91758095176E+01	-4.74860935078E+01	-3.62559599148E+01	-2.73742511048E+01	-1.79942948612E+02
2.29400000000E+07	-2.98119914168E+01	-5.57590429723E+01	3.72430123760E+01	-3.96805221391E+01	-4.74338423511E+01	-3.60770359190E+01	-2.73391808888E+01	-1.79607680432E+02
2.31350000000E+07	-2.98900694795E+01	-5.40267350032E+01	3.72442292649E+01	-4.01883056133E+01	-4.73934307903E+01	-3.72069698382E+01	-2.73563812418E+01	-1.79466453770E+02
2.33300000000E+07	-2.99709428490E+01	-5.29913122231E+01	3.72406691477E+01	-4.06794658531E+01	-4.74032212028E+01	-3.75869754257E+01	-2.73176920392E+01	-1.79043912515E+02
2.35250000000E+07	-3.00824245596E+01	-5.15374794756E+01	3.72399895909E+01	-4.11995585477E+01	-4.74061572154E+01	-3.80290376103E+01	-2.73206073313E+01	-1.78996911814E+02
2.37200000000E+07	-3.00896307622E+01	-4.99514211483E+01	3.72343699406E+01	-4.17158809473E+01	-4.74574300217E+01	-3.88758438684E+01	-2.73178683424E+01	-1.78338507810E+02
2.39150000000E+07	-3.01812659558E+01	-4.85911840157E+01	3.72364702487E+01	-4.21797240801E+01	-4.74148231666E+01	-3.90242231481E+01	-2.73601384565E+01	-1.78284453687E+02
2.41100000000E+07	-3.01887620577E+01	-4.70078436548E+01	3.72360775411E+01	-4.26916709719E+01	-4.74261181879E+01	-3.97213191140E+01	-2.72915112790E+01	-1.77996127886E+02
2.43050000000E+07	-3.02553732018E+01	-4.58362879583E+01	3.72313052440E+01	-4.32036176257E+01	-4.74128291060E+01	-3.97174987576E+01	-2.72676119984E+01	-1.77403917607E+02
2.45000000000E+07	-3.02752337546E+01	-4.42056421193E+01	3.72294052824E+01	-4.36562254195E+01	-4.73578356260E+01	-4.05052707880E+01	-2.72085493257E+01	-1.77301051835E+02
2.46950000000E+07	-3.02957083122E+01	-4.29351085987E+01	3.72271534090E+01	-4.41786151580E+01	-4.74060636927E+01	-4.09073876972E+01	-2.72538599290E+01	-1.77162942912E+02
2.48900000000E+07	-3.03092798709E+01	-4.14578096012E+01	3.72219649555E+01	-4.46586930585E+01	-4.74665949386E+01	-4.14845099275E+01	-2.72905018417E+01	-1.76704877168E+02
2.50850000000E+07	-3.03089819479E+01	-3.98747908544E+01	3.72233118513E+01	-4.51564975493E+01	-4.74057662674E+01	-4.17554504142E+01	-2.72248546058E+01	-1.76544713252E+02
2.52800000000E+07	-3.03203631420E+01	-3.84406536463E+01	3.72193392719E+01	-4.56496266775E+01	-4.74048776061E+01	-4.24791190482E+01	-2.72644795390E+01	-1.75891957931E+02
2.54750000000E+07	-3.03138113343E+01	-3.72765588724E+01	3.72190376059E+01	-4.61609238555E+01	-4.74382069385E+01	-4.22768950548E+01	-2.71970949828E+01	-1.75790387509E+02
2.56700000000E+07	-3.02982096520E+01	-3.58525185385E+01	3.72163648791E+01	-4.66277953619E+01	-4.73158045977E+01	-4.33596956473E+01	-2.72109626590E+01	-1.76037405143E+02
2.58650000000E+07	-3.02480611229E+01	-3.46795434166E+01	3.72149523784E+01	-4.70998308533E+01	-4.74413537947E+01	-4.38801144062E+01	-2.71571837669E+01	-1.75379548569E+02
2.60600000000E+07	-3.02428870777E+01	-3.32800822874E+01	3.72066164777E+01	-4.75942508714E+01	-4.73967385057E+01	-4.41543235774E+01	-2.71928695354E+01	-1.75019974564E+02
2.62550000000E+07	-3.01880950175E+01	-3.19824133671E+01	3.72070127035E+01	-4.80712719567E+01	-4.74214126736E+01	-4.48635246170E+01	-2.71427369042E+01	-1.74854751041E+02
2.64500000000E+07	-3.01684688681E+01	-3.09541503348E+01	3.72058722201E+01	-4.85889329647E+01	-4.74020125006E+01	-4.48489539284E+01	-2.71294937932E+01	-1.74437878985E+02
2.66450000000E+07	-3.00740297637E+01	-2.95421765314E+01	3.72023469301E+01	-4.90287801817E+01	-4.73314738429E+01	-4.52708879929E+01	-2.71618920037E+01	-1.74302843876E+02
2.68400000000E+07	-3.00524668873E+01	-2.83476919166E+01	3.72004873140E+01	-4.95172295948E+01	-4.73706351911E+01	-4.58632220571E+01	-2.70898010107E+01	-1.74303705429E+02
2.70350000000E+07	-2.99727795500E+01	-2.74386459021E+01	3.71964066221E+01	-4.99796588308E+01	-4.73629506228E+01	-4.68419140863E+01	-2.71382328927E+01	-1.73681000974E+02
2.72300000000E+07	-2.99158831107E+01	-2.65052248575E+01	3.71934581730E+01	-5.04756485122E+01	-4.73973934301E+01	-4.67599014132E+01	-2.70485933435E+01	-1.73602795515E+02
2.74250000000E+07	-2.98324146517E+01	-2.55397735795E+01	3.71925210931E+01	-5.09623133141E+01	-4.74500103656E+01	-4.70824833778E+01	-2.71106585843E+01	-1.73181799584E+02
2.76200000000E+07	-2.97564740360E+01	-2.44475076831E+01	3.71895867799E+01	-5.14355708350E+01	-4.74331961360E+01	-4.77453291815E+01	-2.70633140510E+01	-1.72912053319E+02
