# Hz S DB R 50
! CMT, M5045, 22160017, 22.3.3/2
! Date: 10/8/2022 17:32:34
! Data: Format (Calibration Info)
! Freq	S11:dB/Ang(F2)	S21:dB/Ang(F2)	S12:dB/Ang(F2)	S22:dB/Ang(F2)
5.00000000000E+06	-1.00045503927E+01	-9.20020019092E+01	3.64876528416E+01	-1.50317804443E+02	-4.85876010754E+01	-1.47534274359E+02	-1.42530136657E+01	6.26366906723E+01
5.19500000000E+06	-1.03454384545E+01	-9.35504794987E+01	3.65628638192E+01	-1.52595354408E+02	-4.85156309857E+01	-1.49835972873E+02	-1.48069143726E+01	6.12192485741E+01
5.39000000000E+06	-1.06739254257E+01	-9.50316813791E+01	3.66268820920E+01	-1.54736183893E+02	-4.84335854823E+01	-1.52027168917E+02	-1.53498164654E+01	5.99094297025E+01
5.58500000000E+06	-1.09933922863E+01	-9.65060203024E+01	3.66839491202E+01	-1.56823499657E+02	-4.83777288038E+01	-1.54082767174E+02	-1.58781430533E+01	5.86777341788E+01
5.78000000000E+06	-1.13038659606E+01	-9.79269545210E+01	3.67358527357E+01	-1.58779420020E+02	-4.83242533730E+01	-1.56042295256E+02	-1.63962024128E+01	5.75146133174E+01
5.97500000000E+06	-1.16012257083E+01	-9.92626464134E+01	3.67834647979E+01	-1.60661205484E+02	-4.82730304173E+01	-1.57931419197E+02	-1.69019548181E+01	5.64103103453E+01
6.17000000000E+06	-1.18852311112E+01	-1.00548633137E+02	3.68249540258E+01	-1.62456425105E+02	-4.82277890881E+01	-1.59736282225E+02	-1.73998608460E+01	5.53635191929E+01
6.36500000000E+06	-1.21825875771E+01	-1.01807534076E+02	3.68568331451E+01	-1.64168957838E+02	-4.81775385720E+01	-1.61467830428E+02	-1.78875124544E+01	5.43655644965E+01
6.56000000000E+06	-1.24475220081E+01	-1.03118849999E+02	3.68950750401E+01	-1.65836895501E+02	-4.81378453667E+01	-1.63121092733E+02	-1.83666643507E+01	5.34199168521E+01
6.75500000000E+06	-1.27211212172E+01	-1.04339438087E+02	3.69235689736E+01	-1.67456791118E+02	-4.81048245404E+01	-1.64706439609E+02	-1.88379179364E+01	5.24942510512E+01
6.95000000000E+06	-1.29886290748E+01	-1.05504045734E+02	3.69474121821E+01	-1.69001472759E+02	-4.80714147082E+01	-1.66280380724E+02	-1.93026853821E+01	5.16266118047E+01
7.14500000000E+06	-1.32425494459E+01	-1.06652626495E+02	3.69743443869E+01	-1.70470138725E+02	-4.80392703008E+01	-1.67792416510E+02	-1.97618215282E+01	5.07748966661E+01
7.34000000000E+06	-1.34925251480E+01	-1.07855866038E+02	3.69982472515E+01	-1.71912987088E+02	-4.80127336403E+01	-1.69198209352E+02	-2.02129232811E+01	4.99365086594E+01
7.53500000000E+06	-1.37284654586E+01	-1.08925371114E+02	3.70193474050E+01	-1.73297487194E+02	-4.79830052516E+01	-1.70558102433E+02	-2.06578473591E+01	4.91491603059E+01
7.73000000000E+06	-1.39760860558E+01	-1.10063398712E+02	3.70349554200E+01	-1.74690989056E+02	-4.79583271731E+01	-1.71922613118E+02	-2.10972614000E+01	4.83654685820E+01
7.92500000000E+06	-1.42109023492E+01	-1.11135893117E+02	3.70540493316E+01	-1.76003625550E+02	-4.79373750941E+01	-1.73279128234E+02	-2.15351102751E+01	4.75896484602E+01
8.12000000000E+06	-1.44413487531E+01	-1.12259618564E+02	3.70689895148E+01	-1.77296985708E+02	-4.79146345696E+01	-1.74544258156E+02	-2.19708988394E+01	4.68606005119E+01
8.31500000000E+06	-1.46709774795E+01	-1.13316173402E+02	3.70820938334E+01	-1.78534474389E+02	-4.78988563796E+01	-1.75827782699E+02	-2.23996790593E+01	4.61286181293E+01
8.51000000000E+06	-1.48937162593E+01	-1.14384139387E+02	3.70927557387E+01	-1.79770669061E+02	-4.78792797927E+01	-1.77021162115E+02	-2.28338380897E+01	4.53810288457E+01
8.70500000000E+06	-1.51140162258E+01	-1.15432033653E+02	3.71062459681E+01	1.79014814844E+02	-4.78549123951E+01	-1.78231875902E+02	-2.32586729470E+01	4.46511902077E+01
8.90000000000E+06	-1.53315900748E+01	-1.16465513836E+02	3.71125590254E+01	1.77872415558E+02	-4.78462560881E+01	-1.79365644235E+02	-2.36811380795E+01	4.39521474764E+01
9.09500000000E+06	-1.55433026482E+01	-1.17503070866E+02	3.71264336819E+01	1.76706923280E+02	-4.78292980713E+01	1.79477546561E+02	-2.41057787288E+01	4.32509219883E+01
9.29000000000E+06	-1.57551027190E+01	-1.18589389045E+02	3.71387904850E+01	1.75564862216E+02	-4.78148278400E+01	1.78391607197E+02	-2.45306106095E+01	4.25648369878E+01
9.48500000000E+06	-1.59633800285E+01	-1.19582576881E+02	3.71442877359E+01	1.74487372288E+02	-4.78035711417E+01	1.77233478634E+02	-2.49523536171E+01	4.18642177468E+01
9.68000000000E+06	-1.61720320761E+01	-1.20617496791E+02	3.71498744460E+01	1.73398795465E+02	-4.77896386094E+01	1.76176354974E+02	-2.53787319751E+01	4.11733467987E+01
9.87500000000E+06	-1.63697555646E+01	-1.21626795703E+02	3.71589894702E+01	1.72350486924E+02	-4.77819800571E+01	1.75072895764E+02	-2.57966314691E+01	4.04665963941E+01
1.00700000000E+07	-1.65681178030E+01	-1.22633326311E+02	3.71614049268E+01	1.71293857869E+02	-4.77650886263E+01	1.74061166320E+02	-2.62301336212E+01	3.96453626569E+01
1.02650000000E+07	-1.67673737415E+01	-1.23609602500E+02	3.71710223024E+01	1.70292252748E+02	-4.77591170468E+01	1.73027265362E+02	-2.66715907007E+01	3.90223708160E+01
1.04600000000E+07	-1.69538774258E+01	-1.24582563850E+02	3.71794996620E+01	1.69290932713E+02	-4.77473297292E+01	1.72000735120E+02	-2.71050132975E+01	3.83151399005E+01
1.06550000000E+07	-1.71546998770E+01	-1.25643515176E+02	3.71829742659E+01	1.68292502343E+02	-4.77368712318E+01	1.70998958493E+02	-2.75327249265E+01	3.75747312399E+01
1.08500000000E+07	-1.73332436529E+01	-1.26626993787E+02	3.71860380156E+01	1.67292152712E+02	-4.77334583488E+01	1.70005105898E+02	-2.79720342073E+01	3.68397179775E+01
1.10450000000E+07	-1.75307023254E+01	-1.27618693839E+02	3.71922936395E+01	1.66328459828E+02	-4.77262630758E+01	1.68992669093E+02	-2.84084812742E+01	3.60671852409E+01
1.12400000000E+07	-1.77070593208E+01	-1.28566092895E+02	3.71969479985E+01	1.65388142920E+02	-4.77208430479E+01	1.68076664220E+02	-2.88517733880E+01	3.52751466529E+01
1.14350000000E+07	-1.78883195328E+01	-1.29575788383E+02	3.72014199269E+01	1.64434638318E+02	-4.77071166012E+01	1.67096658097E+02	-2.93073575912E+01	3.44826822751E+01
1.16300000000E+07	-1.80868079393E+01	-1.30599254088E+02	3.72025022671E+01	1.63465883403E+02	-4.76952831495E+01	1.66126062604E+02	-2.97683227331E+01	3.35723815974E+01
1.18250000000E+07	-1.82519974988E+01	-1.31601198669E+02	3.72073683559E+01	1.62545404530E+02	-4.76934014077E+01	1.65150000589E+02	-3.02300915129E+01	3.27318880942E+01
1.20200000000E+07	-1.84437188946E+01	-1.32622735492E+02	3.72110595359E+01	1.61609049714E+02	-4.76804510958E+01	1.64232928074E+02	-3.07112346880E+01	3.18113396555E+01
1.22150000000E+07	-1.86234676165E+01	-1.33618672133E+02	3.72120714053E+01	1.60673713292E+02	-4.76808664985E+01	1.63290353005E+02	-3.11964989374E+01	3.08672798854E+01
1.24100000000E+07	-1.87952887574E+01	-1.34590050672E+02	3.72112907042E+01	1.59778253571E+02	-4.76739618904E+01	1.62378528856E+02	-3.16981170222E+01	2.98843517409E+01
1.26050000000E+07	-1.89689754317E+01	-1.35649375915E+02	3.72116238172E+01	1.58866877253E+02	-4.76662762200E+01	1.61486254597E+02	-3.22037985393E+01	2.88437966893E+01
1.28000000000E+07	-1.91495749497E+01	-1.36565286953E+02	3.72143208005E+01	1.58030843817E+02	-4.76649267018E+01	1.60571061898E+02	-3.27283003989E+01	2.78086931206E+01
1.29950000000E+07	-1.93212957145E+01	-1.37523797553E+02	3.72179294474E+01	1.57186874062E+02	-4.76527322866E+01	1.59707172431E+02	-3.32726556161E+01	2.67083175186E+01
1.31900000000E+07	-1.94920697720E+01	-1.38550483081E+02	3.72168682016E+01	1.56318228106E+02	-4.76535370839E+01	1.58848909704E+02	-3.38289747256E+01	2.54836286276E+01
1.33850000000E+07	-1.96670403759E+01	-1.39522030319E+02	3.72189813410E+01	1.55486753925E+02	-4.76483439091E+01	1.57977963048E+02	-3.43964232279E+01	2.43245050604E+01
1.35800000000E+07	-1.98259700065E+01	-1.40383061220E+02	3.72236287778E+01	1.54654922347E+02	-4.76455016714E+01	1.57148792722E+02	-3.50035355110E+01	2.29664976474E+01
1.37750000000E+07	-2.00188852125E+01	-1.41317067612E+02	3.72213139336E+01	1.53857027987E+02	-4.76417685604E+01	1.56307865651E+02	-3.56043151708E+01	2.14899187953E+01
1.39700000000E+07	-2.01877167213E+01	-1.42231515784E+02	3.72242343719E+01	1.53044770311E+02	-4.76359858803E+01	1.55475552569E+02	-3.62412631788E+01	1.99941517340E+01
1.41650000000E+07	-2.03535958446E+01	-1.43165480017E+02	3.72224565111E+01	1.52224073541E+02	-4.76281323572E+01	1.54679037606E+02	-3.69275005309E+01	1.83752032691E+01
1.43600000000E+07	-2.05039072247E+01	-1.44070274788E+02	3.72280427933E+01	1.51418134291E+02	-4.76299855659E+01	1.53849231231E+02	-3.76053629361E+01	1.65452383227E+01
1.45550000000E+07	-2.06763785767E+01	-1.45006300676E+02	3.72302050986E+01	1.50618371018E+02	-4.76230274569E+01	1.53057319588E+02	-3.83497443640E+01	1.44186798827E+01
1.47500000000E+07	-2.08522884685E+01	-1.45959950704E+02	3.72292939522E+01	1.49810836190E+02	-4.76125445915E+01	1.52267976591E+02	-3.91075139998E+01	1.22080914129E+01
1.49450000000E+07	-2.10049058196E+01	-1.46859364287E+02	3.72279680255E+01	1.49023355469E+02	-4.76096919777E+01	1.51460168963E+02	-3.99037275728E+01	9.45813031424E+00
1.51400000000E+07	-2.11858835492E+01	-1.47815767654E+02	3.72294503379E+01	1.48234529445E+02	-4.76094216280E+01	1.50692497449E+02	-4.07522755393E+01	6.45972234857E+00
1.53350000000E+07	-2.13489198476E+01	-1.48722494554E+02	3.72288527234E+01	1.47437245900E+02	-4.76040090062E+01	1.49914044750E+02	-4.16552857515E+01	2.83739199595E+00
1.55300000000E+07	-2.15111402855E+01	-1.49636230112E+02	3.72311001411E+01	1.46646016090E+02	-4.76026694626E+01	1.49134472512E+02	-4.25952343807E+01	-1.39917099672E+00
1.57250000000E+07	-2.16786207649E+01	-1.50490757282E+02	3.72304603183E+01	1.45878551027E+02	-4.75967481205E+01	1.48357155405E+02	-4.35424394593E+01	-6.33840060222E+00
1.59200000000E+07	-2.18297323093E+01	-1.51373771297E+02	3.72348284352E+01	1.45119161415E+02	-4.75917796007E+01	1.47593114000E+02	-4.45311707711E+01	-1.24902070714E+01
1.61150000000E+07	-2.20040211926E+01	-1.52360608968E+02	3.72324058061E+01	1.44342961392E+02	-4.75834627719E+01	1.46825416366E+02	-4.55047696267E+01	-1.97933801021E+01
1.63100000000E+07	-2.21562196514E+01	-1.53223994490E+02	3.72311656872E+01	1.43581031081E+02	-4.75862582611E+01	1.46079976052E+02	-4.63396757338E+01	-2.83371481877E+01
1.65050000000E+07	-2.23138143877E+01	-1.54171913513E+02	3.72265217518E+01	1.42821624661E+02	-4.75752796570E+01	1.45320621872E+02	-4.70662239604E+01	-3.91039717745E+01
1.67000000000E+07	-2.25050776451E+01	-1.55027817156E+02	3.72276694710E+01	1.42067487010E+02	-4.75795735967E+01	1.44580998074E+02	-4.75174013602E+01	-5.08567273318E+01
1.68950000000E+07	-2.26510115521E+01	-1.55945672297E+02	3.72295479168E+01	1.41302584465E+02	-4.75744084418E+01	1.43854659439E+02	-4.76388404993E+01	-6.33026599458E+01
1.70900000000E+07	-2.28145318166E+01	-1.56821383084E+02	3.72300552587E+01	1.40579444921E+02	-4.75699973343E+01	1.43086910932E+02	-4.73794492973E+01	-7.47552354642E+01
1.72850000000E+07	-2.29639142620E+01	-1.57626314245E+02	3.72286079699E+01	1.39813627439E+02	-4.75697269852E+01	1.42374593500E+02	-4.68637143299E+01	-8.53418666287E+01
1.74800000000E+07	-2.31214404141E+01	-1.58509363759E+02	3.72268168760E+01	1.39100290441E+02	-4.75626715681E+01	1.41637068407E+02	-4.61571652529E+01	-9.42978358238E+01
1.76750000000E+07	-2.32740039628E+01	-1.59572118250E+02	3.72296460972E+01	1.38321288968E+02	-4.75595870832E+01	1.40902653941E+02	-4.54057860617E+01	-1.01783197670E+02
1.78700000000E+07	-2.34432286074E+01	-1.60318136970E+02	3.72319148366E+01	1.37577901522E+02	-4.75539329521E+01	1.40206538933E+02	-4.45922122100E+01	-1.07850723656E+02
1.80650000000E+07	-2.36079578316E+01	-1.61187135808E+02	3.72254915989E+01	1.36875147314E+02	-4.75565229930E+01	1.39516725384E+02	-4.38043153735E+01	-1.12907840234E+02
1.82600000000E+07	-2.37641417930E+01	-1.62153877679E+02	3.72310515479E+01	1.36139053540E+02	-4.75501905215E+01	1.38774468787E+02	-4.30402487361E+01	-1.17315473535E+02
1.84550000000E+07	-2.39403807191E+01	-1.62887525085E+02	3.72246478795E+01	1.35395515828E+02	-4.75441522953E+01	1.38081482483E+02	-4.23323424120E+01	-1.20805976037E+02
1.86500000000E+07	-2.40725572493E+01	-1.63890628705E+02	3.72306709889E+01	1.34706437022E+02	-4.75414500604E+01	1.37342242431E+02	-4.16804844139E+01	-1.23898002547E+02
1.88450000000E+07	-2.42452264005E+01	-1.64727743809E+02	3.72255739175E+01	1.33974123280E+02	-4.75373227256E+01	1.36640890650E+02	-4.10165941827E+01	-1.26625537502E+02
1.90400000000E+07	-2.44021150125E+01	-1.65619251750E+02	3.72275689342E+01	1.33245696372E+02	-4.75357663520E+01	1.35939805448E+02	-4.04554010068E+01	-1.29026344100E+02
1.92350000000E+07	-2.45421407353E+01	-1.66639803404E+02	3.72274386235E+01	1.32536077291E+02	-4.75316895534E+01	1.35254818213E+02	-3.98862404796E+01	-1.31157480041E+02
1.94300000000E+07	-2.47134995596E+01	-1.67352811148E+02	3.72259486131E+01	1.31823683918E+02	-4.75330483890E+01	1.34543669189E+02	-3.93905302984E+01	-1.32904528323E+02
1.96250000000E+07	-2.48807060213E+01	-1.68360430507E+02	3.72259792531E+01	1.31100091418E+02	-4.75255372959E+01	1.33850795434E+02	-3.88818500582E+01	-1.34643136258E+02
1.98200000000E+07	-2.50485873759E+01	-1.69225515016E+02	3.72251409149E+01	1.30425516988E+02	-4.75212125819E+01	1.33149892449E+02	-3.84328192877E+01	-1.36189698125E+02
2.00150000000E+07	-2.51898614421E+01	-1.69945370250E+02	3.72233657976E+01	1.29706427688E+02	-4.75162051432E+01	1.32481187395E+02	-3.80010000313E+01	-1.37599853068E+02
2.02100000000E+07	-2.53432456522E+01	-1.70989228217E+02	3.72222926681E+01	1.28973985332E+02	-4.75148478074E+01	1.31779779860E+02	-3.76029713083E+01	-1.38930150192E+02
2.04050000000E+07	-2.55239021117E+01	-1.71827788602E+02	3.72175150839E+01	1.28282245900E+02	-4.75094935055E+01	1.31067125135E+02	-3.72204237428E+01	-1.40184207080E+02
2.06000000000E+07	-2.56653453377E+01	-1.72784477788E+02	3.72181196240E+01	1.27563797730E+02	-4.75114659327E+01	1.30394781904E+02	-3.68588451660E+01	-1.41291390592E+02
2.07950000000E+07	-2.58218470777E+01	-1.73662934642E+02	3.72153675516E+01	1.26892097349E+02	-4.75054468289E+01	1.29721939649E+02	-3.65072886420E+01	-1.42354676942E+02
2.09900000000E+07	-2.59950602675E+01	-1.74415818863E+02	3.72173573306E+01	1.26183497657E+02	-4.75051110806E+01	1.29096354719E+02	-3.61762486978E+01	-1.43475891760E+02
2.11850000000E+07	-2.61648727584E+01	-1.75086657326E+02	3.72140140293E+01	1.25479600887E+02	-4.75018722559E+01	1.28379042386E+02	-3.58540050918E+01	-1.44387078437E+02
2.13800000000E+07	-2.63135160936E+01	-1.76078443748E+02	3.72150408612E+01	1.24815360632E+02	-4.74995208322E+01	1.27742317738E+02	-3.55611475911E+01	-1.45394165986E+02
2.15750000000E+07	-2.64686423705E+01	-1.77137195462E+02	3.72104153341E+01	1.24085658683E+02	-4.74944183954E+01	1.27043674221E+02	-3.52759559901E+01	-1.46198184306E+02
2.17700000000E+07	-2.66239234756E+01	-1.78006448810E+02	3.72148159603E+01	1.23419965586E+02	-4.74895415554E+01	1.26359119304E+02	-3.50092243977E+01	-1.47148831335E+02
2.19650000000E+07	-2.68339909641E+01	-1.78838414676E+02	3.72131573953E+01	1.22721220679E+02	-4.74893426526E+01	1.25713253341E+02	-3.47522776784E+01	-1.47925856706E+02
2.21600000000E+07	-2.69632819792E+01	-1.79646895984E+02	3.72102183482E+01	1.22040060861E+02	-4.74848275890E+01	1.25020898373E+02	-3.44991235212E+01	-1.48785544974E+02
2.23550000000E+07	-2.71406805392E+01	1.79344061890E+02	3.72068108154E+01	1.21352946028E+02	-4.74788340485E+01	1.24361392025E+02	-3.42653388981E+01	-1.49594102152E+02
2.25500000000E+07	-2.72897368811E+01	1.78503714746E+02	3.72056649221E+01	1.20667702480E+02	-4.74775031798E+01	1.23691820064E+02	-3.40319822207E+01	-1.50329100108E+02
2.27450000000E+07	-2.74756574087E+01	1.77644752815E+02	3.72024930891E+01	1.19978738822E+02	-4.74711610952E+01	1.23022493114E+02	-3.38017731398E+01	-1.51076897554E+02
2.29400000000E+07	-2.76238496350E+01	1.76728113836E+02	3.72014952373E+01	1.19308796032E+02	-4.74764755626E+01	1.22390772375E+02	-3.35900787702E+01	-1.51764740044E+02
2.31350000000E+07	-2.77982721646E+01	1.75783914553E+02	3.72043545334E+01	1.18636950045E+02	-4.74699864153E+01	1.21745149108E+02	-3.33869275663E+01	-1.52433125568E+02
2.33300000000E+07	-2.79604406358E+01	1.75010998689E+02	3.71968433395E+01	1.17950492075E+02	-4.74651042458E+01	1.21061060762E+02	-3.31904404357E+01	-1.53123985786E+02
2.35250000000E+07	-2.81388124865E+01	1.74077163228E+02	3.71981712044E+01	1.17283515862E+02	-4.74606065551E+01	1.20417249770E+02	-3.30040481993E+01	-1.53773797603E+02
2.37200000000E+07	-2.83178454823E+01	1.73215049740E+02	3.71965407371E+01	1.16586538294E+02	-4.74611781565E+01	1.19756899670E+02	-3.28188509167E+01	-1.54479472652E+02
2.39150000000E+07	-2.84573456841E+01	1.72317362329E+02	3.71916083564E+01	1.15901958416E+02	-4.74550180174E+01	1.19091831827E+02	-3.26322383935E+01	-1.55094565592E+02
2.41100000000E+07	-2.86492796604E+01	1.71217606673E+02	3.71887000700E+01	1.15256717646E+02	-4.74515927167E+01	1.18457432166E+02	-3.24576568394E+01	-1.55788660766E+02
2.43050000000E+07	-2.88240733525E+01	1.70462800464E+02	3.71875440916E+01	1.14607145274E+02	-4.74534081243E+01	1.17805654115E+02	-3.22927314952E+01	-1.56365346615E+02
2.45000000000E+07	-2.89665985195E+01	1.69630526140E+02	3.71884660893E+01	1.13918249702E+02	-4.74459566285E+01	1.17162769351E+02	-3.21233421955E+01	-1.57014320999E+02
2.46950000000E+07	-2.91431142733E+01	1.68663522356E+02	3.71854828666E+01	1.13242977994E+02	-4.74457727795E+01	1.16491279680E+02	-3.19626162913E+01	-1.57566638177E+02
2.48900000000E+07	-2.93042804649E+01	1.67716276118E+02	3.71860846831E+01	1.12590480510E+02	-4.74412703402E+01	1.15881246070E+02	-3.18094052965E+01	-1.58198882369E+02
2.50850000000E+07	-2.94992827281E+01	1.66854202307E+02	3.71820435070E+01	1.11923829121E+02	-4.74388758562E+01	1.15235612127E+02	-3.16509466245E+01	-1.58759433681E+02
2.52800000000E+07	-2.96702933583E+01	1.65722628751E+02	3.71814202136E+01	1.11249005096E+02	-4.74327881252E+01	1.14564074418E+02	-3.15107223784E+01	-1.59366010689E+02
2.54750000000E+07	-2.98399728771E+01	1.64759586097E+02	3.71793963414E+01	1.10597772990E+02	-4.74309911895E+01	1.13953249783E+02	-3.13700610495E+01	-1.59937508511E+02
2.56700000000E+07	-3.00611772920E+01	1.63802964188E+02	3.71764461971E+01	1.09936787113E+02	-4.74275130906E+01	1.13291957057E+02	-3.12253113706E+01	-1.60579777648E+02
2.58650000000E+07	-3.02253353915E+01	1.62931534625E+02	3.71749933817E+01	1.09261386025E+02	-4.74280234844E+01	1.12664813869E+02	-3.10864383788E+01	-1.61152795104E+02
2.60600000000E+07	-3.04242202637E+01	1.61957247538E+02	3.71710555701E+01	1.08604496412E+02	-4.74178347239E+01	1.12023263140E+02	-3.09487107724E+01	-1.61724833766E+02
2.62550000000E+07	-3.06142105535E+01	1.60968868358E+02	3.71705315419E+01	1.07954650235E+02	-4.74172544840E+01	1.11383274736E+02	-3.08262942900E+01	-1.62267733626E+02
2.64500000000E+07	-3.08233971252E+01	1.60093979527E+02	3.71692201890E+01	1.07308784665E+02	-4.74178710500E+01	1.10782101799E+02	-3.07014515354E+01	-1.62870785577E+02
2.66450000000E+07	-3.09890693180E+01	1.59255244460E+02	3.71678271524E+01	1.06641900527E+02	-4.74142789775E+01	1.10131535157E+02	-3.05721023175E+01	-1.63432246226E+02
2.68400000000E+07	-3.12039415046E+01	1.58286789288E+02	3.71631276749E+01	1.05963189418E+02	-4.74097519450E+01	1.09477911879E+02	-3.04542665524E+01	-1.64029282035E+02
2.70350000000E+07	-3.13547915255E+01	1.57225856221E+02	3.71641920407E+01	1.05313865505E+02	-4.74053660955E+01	1.08848317173E+02	-3.03438284955E+01	-1.64544932292E+02
2.72300000000E+07	-3.15329364713E+01	1.56202480663E+02	3.71610341056E+01	1.04649543307E+02	-4.74033002970E+01	1.08227560388E+02	-3.02279988634E+01	-1.65124657253E+02
2.74250000000E+07	-3.18078035144E+01	1.55162163033E+02	3.71600909361E+01	1.03995138164E+02	-4.73969396740E+01	1.07605697270E+02	-3.01175561419E+01	-1.65704631306E+02
2.76200000000E+07	-3.19899070528E+01	1.54088515463E+02	3.71570073635E+01	1.03360314395E+02	-4.73992069133E+01	1.06987007250E+02	-3.00070080296E+01	-1.66235806463E+02
2.78150000000E+07	-3.22123013049E+01	1.52968753083E+02	3.71538494803E+01	1.02707510250E+02	-4.73931667112E+01	1.06346683295E+02	-2.98998357500E+01	-1.66803546219E+02
