# Hz S DB R 50
! CMT, M5045, 22160017, 22.4.3/2
! Date: 2/27/2023 01:03:21
! Data: Format (Calibration Info)
! Freq	S11:dB/Ang(F2)	S21:dB/Ang(F2)	S12:dB/Ang(F2)	S22:dB/Ang(F2)
5.00000000000E+06	-9.87483639617E+00	-7.50596665195E+01	3.64892440293E+01	3.60628261704E+01	-4.85807374005E+01	3.88500394375E+01	-1.53981998705E+01	7.26365535346E+01
5.19500000000E+06	-1.02340313127E+01	-7.59516534564E+01	3.65669600079E+01	3.39095728679E+01	-4.84504766582E+01	3.74715792752E+01	-1.60833448235E+01	7.20172754191E+01
5.39000000000E+06	-1.05752926215E+01	-7.68223482624E+01	3.66374257572E+01	3.18587277548E+01	-4.84016767630E+01	3.39435542869E+01	-1.67624346514E+01	7.17540579709E+01
5.58500000000E+06	-1.09122928297E+01	-7.76096827365E+01	3.67008042631E+01	2.99408287709E+01	-4.83423405292E+01	3.25677602518E+01	-1.74292133703E+01	7.15051001865E+01
5.78000000000E+06	-1.12421717353E+01	-7.83301761151E+01	3.67565563853E+01	2.80940930123E+01	-4.82394609079E+01	3.08925159784E+01	-1.80917424600E+01	7.13692278994E+01
5.97500000000E+06	-1.15579382755E+01	-7.90383757357E+01	3.68077959049E+01	2.63346359034E+01	-4.82286797328E+01	2.85614429816E+01	-1.87532310819E+01	7.15763534899E+01
6.17000000000E+06	-1.18701306082E+01	-7.96361230412E+01	3.68528002235E+01	2.46936313996E+01	-4.82661952765E+01	2.71154718713E+01	-1.93881230127E+01	7.17847039688E+01
6.36500000000E+06	-1.21755640059E+01	-8.02559286902E+01	3.68917402475E+01	2.30805567870E+01	-4.80994071771E+01	2.62101425946E+01	-2.00395470195E+01	7.20871007485E+01
6.56000000000E+06	-1.24735504599E+01	-8.07669831693E+01	3.69270694117E+01	2.15805674684E+01	-4.80694839743E+01	2.38789739737E+01	-2.06609411342E+01	7.26004029093E+01
6.75500000000E+06	-1.27637346453E+01	-8.13165917631E+01	3.69592384927E+01	2.01039893798E+01	-4.79815259924E+01	2.26503525992E+01	-2.12830637261E+01	7.32382650645E+01
6.95000000000E+06	-1.30502071945E+01	-8.18408547802E+01	3.69890448787E+01	1.87155533871E+01	-4.79674444519E+01	2.19097218498E+01	-2.18680856270E+01	7.41234174129E+01
7.14500000000E+06	-1.33337147372E+01	-8.22985162615E+01	3.70136949542E+01	1.73488733057E+01	-4.80438076604E+01	2.04335893927E+01	-2.24864631218E+01	7.51125690840E+01
7.34000000000E+06	-1.36015407801E+01	-8.27255533497E+01	3.70454347786E+01	1.60709504539E+01	-4.80090454441E+01	1.91638886583E+01	-2.30294114263E+01	7.62975708274E+01
7.53500000000E+06	-1.38779014696E+01	-8.31845874121E+01	3.70623074055E+01	1.47947406262E+01	-4.79139924118E+01	1.75535251703E+01	-2.36536539395E+01	7.75954953117E+01
7.73000000000E+06	-1.41365669713E+01	-8.35569951352E+01	3.70857081063E+01	1.35997591538E+01	-4.78564325846E+01	1.55563959866E+01	-2.41886323564E+01	7.89444431676E+01
7.92500000000E+06	-1.44079488656E+01	-8.40062559792E+01	3.71004903887E+01	1.23992893317E+01	-4.79142746386E+01	1.52785062286E+01	-2.47646652613E+01	8.04427184156E+01
8.12000000000E+06	-1.46678037125E+01	-8.43271706198E+01	3.71177309817E+01	1.12814295458E+01	-4.79183620593E+01	1.43567591884E+01	-2.53209217735E+01	8.22921382728E+01
8.31500000000E+06	-1.49204746659E+01	-8.46329817172E+01	3.71343423240E+01	1.01874943853E+01	-4.78720318710E+01	1.32803652089E+01	-2.58000490736E+01	8.40756638433E+01
8.51000000000E+06	-1.51630531435E+01	-8.49919693493E+01	3.71485757548E+01	9.11103521894E+00	-4.77598038030E+01	1.18210730789E+01	-2.63638499771E+01	8.62077459529E+01
8.70500000000E+06	-1.54197840718E+01	-8.52896079506E+01	3.71608889236E+01	8.05779089925E+00	-4.77790437984E+01	1.11060590531E+01	-2.68309557279E+01	8.85491637203E+01
8.90000000000E+06	-1.56689047627E+01	-8.55523366236E+01	3.71722949330E+01	7.05295092654E+00	-4.78276730098E+01	1.00370186482E+01	-2.72848031883E+01	9.06029783961E+01
9.09500000000E+06	-1.59057657155E+01	-8.58477910775E+01	3.71846413073E+01	6.06238799861E+00	-4.77347810736E+01	9.05132557517E+00	-2.77350802494E+01	9.33456026114E+01
9.29000000000E+06	-1.61513162828E+01	-8.61090048597E+01	3.71959464766E+01	5.09802966875E+00	-4.77703056518E+01	7.76613753176E+00	-2.81012215158E+01	9.57335106524E+01
9.48500000000E+06	-1.63877065106E+01	-8.63686676814E+01	3.72045880594E+01	4.16703407046E+00	-4.77356808870E+01	7.32329367255E+00	-2.85105477656E+01	9.83654786407E+01
9.68000000000E+06	-1.66292843283E+01	-8.66207911045E+01	3.72113304140E+01	3.21972219054E+00	-4.78092747418E+01	6.45394409653E+00	-2.88651083445E+01	1.01256191953E+02
9.87500000000E+06	-1.68636931363E+01	-8.68440352269E+01	3.72174058401E+01	2.35116787423E+00	-4.77659115856E+01	5.37378886768E+00	-2.91505300733E+01	1.03999292528E+02
1.00700000000E+07	-1.70835609809E+01	-8.71363656769E+01	3.72243114182E+01	1.44544494147E+00	-4.76962760953E+01	4.00376619581E+00	-2.94349932853E+01	1.06998267734E+02
1.02650000000E+07	-1.73194330760E+01	-8.73374414505E+01	3.72308434786E+01	5.71022779307E-01	-4.76946993743E+01	3.25836726395E+00	-2.96570459327E+01	1.10389501359E+02
1.04600000000E+07	-1.75401709655E+01	-8.75817069268E+01	3.72415068195E+01	-2.77712653387E-01	-4.76182269944E+01	2.44160582007E+00	-2.98736176337E+01	1.12950781518E+02
1.06550000000E+07	-1.77774979484E+01	-8.78341366545E+01	3.72458944393E+01	-1.12318837581E+00	-4.76860879275E+01	1.80395628571E+00	-3.00463013399E+01	1.15543315807E+02
1.08500000000E+07	-1.80009009557E+01	-8.79772878731E+01	3.72511314592E+01	-1.92502779889E+00	-4.76821248708E+01	7.36454663699E-01	-3.02068678411E+01	1.18162812015E+02
1.10450000000E+07	-1.82165670981E+01	-8.82625652248E+01	3.72604306310E+01	-2.76576825268E+00	-4.76437733852E+01	-6.89673823816E-02	-3.02919364862E+01	1.20757551289E+02
1.12400000000E+07	-1.84417043565E+01	-8.84461882328E+01	3.72662986544E+01	-3.57340902584E+00	-4.76562269195E+01	-7.77608190333E-01	-3.03386061826E+01	1.23766893993E+02
1.14350000000E+07	-1.86661581181E+01	-8.86740134472E+01	3.72705707912E+01	-4.37667010787E+00	-4.76629728328E+01	-1.94135977805E+00	-3.04741120626E+01	1.26571032978E+02
1.16300000000E+07	-1.88840372864E+01	-8.87524722178E+01	3.72772474859E+01	-5.14338971253E+00	-4.76601702180E+01	-2.60370762869E+00	-3.04780021730E+01	1.28767500023E+02
1.18250000000E+07	-1.91063087477E+01	-8.89384477528E+01	3.72793046151E+01	-5.94243727286E+00	-4.76369813909E+01	-3.01531528031E+00	-3.06164702718E+01	1.31033966496E+02
1.20200000000E+07	-1.93233055786E+01	-8.91466853639E+01	3.72836844041E+01	-6.74123645695E+00	-4.76539624638E+01	-4.20459272565E+00	-3.06120921130E+01	1.33295108168E+02
1.22150000000E+07	-1.95434261347E+01	-8.92577167663E+01	3.72856048705E+01	-7.48370922563E+00	-4.75495073737E+01	-4.80374666894E+00	-3.06598258272E+01	1.35688531618E+02
1.24100000000E+07	-1.97600374381E+01	-8.93383296419E+01	3.72860394681E+01	-8.21318477368E+00	-4.75984744583E+01	-5.66032501175E+00	-3.06306669128E+01	1.38032408333E+02
1.26050000000E+07	-1.99829788862E+01	-8.93979150976E+01	3.72886363623E+01	-8.91359732920E+00	-4.75755912157E+01	-6.03461644411E+00	-3.06418861211E+01	1.39811852089E+02
1.28000000000E+07	-2.01996575233E+01	-8.94552123938E+01	3.72900749420E+01	-9.60380197850E+00	-4.75979782737E+01	-6.83828648322E+00	-3.06583716205E+01	1.41618847787E+02
1.29950000000E+07	-2.04066385601E+01	-8.94600197244E+01	3.72924221642E+01	-1.02763171786E+01	-4.75711220492E+01	-7.24922571846E+00	-3.05997851243E+01	1.43860752280E+02
1.31900000000E+07	-2.06387541686E+01	-8.95278718020E+01	3.72966707076E+01	-1.09803499098E+01	-4.76063412356E+01	-8.49670885420E+00	-3.05781055699E+01	1.45694952918E+02
1.33850000000E+07	-2.08516710246E+01	-8.95676794957E+01	3.72963288631E+01	-1.16358713461E+01	-4.75286484828E+01	-8.88268804820E+00	-3.04691079775E+01	1.47435125875E+02
1.35800000000E+07	-2.10879405211E+01	-8.96356627576E+01	3.72980289156E+01	-1.23155459411E+01	-4.75785776304E+01	-9.96326671696E+00	-3.04434596487E+01	1.48907368631E+02
1.37750000000E+07	-2.12901931198E+01	-8.94911005354E+01	3.72991678539E+01	-1.29705758953E+01	-4.75546782039E+01	-1.02620576084E+01	-3.03278631717E+01	1.50608459700E+02
1.39700000000E+07	-2.15150476290E+01	-8.95079800600E+01	3.73053221146E+01	-1.36374353154E+01	-4.74798404815E+01	-1.12956285231E+01	-3.02869667055E+01	1.52172998245E+02
1.41650000000E+07	-2.17235068478E+01	-8.94869409539E+01	3.73048848153E+01	-1.42735235878E+01	-4.75384586162E+01	-1.18750827951E+01	-3.01918516761E+01	1.53685304155E+02
1.43600000000E+07	-2.19419720960E+01	-8.93011321337E+01	3.73019751212E+01	-1.49180936252E+01	-4.75001077046E+01	-1.21905636346E+01	-3.01412531968E+01	1.54497719453E+02
1.45550000000E+07	-2.21727342622E+01	-8.93237958997E+01	3.73053589084E+01	-1.55472493251E+01	-4.75627321169E+01	-1.30836669690E+01	-3.00639503600E+01	1.55759675860E+02
1.47500000000E+07	-2.23891772409E+01	-8.91892167074E+01	3.73057394417E+01	-1.61950878975E+01	-4.75619039008E+01	-1.34801879338E+01	-3.00820989089E+01	1.57296675549E+02
1.49450000000E+07	-2.25962777534E+01	-8.89655264990E+01	3.73081453818E+01	-1.68290773329E+01	-4.75387492936E+01	-1.39257014547E+01	-2.99474880119E+01	1.58358467491E+02
1.51400000000E+07	-2.28229967042E+01	-8.89028133145E+01	3.73107845965E+01	-1.74306658228E+01	-4.75398484467E+01	-1.48138710256E+01	-2.98915072586E+01	1.59297868633E+02
1.53350000000E+07	-2.30355064830E+01	-8.87061302080E+01	3.73101840846E+01	-1.80516110790E+01	-4.75570997855E+01	-1.56840349577E+01	-2.98968108351E+01	1.60100545000E+02
1.55300000000E+07	-2.32578224550E+01	-8.85050391079E+01	3.73081482061E+01	-1.86636356668E+01	-4.75539791775E+01	-1.56231059377E+01	-2.97556247473E+01	1.61462616415E+02
1.57250000000E+07	-2.34926627805E+01	-8.83961942892E+01	3.73055744262E+01	-1.92724165628E+01	-4.75005494020E+01	-1.66705575026E+01	-2.96829157748E+01	1.62103216476E+02
1.59200000000E+07	-2.37119114162E+01	-8.81144695387E+01	3.73082675500E+01	-1.98928054071E+01	-4.75218629536E+01	-1.76512309128E+01	-2.96242002869E+01	1.62727711069E+02
1.61150000000E+07	-2.39097111132E+01	-8.78537860554E+01	3.73081409298E+01	-2.04652005763E+01	-4.75123282703E+01	-1.75970298909E+01	-2.95706752239E+01	1.63824595060E+02
1.63100000000E+07	-2.41392898725E+01	-8.75932953690E+01	3.73104832006E+01	-2.10685517522E+01	-4.75883549112E+01	-1.84000874323E+01	-2.95280934454E+01	1.64438048013E+02
1.65050000000E+07	-2.43627654791E+01	-8.72263350603E+01	3.73093026651E+01	-2.16575653328E+01	-4.75509267851E+01	-1.90421569938E+01	-2.95246102742E+01	1.65716233944E+02
1.67000000000E+07	-2.45858069066E+01	-8.69432049937E+01	3.73118929818E+01	-2.22285945714E+01	-4.75049702696E+01	-1.93571836375E+01	-2.94398920228E+01	1.66129214684E+02
1.68950000000E+07	-2.48082023176E+01	-8.65854973794E+01	3.73092268830E+01	-2.28103954666E+01	-4.74742462813E+01	-2.01950374928E+01	-2.93510522618E+01	1.66500861496E+02
1.70900000000E+07	-2.50236774136E+01	-8.62670543981E+01	3.73084521343E+01	-2.33966261023E+01	-4.74896414752E+01	-2.08371221095E+01	-2.92881734677E+01	1.67332758576E+02
1.72850000000E+07	-2.52779292492E+01	-8.57810867541E+01	3.73082819297E+01	-2.39681909400E+01	-4.74681452863E+01	-2.15242253182E+01	-2.92645563118E+01	1.68149958953E+02
1.74800000000E+07	-2.54778471164E+01	-8.52729908672E+01	3.73081561527E+01	-2.45627176340E+01	-4.74619342983E+01	-2.18766006063E+01	-2.92216668138E+01	1.68695019493E+02
1.76750000000E+07	-2.57043029188E+01	-8.48816922786E+01	3.73073654419E+01	-2.51314333536E+01	-4.74713894256E+01	-2.26177377574E+01	-2.91747726624E+01	1.69367950705E+02
1.78700000000E+07	-2.59432270793E+01	-8.43896109722E+01	3.73079746631E+01	-2.56806934058E+01	-4.73957862372E+01	-2.32954657507E+01	-2.90937278363E+01	1.69814696543E+02
1.80650000000E+07	-2.61590806945E+01	-8.37855051283E+01	3.73054586521E+01	-2.62318591539E+01	-4.74918467080E+01	-2.36715287060E+01	-2.90342929793E+01	1.70025841443E+02
1.82600000000E+07	-2.63673862771E+01	-8.32075535820E+01	3.73039658674E+01	-2.67972294691E+01	-4.74828399301E+01	-2.37918329676E+01	-2.90848914301E+01	1.70585679106E+02
1.84550000000E+07	-2.66123086248E+01	-8.26667515360E+01	3.73039183088E+01	-2.73661226574E+01	-4.74041545582E+01	-2.47202278806E+01	-2.89515510200E+01	1.71137223683E+02
1.86500000000E+07	-2.68224334252E+01	-8.19181445554E+01	3.73038591332E+01	-2.79105103554E+01	-4.74667066047E+01	-2.53439972134E+01	-2.89254308471E+01	1.71793486684E+02
1.88450000000E+07	-2.70430430003E+01	-8.13663691599E+01	3.73043923220E+01	-2.84593597563E+01	-4.74461104326E+01	-2.55956594966E+01	-2.88878414249E+01	1.72295027029E+02
1.90400000000E+07	-2.72588476256E+01	-8.05498855665E+01	3.72994399721E+01	-2.90105566146E+01	-4.74995545190E+01	-2.65116577723E+01	-2.89083986532E+01	1.72703497165E+02
1.92350000000E+07	-2.74938329974E+01	-7.96872838169E+01	3.72992025311E+01	-2.95374830932E+01	-4.74644359644E+01	-2.68395996807E+01	-2.88481774265E+01	1.73562209433E+02
1.94300000000E+07	-2.77119960529E+01	-7.88984425719E+01	3.73018693259E+01	-3.00912350290E+01	-4.74692878871E+01	-2.77547055191E+01	-2.87606819878E+01	1.73536966165E+02
1.96250000000E+07	-2.79075382099E+01	-7.80437842563E+01	3.72967305336E+01	-3.06494415379E+01	-4.74642314029E+01	-2.81938300186E+01	-2.87739394260E+01	1.74057319508E+02
1.98200000000E+07	-2.81493901948E+01	-7.71904862413E+01	3.72980543408E+01	-3.11686537609E+01	-4.74031908679E+01	-2.81409299898E+01	-2.87099093824E+01	1.74696664411E+02
2.00150000000E+07	-2.83281684775E+01	-7.60237390116E+01	3.72960728202E+01	-3.17128438724E+01	-4.74119991168E+01	-2.90703203513E+01	-2.87453721429E+01	1.75141149580E+02
2.02100000000E+07	-2.85641725052E+01	-7.52692487266E+01	3.72954870497E+01	-3.22579587169E+01	-4.74581525043E+01	-2.94106852662E+01	-2.87042628096E+01	1.75517238695E+02
2.04050000000E+07	-2.87507024632E+01	-7.40899716699E+01	3.72922413967E+01	-3.27748291233E+01	-4.74856015233E+01	-2.97418114456E+01	-2.86502368315E+01	1.75815856225E+02
2.06000000000E+07	-2.89577053968E+01	-7.27831878100E+01	3.72926889046E+01	-3.32966422309E+01	-4.74107210341E+01	-3.03823583682E+01	-2.86302082828E+01	1.75963934026E+02
2.07950000000E+07	-2.91606141912E+01	-7.16581150248E+01	3.72867032586E+01	-3.38306931974E+01	-4.74028375889E+01	-3.13915560706E+01	-2.85742286453E+01	1.76126027790E+02
2.09900000000E+07	-2.93471773107E+01	-7.04578708559E+01	3.72883145883E+01	-3.43374901009E+01	-4.74183933041E+01	-3.12204269055E+01	-2.85598217036E+01	1.76870306552E+02
2.11850000000E+07	-2.95430466139E+01	-6.93784654375E+01	3.72827770840E+01	-3.48752593349E+01	-4.74544199556E+01	-3.20412016535E+01	-2.85547152104E+01	1.77311518241E+02
2.13800000000E+07	-2.97091002306E+01	-6.78338298170E+01	3.72867100853E+01	-3.54244129884E+01	-4.74457061972E+01	-3.23478503697E+01	-2.85703657458E+01	1.77328353873E+02
2.15750000000E+07	-2.98973219085E+01	-6.65542181389E+01	3.72826062404E+01	-3.59174560573E+01	-4.74221403172E+01	-3.26683250625E+01	-2.85172114337E+01	1.78160027845E+02
2.17700000000E+07	-3.00625363208E+01	-6.51177442095E+01	3.72786273016E+01	-3.64430219662E+01	-4.73921406898E+01	-3.36790193051E+01	-2.84966447194E+01	1.78163268290E+02
2.19650000000E+07	-3.02432445804E+01	-6.36775649693E+01	3.72803754694E+01	-3.69354529677E+01	-4.74065000390E+01	-3.36116778193E+01	-2.84560788197E+01	1.78746465649E+02
2.21600000000E+07	-3.03837973752E+01	-6.22391205693E+01	3.72759245359E+01	-3.74583974095E+01	-4.74153886712E+01	-3.42333985752E+01	-2.84113132999E+01	1.79050036407E+02
2.23550000000E+07	-3.05021822557E+01	-6.07181704760E+01	3.72766833530E+01	-3.79751010424E+01	-4.74338361497E+01	-3.52254261512E+01	-2.84537142029E+01	1.79383533721E+02
2.25500000000E+07	-3.06822015168E+01	-5.91087217917E+01	3.72737363455E+01	-3.84786443594E+01	-4.73834754798E+01	-3.58217366040E+01	-2.84312979893E+01	1.79361166207E+02
2.27450000000E+07	-3.07523667874E+01	-5.75306253577E+01	3.72712252160E+01	-3.89837879561E+01	-4.74161409002E+01	-3.61325809207E+01	-2.84977285715E+01	1.79934099800E+02
2.29400000000E+07	-3.09268316757E+01	-5.57256910215E+01	3.72691091882E+01	-3.94932914628E+01	-4.73872925545E+01	-3.62784225608E+01	-2.83810623559E+01	-1.79718051230E+02
2.31350000000E+07	-3.09797452667E+01	-5.40815888730E+01	3.72702525695E+01	-4.00003359951E+01	-4.74365474178E+01	-3.69998541303E+01	-2.84081077701E+01	-1.79386934581E+02
2.33300000000E+07	-3.10776840894E+01	-5.27295989304E+01	3.72674903325E+01	-4.05319380941E+01	-4.73849955029E+01	-3.72589047374E+01	-2.83171816942E+01	-1.78799826958E+02
2.35250000000E+07	-3.11849805098E+01	-5.07117215987E+01	3.72638380922E+01	-4.10130220626E+01	-4.74199668040E+01	-3.78849933440E+01	-2.83791532300E+01	-1.78664567600E+02
2.37200000000E+07	-3.12244910141E+01	-4.88002064655E+01	3.72620094930E+01	-4.15042114048E+01	-4.74261192204E+01	-3.85967166093E+01	-2.83350213983E+01	-1.78410642691E+02
2.39150000000E+07	-3.12820223597E+01	-4.70899541682E+01	3.72614578523E+01	-4.20121585507E+01	-4.74315325329E+01	-3.88146619707E+01	-2.83541375337E+01	-1.77959990571E+02
2.41100000000E+07	-3.12961889618E+01	-4.55431591685E+01	3.72601002650E+01	-4.25041127774E+01	-4.73838639857E+01	-3.95357522574E+01	-2.82938820797E+01	-1.77484579037E+02
2.43050000000E+07	-3.13729751083E+01	-4.36029779532E+01	3.72583148567E+01	-4.30004790551E+01	-4.73973975063E+01	-3.98922473886E+01	-2.83137065840E+01	-1.77411405225E+02
2.45000000000E+07	-3.13425850176E+01	-4.21017902821E+01	3.72550730579E+01	-4.34871397530E+01	-4.74278759257E+01	-4.02660734308E+01	-2.82726376351E+01	-1.77119884875E+02
2.46950000000E+07	-3.13350951763E+01	-4.01246518106E+01	3.72513540039E+01	-4.39827285469E+01	-4.74295708532E+01	-4.08169141540E+01	-2.82404825461E+01	-1.76761359376E+02
2.48900000000E+07	-3.13830105131E+01	-3.86205011432E+01	3.72492501649E+01	-4.45080144236E+01	-4.73972271524E+01	-4.12862893160E+01	-2.82175870754E+01	-1.76527095000E+02
2.50850000000E+07	-3.13694028360E+01	-3.70712517876E+01	3.72485655337E+01	-4.49861568304E+01	-4.73427977186E+01	-4.16105758214E+01	-2.82482683814E+01	-1.75940683714E+02
2.52800000000E+07	-3.13276454364E+01	-3.54387783231E+01	3.72479818155E+01	-4.54759813029E+01	-4.73962398848E+01	-4.23172880299E+01	-2.82466591695E+01	-1.75862454094E+02
2.54750000000E+07	-3.12753736424E+01	-3.36261920670E+01	3.72437496074E+01	-4.59549436459E+01	-4.73999796201E+01	-4.28894175693E+01	-2.81819349346E+01	-1.75367260157E+02
2.56700000000E+07	-3.12195108784E+01	-3.21900192892E+01	3.72433039289E+01	-4.64455115341E+01	-4.73870861001E+01	-4.32579794452E+01	-2.82195411868E+01	-1.75456832376E+02
2.58650000000E+07	-3.12008990917E+01	-3.06089920395E+01	3.72379159532E+01	-4.69253969864E+01	-4.73744095520E+01	-4.31867369453E+01	-2.81601261660E+01	-1.74934610793E+02
2.60600000000E+07	-3.11288048919E+01	-2.91379667995E+01	3.72392903347E+01	-4.74102573243E+01	-4.74351235464E+01	-4.38820717408E+01	-2.81779671213E+01	-1.74696629577E+02
2.62550000000E+07	-3.10559439872E+01	-2.78701980608E+01	3.72318280941E+01	-4.78772839248E+01	-4.74185036298E+01	-4.45889624260E+01	-2.81542186536E+01	-1.74366454009E+02
2.64500000000E+07	-3.10025082863E+01	-2.65612103019E+01	3.72312801579E+01	-4.83668342527E+01	-4.73482177721E+01	-4.48546620546E+01	-2.81095562895E+01	-1.74091255846E+02
2.66450000000E+07	-3.09155239079E+01	-2.50952108392E+01	3.72278960665E+01	-4.88621520465E+01	-4.74056424605E+01	-4.54090414704E+01	-2.81474366389E+01	-1.73636157776E+02
2.68400000000E+07	-3.07911039326E+01	-2.37713965777E+01	3.72271114463E+01	-4.93498044822E+01	-4.73566048140E+01	-4.62023127497E+01	-2.81228415495E+01	-1.73655381392E+02
2.70350000000E+07	-3.07277056204E+01	-2.25031021790E+01	3.72221258935E+01	-4.98200415698E+01	-4.73528759144E+01	-4.58655087504E+01	-2.80945840230E+01	-1.73120732156E+02
2.72300000000E+07	-3.06299369270E+01	-2.14440997343E+01	3.72211600208E+01	-5.02854093256E+01	-4.73432680523E+01	-4.67509715653E+01	-2.81230792342E+01	-1.72632200406E+02
2.74250000000E+07	-3.05101667943E+01	-2.03537346284E+01	3.72199995872E+01	-5.07640803011E+01	-4.73485611508E+01	-4.72772779780E+01	-2.80778284309E+01	-1.72753276823E+02
2.76200000000E+07	-3.04122174353E+01	-1.91370272647E+01	3.72165666244E+01	-5.12402917824E+01	-4.73537941078E+01	-4.77661892631E+01	-2.80622264655E+01	-1.72442072166E+02
