# Hz S DB R 50
! CMT, M5045, 22160017, 22.3.3/2
! Date: 10/8/2022 18:04:42
! Data: Format (Calibration Info)
! Freq	S11:dB/Ang(F2)	S21:dB/Ang(F2)	S12:dB/Ang(F2)	S22:dB/Ang(F2)
5.00000000000E+06	-1.01319737758E+01	-9.25358903166E+01	3.63673035156E+01	-1.50448332806E+02	-4.84794589531E+01	-1.47625696023E+02	-1.43751159178E+01	6.63230855869E+01
5.19500000000E+06	-1.04721366923E+01	-9.40376200313E+01	3.64380561805E+01	-1.52737199322E+02	-4.83984486484E+01	-1.49923233316E+02	-1.49487603892E+01	6.50706897801E+01
5.39000000000E+06	-1.07991058467E+01	-9.55246300702E+01	3.65002812903E+01	-1.54888777646E+02	-4.83312094699E+01	-1.52095933459E+02	-1.55108187044E+01	6.39207077795E+01
5.58500000000E+06	-1.11162083039E+01	-9.69462645932E+01	3.65564750248E+01	-1.56936763565E+02	-4.82633001593E+01	-1.54168834736E+02	-1.60599081969E+01	6.28610605617E+01
5.78000000000E+06	-1.14225532414E+01	-9.83058466768E+01	3.66072844326E+01	-1.58926465777E+02	-4.82176706804E+01	-1.56162741042E+02	-1.66002958740E+01	6.18714903739E+01
5.97500000000E+06	-1.17133326644E+01	-9.95880380701E+01	3.66544227131E+01	-1.60806165371E+02	-4.81685401737E+01	-1.58052828180E+02	-1.71292420686E+01	6.09376572196E+01
6.17000000000E+06	-1.20047640838E+01	-1.00854958534E+02	3.66924954479E+01	-1.62579333100E+02	-4.81173756958E+01	-1.59835614597E+02	-1.76505733047E+01	6.00838747668E+01
6.36500000000E+06	-1.22871628719E+01	-1.02094597144E+02	3.67250500602E+01	-1.64315697622E+02	-4.80782572976E+01	-1.61574241463E+02	-1.81631174995E+01	5.92691523122E+01
6.56000000000E+06	-1.25515447286E+01	-1.03275824388E+02	3.67639925405E+01	-1.65963013846E+02	-4.80375873454E+01	-1.63201401889E+02	-1.86706334266E+01	5.85178285112E+01
6.75500000000E+06	-1.28072623462E+01	-1.04477466846E+02	3.67905460766E+01	-1.67575318719E+02	-4.80053712284E+01	-1.64826327800E+02	-1.91690034686E+01	5.77868349481E+01
6.95000000000E+06	-1.30682391279E+01	-1.05650240870E+02	3.68149045155E+01	-1.69114877740E+02	-4.79669431259E+01	-1.66357966371E+02	-1.96653914529E+01	5.71170583689E+01
7.14500000000E+06	-1.33129018227E+01	-1.06743912777E+02	3.68412190605E+01	-1.70580651101E+02	-4.79385723175E+01	-1.67862852913E+02	-2.01560651790E+01	5.64759110025E+01
7.34000000000E+06	-1.35538292894E+01	-1.07816987222E+02	3.68639532969E+01	-1.72006979281E+02	-4.79154578377E+01	-1.69282891570E+02	-2.06411305967E+01	5.58568370657E+01
7.53500000000E+06	-1.37983289388E+01	-1.08979477660E+02	3.68849849859E+01	-1.73443579925E+02	-4.78811365493E+01	-1.70704715123E+02	-2.11222694056E+01	5.53071349969E+01
7.73000000000E+06	-1.40302212045E+01	-1.10057320011E+02	3.69017706266E+01	-1.74792461064E+02	-4.78615099747E+01	-1.72056333324E+02	-2.16013200519E+01	5.47432445259E+01
7.92500000000E+06	-1.42489075496E+01	-1.11137644700E+02	3.69172884738E+01	-1.76137687317E+02	-4.78348914674E+01	-1.73392470521E+02	-2.20818972645E+01	5.42264340570E+01
8.12000000000E+06	-1.44770259122E+01	-1.12084785542E+02	3.69314780771E+01	-1.77391739890E+02	-4.78119769289E+01	-1.74656815829E+02	-2.25599904442E+01	5.37616799998E+01
8.31500000000E+06	-1.46867693542E+01	-1.13111943168E+02	3.69480779854E+01	-1.78637178535E+02	-4.77947742831E+01	-1.75921266420E+02	-2.30375048850E+01	5.32992340254E+01
8.51000000000E+06	-1.49065291161E+01	-1.14190351243E+02	3.69548338199E+01	-1.79885918181E+02	-4.77796959202E+01	-1.77114898467E+02	-2.35197628140E+01	5.28440306984E+01
8.70500000000E+06	-1.51261657231E+01	-1.15143493804E+02	3.69659360658E+01	1.78912460453E+02	-4.77616272196E+01	-1.78298600923E+02	-2.39990371107E+01	5.24191143203E+01
8.90000000000E+06	-1.53229160287E+01	-1.16171781575E+02	3.69786496716E+01	1.77758115046E+02	-4.77445900263E+01	-1.79481963891E+02	-2.44786926293E+01	5.20390433717E+01
9.09500000000E+06	-1.55221940092E+01	-1.17161486996E+02	3.69885183050E+01	1.76590757558E+02	-4.77290590253E+01	1.79377476809E+02	-2.49631912868E+01	5.16588175806E+01
9.29000000000E+06	-1.57234701384E+01	-1.18172387141E+02	3.69982339961E+01	1.75468154238E+02	-4.77124703798E+01	1.78234858541E+02	-2.54526938717E+01	5.13311893964E+01
9.48500000000E+06	-1.59143268734E+01	-1.19131324667E+02	3.70048669869E+01	1.74399603345E+02	-4.77036207608E+01	1.77144689977E+02	-2.59400710587E+01	5.10065473290E+01
9.68000000000E+06	-1.61128781406E+01	-1.20046760127E+02	3.70107200677E+01	1.73315156003E+02	-4.76933115507E+01	1.76051711278E+02	-2.64382094154E+01	5.07310272745E+01
9.87500000000E+06	-1.63042109703E+01	-1.21038762844E+02	3.70171131353E+01	1.72257275631E+02	-4.76747856165E+01	1.74986308969E+02	-2.69313508684E+01	5.04387061405E+01
1.00700000000E+07	-1.64746919010E+01	-1.22010164940E+02	3.70197862587E+01	1.71212768618E+02	-4.76712569767E+01	1.73922135315E+02	-2.74547827263E+01	5.00614140148E+01
1.02650000000E+07	-1.66537169527E+01	-1.22981935795E+02	3.70287600552E+01	1.70183646999E+02	-4.76560258643E+01	1.72894711573E+02	-2.79749182951E+01	4.99074522898E+01
1.04600000000E+07	-1.68375988563E+01	-1.23901144466E+02	3.70326033032E+01	1.69214241306E+02	-4.76533683310E+01	1.71875609837E+02	-2.84953075463E+01	4.96614882735E+01
1.06550000000E+07	-1.70144685744E+01	-1.24928683413E+02	3.70373548717E+01	1.68223894920E+02	-4.76452221084E+01	1.70887250715E+02	-2.90299918685E+01	4.94040343910E+01
1.08500000000E+07	-1.71860174414E+01	-1.25948727589E+02	3.70454178280E+01	1.67189385305E+02	-4.76354175312E+01	1.69924136871E+02	-2.95854337712E+01	4.91813922599E+01
1.10450000000E+07	-1.73719567288E+01	-1.26856923202E+02	3.70482741469E+01	1.66240280686E+02	-4.76360322063E+01	1.68931917360E+02	-3.01517688389E+01	4.89465985466E+01
1.12400000000E+07	-1.75389358611E+01	-1.27740672781E+02	3.70541222162E+01	1.65308261615E+02	-4.76204445848E+01	1.67938276566E+02	-3.07407759478E+01	4.88014737710E+01
1.14350000000E+07	-1.76984419742E+01	-1.28758236124E+02	3.70616801900E+01	1.64342998098E+02	-4.76155210035E+01	1.66977485812E+02	-3.13548724719E+01	4.87084495128E+01
1.16300000000E+07	-1.78723084931E+01	-1.29676743585E+02	3.70605095309E+01	1.63413212099E+02	-4.76049924437E+01	1.66026992380E+02	-3.19835012763E+01	4.85790194028E+01
1.18250000000E+07	-1.80254037670E+01	-1.30648643423E+02	3.70686317341E+01	1.62464874076E+02	-4.75918375797E+01	1.65081050984E+02	-3.26324720307E+01	4.85650297834E+01
1.20200000000E+07	-1.81904108920E+01	-1.31569961158E+02	3.70708494138E+01	1.61502569144E+02	-4.75958042070E+01	1.64133250693E+02	-3.33210719393E+01	4.85928623818E+01
1.22150000000E+07	-1.83527236382E+01	-1.32537246578E+02	3.70711329542E+01	1.60596165309E+02	-4.75885836247E+01	1.63215420654E+02	-3.40320149213E+01	4.87096521277E+01
1.24100000000E+07	-1.85105785267E+01	-1.33469268634E+02	3.70713328526E+01	1.59704364642E+02	-4.75778150204E+01	1.62300143040E+02	-3.47927396586E+01	4.89363777295E+01
1.26050000000E+07	-1.86703678005E+01	-1.34453688761E+02	3.70713413941E+01	1.58819742741E+02	-4.75765905610E+01	1.61335254325E+02	-3.55944191151E+01	4.92401116083E+01
1.28000000000E+07	-1.88358283803E+01	-1.35314008242E+02	3.70750038367E+01	1.57958098095E+02	-4.75716566345E+01	1.60492219047E+02	-3.64342613711E+01	4.96567660031E+01
1.29950000000E+07	-1.89895217565E+01	-1.36221304730E+02	3.70748589828E+01	1.57122077513E+02	-4.75650477104E+01	1.59596132511E+02	-3.73453147774E+01	5.04211203583E+01
1.31900000000E+07	-1.91496906771E+01	-1.37088883496E+02	3.70719158179E+01	1.56261533508E+02	-4.75621050466E+01	1.58736647151E+02	-3.83221806499E+01	5.12070809991E+01
1.33850000000E+07	-1.92966754363E+01	-1.38000208700E+02	3.70740756250E+01	1.55440551460E+02	-4.75532545080E+01	1.57878584727E+02	-3.93922049733E+01	5.24325648284E+01
1.35800000000E+07	-1.94449962008E+01	-1.38840381429E+02	3.70764521721E+01	1.54611377264E+02	-4.75503227049E+01	1.57080662793E+02	-4.05755368733E+01	5.40827630463E+01
1.37750000000E+07	-1.95922076828E+01	-1.39753332115E+02	3.70813064190E+01	1.53763234135E+02	-4.75489383916E+01	1.56196927627E+02	-4.18638706590E+01	5.61555135744E+01
1.39700000000E+07	-1.97481673361E+01	-1.40680935754E+02	3.70794239568E+01	1.52948701735E+02	-4.75411108247E+01	1.55400559864E+02	-4.33087438965E+01	5.94340902007E+01
1.41650000000E+07	-1.98928380834E+01	-1.41549208901E+02	3.70812310792E+01	1.52135474041E+02	-4.75397923234E+01	1.54566903688E+02	-4.49186585679E+01	6.40132399611E+01
1.43600000000E+07	-2.00562657030E+01	-1.42367855219E+02	3.70800233503E+01	1.51330976047E+02	-4.75333422470E+01	1.53741318712E+02	-4.67157500239E+01	7.05884999987E+01
1.45550000000E+07	-2.01866007823E+01	-1.43169533584E+02	3.70828287317E+01	1.50541673834E+02	-4.75289698972E+01	1.52975461568E+02	-4.87668095096E+01	8.13708969284E+01
1.47500000000E+07	-2.03287006494E+01	-1.44005522396E+02	3.70825197033E+01	1.49728545200E+02	-4.75228539638E+01	1.52163135918E+02	-5.05859704983E+01	9.77520218204E+01
1.49450000000E+07	-2.04693499348E+01	-1.44949784753E+02	3.70842654241E+01	1.48931566739E+02	-4.75275800499E+01	1.51361138568E+02	-5.17133521841E+01	1.20435722731E+02
1.51400000000E+07	-2.06051595482E+01	-1.45824932393E+02	3.70840412007E+01	1.48147344269E+02	-4.75200350001E+01	1.50568787613E+02	-5.12428524133E+01	1.44267374519E+02
1.53350000000E+07	-2.07515689563E+01	-1.46587600673E+02	3.70835659333E+01	1.47360541436E+02	-4.75153908711E+01	1.49809693426E+02	-4.96434313914E+01	1.62907467636E+02
1.55300000000E+07	-2.08962995672E+01	-1.47356906361E+02	3.70801520604E+01	1.46603635452E+02	-4.75120227800E+01	1.49017659611E+02	-4.78842920247E+01	1.74474423139E+02
1.57250000000E+07	-2.10316104662E+01	-1.48249335441E+02	3.70821137252E+01	1.45812718661E+02	-4.75061029721E+01	1.48275754049E+02	-4.61769490817E+01	-1.78306867304E+02
1.59200000000E+07	-2.11673762789E+01	-1.49055020463E+02	3.70851573190E+01	1.45046312155E+02	-4.75042172245E+01	1.47494527736E+02	-4.46663523694E+01	-1.73001348084E+02
1.61150000000E+07	-2.13024569798E+01	-1.49838606311E+02	3.70840095626E+01	1.44269043175E+02	-4.74974680950E+01	1.46716496306E+02	-4.33834128545E+01	-1.69632792609E+02
1.63100000000E+07	-2.14316595486E+01	-1.50756187894E+02	3.70868202331E+01	1.43528699010E+02	-4.74936337301E+01	1.46013863898E+02	-4.22964476898E+01	-1.66924123149E+02
1.65050000000E+07	-2.15812663546E+01	-1.51533156217E+02	3.70819632115E+01	1.42757944310E+02	-4.74919905643E+01	1.45259497064E+02	-4.12608345406E+01	-1.65166398240E+02
1.67000000000E+07	-2.17091794465E+01	-1.52328396397E+02	3.70841394404E+01	1.42001426960E+02	-4.74822972042E+01	1.44508028658E+02	-4.03710489730E+01	-1.63896734936E+02
1.68950000000E+07	-2.18463426972E+01	-1.53143235785E+02	3.70826212347E+01	1.41259710806E+02	-4.74849368286E+01	1.43779704336E+02	-3.95717143804E+01	-1.62922082694E+02
1.70900000000E+07	-2.19782129106E+01	-1.53989105549E+02	3.70840973520E+01	1.40507118556E+02	-4.74818000847E+01	1.43029548171E+02	-3.88517851919E+01	-1.62151251201E+02
1.72850000000E+07	-2.21016251541E+01	-1.54672645373E+02	3.70829922721E+01	1.39778260187E+02	-4.74774562321E+01	1.42321907594E+02	-3.81896053589E+01	-1.61643795419E+02
1.74800000000E+07	-2.22344592571E+01	-1.55529898690E+02	3.70822378070E+01	1.39017814626E+02	-4.74734146059E+01	1.41590076957E+02	-3.75973078057E+01	-1.61189041241E+02
1.76750000000E+07	-2.23681423004E+01	-1.56322497224E+02	3.70792739761E+01	1.38281143796E+02	-4.74661464739E+01	1.40839809213E+02	-3.70443341138E+01	-1.60914740276E+02
1.78700000000E+07	-2.24874867214E+01	-1.57076320858E+02	3.70825599870E+01	1.37542404106E+02	-4.74647037535E+01	1.40153661231E+02	-3.65551631864E+01	-1.60716905827E+02
1.80650000000E+07	-2.26231870264E+01	-1.57828088574E+02	3.70807188113E+01	1.36840634348E+02	-4.74671432847E+01	1.39431126738E+02	-3.60780937250E+01	-1.60611463140E+02
1.82600000000E+07	-2.27456698144E+01	-1.58581012997E+02	3.70796297297E+01	1.36102078131E+02	-4.74585134868E+01	1.38724957274E+02	-3.56158328740E+01	-1.60498735810E+02
1.84550000000E+07	-2.28884481083E+01	-1.59340799849E+02	3.70771996842E+01	1.35386727634E+02	-4.74561291835E+01	1.38003181061E+02	-3.52058891940E+01	-1.60518128412E+02
1.86500000000E+07	-2.30079788190E+01	-1.60116499305E+02	3.70743901239E+01	1.34655599082E+02	-4.74526903968E+01	1.37258421840E+02	-3.48138689734E+01	-1.60586025734E+02
1.88450000000E+07	-2.31307445511E+01	-1.60939694910E+02	3.70736379775E+01	1.33950920711E+02	-4.74510518402E+01	1.36559940002E+02	-3.44392854645E+01	-1.60563199092E+02
1.90400000000E+07	-2.32638264450E+01	-1.61585308173E+02	3.70719668156E+01	1.33204576978E+02	-4.74488153595E+01	1.35864222138E+02	-3.40910411003E+01	-1.60719302871E+02
1.92350000000E+07	-2.33728407748E+01	-1.62434548482E+02	3.70750135834E+01	1.32496395236E+02	-4.74409900922E+01	1.35167807951E+02	-3.37491921395E+01	-1.60830661478E+02
1.94300000000E+07	-2.34988058152E+01	-1.63239993777E+02	3.70726680146E+01	1.31800753334E+02	-4.74350847613E+01	1.34457082068E+02	-3.34396234900E+01	-1.60970305894E+02
1.96250000000E+07	-2.36266920628E+01	-1.63944299432E+02	3.70737314905E+01	1.31082920261E+02	-4.74393979128E+01	1.33769138819E+02	-3.31341712867E+01	-1.61083382604E+02
1.98200000000E+07	-2.37611082528E+01	-1.64789137694E+02	3.70734120444E+01	1.30346272781E+02	-4.74327508202E+01	1.33097279115E+02	-3.28464084642E+01	-1.61310614892E+02
2.00150000000E+07	-2.38705409628E+01	-1.65555491030E+02	3.70703064924E+01	1.29669528661E+02	-4.74299939781E+01	1.32418608392E+02	-3.25706454699E+01	-1.61528155167E+02
2.02100000000E+07	-2.40114074443E+01	-1.66135013390E+02	3.70704247670E+01	1.28992818991E+02	-4.74270719267E+01	1.31707628229E+02	-3.23066015481E+01	-1.61709136078E+02
2.04050000000E+07	-2.41102186046E+01	-1.66998512516E+02	3.70686426543E+01	1.28233819790E+02	-4.74287245937E+01	1.31044774444E+02	-3.20545142822E+01	-1.61998802860E+02
2.06000000000E+07	-2.42400465832E+01	-1.67684875615E+02	3.70651096657E+01	1.27555815281E+02	-4.74190963279E+01	1.30336990214E+02	-3.18086747566E+01	-1.62209915658E+02
2.07950000000E+07	-2.43610049027E+01	-1.68425985725E+02	3.70642688986E+01	1.26856635696E+02	-4.74158268874E+01	1.29683685465E+02	-3.15762085022E+01	-1.62478814900E+02
2.09900000000E+07	-2.44848130327E+01	-1.69077983169E+02	3.70650704534E+01	1.26158864089E+02	-4.74181806689E+01	1.28994603737E+02	-3.13510652431E+01	-1.62780309918E+02
2.11850000000E+07	-2.46103785074E+01	-1.69891710932E+02	3.70636155991E+01	1.25484680605E+02	-4.74138519757E+01	1.28316191167E+02	-3.11393668151E+01	-1.63029901679E+02
2.13800000000E+07	-2.47145846641E+01	-1.70590492182E+02	3.70640215784E+01	1.24782879765E+02	-4.74091723761E+01	1.27612154289E+02	-3.09253596372E+01	-1.63376531327E+02
2.15750000000E+07	-2.48195131381E+01	-1.71242525018E+02	3.70582236019E+01	1.24080052018E+02	-4.74070780208E+01	1.26948718730E+02	-3.07312150414E+01	-1.63653537116E+02
2.17700000000E+07	-2.49633560063E+01	-1.72034062793E+02	3.70585940102E+01	1.23379935579E+02	-4.74025945271E+01	1.26325505406E+02	-3.05383557005E+01	-1.63980162832E+02
2.19650000000E+07	-2.50633334822E+01	-1.72751160038E+02	3.70581471197E+01	1.22702609695E+02	-4.73968395216E+01	1.25629028610E+02	-3.03532776832E+01	-1.64293017029E+02
2.21600000000E+07	-2.51984228255E+01	-1.73409104965E+02	3.70581205461E+01	1.22039157336E+02	-4.74021685636E+01	1.24967204706E+02	-3.01711280359E+01	-1.64652606357E+02
2.23550000000E+07	-2.52998068785E+01	-1.74273437285E+02	3.70523216828E+01	1.21333746221E+02	-4.73953620568E+01	1.24296901759E+02	-2.99951462626E+01	-1.64949557837E+02
2.25500000000E+07	-2.54095380948E+01	-1.74983988838E+02	3.70541287550E+01	1.20652953535E+02	-4.73838911597E+01	1.23637141015E+02	-2.98274580291E+01	-1.65317333607E+02
2.27450000000E+07	-2.55470026380E+01	-1.75601736183E+02	3.70478644508E+01	1.19971032162E+02	-4.73839490534E+01	1.22979295963E+02	-2.96617830331E+01	-1.65640854021E+02
2.29400000000E+07	-2.56604341394E+01	-1.76330190614E+02	3.70469987634E+01	1.19300333860E+02	-4.73862788899E+01	1.22370667379E+02	-2.95000102906E+01	-1.65968977066E+02
2.31350000000E+07	-2.57646733084E+01	-1.77135093841E+02	3.70483676379E+01	1.18620730468E+02	-4.73812089291E+01	1.21659327333E+02	-2.93527575249E+01	-1.66307359490E+02
2.33300000000E+07	-2.59076270765E+01	-1.77770947438E+02	3.70420254787E+01	1.17945230231E+02	-4.73779066173E+01	1.20994896463E+02	-2.91999873858E+01	-1.66664738348E+02
2.35250000000E+07	-2.60056579560E+01	-1.78433266797E+02	3.70400570003E+01	1.17261794309E+02	-4.73762453092E+01	1.20364186527E+02	-2.90531313082E+01	-1.67019610544E+02
2.37200000000E+07	-2.61146936609E+01	-1.79206728896E+02	3.70393058617E+01	1.16594014248E+02	-4.73701848491E+01	1.19699450366E+02	-2.89164821841E+01	-1.67388085629E+02
2.39150000000E+07	-2.62252084806E+01	-1.79930214933E+02	3.70397145731E+01	1.15903720719E+02	-4.73699553289E+01	1.19025892869E+02	-2.87753496915E+01	-1.67735019746E+02
2.41100000000E+07	-2.63544658002E+01	1.79490771546E+02	3.70365471525E+01	1.15239990722E+02	-4.73697687886E+01	1.18403452587E+02	-2.86400172724E+01	-1.68147859757E+02
2.43050000000E+07	-2.64628981596E+01	1.78772799090E+02	3.70347158334E+01	1.14581377393E+02	-4.73614838819E+01	1.17762121849E+02	-2.85076555394E+01	-1.68514171280E+02
2.45000000000E+07	-2.66069633864E+01	1.78156402556E+02	3.70288370618E+01	1.13910560459E+02	-4.73615692184E+01	1.17081560726E+02	-2.83773143554E+01	-1.68832826558E+02
2.46950000000E+07	-2.67148892784E+01	1.77476569082E+02	3.70290733302E+01	1.13265652957E+02	-4.73573472414E+01	1.16447159315E+02	-2.82527410869E+01	-1.69228954558E+02
2.48900000000E+07	-2.68128177999E+01	1.76739179530E+02	3.70304042194E+01	1.12587637330E+02	-4.73549201577E+01	1.15824994838E+02	-2.81335709422E+01	-1.69611772440E+02
2.50850000000E+07	-2.69342602262E+01	1.75970903275E+02	3.70253911972E+01	1.11921930709E+02	-4.73503922621E+01	1.15175225630E+02	-2.80100576437E+01	-1.69966492082E+02
2.52800000000E+07	-2.70748104745E+01	1.75416222882E+02	3.70232441490E+01	1.11254958899E+02	-4.73444940396E+01	1.14516585767E+02	-2.78945607021E+01	-1.70368854395E+02
2.54750000000E+07	-2.71882164190E+01	1.74778613089E+02	3.70220133859E+01	1.10565624559E+02	-4.73465764404E+01	1.13919525397E+02	-2.77846889932E+01	-1.70720665851E+02
2.56700000000E+07	-2.72708874635E+01	1.73890103393E+02	3.70208784070E+01	1.09914020801E+02	-4.73391136516E+01	1.13268905382E+02	-2.76644116733E+01	-1.71159765951E+02
2.58650000000E+07	-2.74240376549E+01	1.73408002521E+02	3.70188780364E+01	1.09257344060E+02	-4.73381335647E+01	1.12596578698E+02	-2.75572911938E+01	-1.71551216498E+02
2.60600000000E+07	-2.75316896750E+01	1.72581180348E+02	3.70144216672E+01	1.08596343843E+02	-4.73379031755E+01	1.12008892424E+02	-2.74482687528E+01	-1.71931101325E+02
2.62550000000E+07	-2.76277080806E+01	1.71840139110E+02	3.70111701453E+01	1.07951380251E+02	-4.73365222254E+01	1.11321617433E+02	-2.73468874770E+01	-1.72338595839E+02
2.64500000000E+07	-2.77474309351E+01	1.71302368822E+02	3.70080456316E+01	1.07282167238E+02	-4.73359244095E+01	1.10722942361E+02	-2.72446155579E+01	-1.72724453886E+02
2.66450000000E+07	-2.78587612011E+01	1.70751429996E+02	3.70085862974E+01	1.06618137586E+02	-4.73288360907E+01	1.10089021039E+02	-2.71421746719E+01	-1.73138129904E+02
2.68400000000E+07	-2.79967345760E+01	1.70073393313E+02	3.70071591258E+01	1.05974128176E+02	-4.73229270732E+01	1.09439670103E+02	-2.70434232755E+01	-1.73585779409E+02
2.70350000000E+07	-2.81101567815E+01	1.69443849878E+02	3.70034996269E+01	1.05334160979E+02	-4.73218539296E+01	1.08809856612E+02	-2.69490731132E+01	-1.73940837292E+02
2.72300000000E+07	-2.82366934251E+01	1.68824196580E+02	3.69988381917E+01	1.04663303009E+02	-4.73161054375E+01	1.08184335177E+02	-2.68563246523E+01	-1.74392866706E+02
2.74250000000E+07	-2.83371836513E+01	1.67961665235E+02	3.70000376547E+01	1.04024948802E+02	-4.73133561342E+01	1.07566317232E+02	-2.67642039867E+01	-1.74816578996E+02
2.76200000000E+07	-2.84695988006E+01	1.67355692647E+02	3.69949065375E+01	1.03355969654E+02	-4.73134509102E+01	1.06931146816E+02	-2.66705415314E+01	-1.75247732881E+02
2.78150000000E+07	-2.85773086540E+01	1.66758579893E+02	3.69944026782E+01	1.02725378237E+02	-4.73078496810E+01	1.06312266648E+02	-2.65810075308E+01	-1.75652848016E+02
