# Hz S DB R 50
! CMT, M5045, 22160017, 22.3.3/2
! Date: 10/8/2022 18:54:50
! Data: Format (Calibration Info)
! Freq	S11:dB/Ang(F2)	S21:dB/Ang(F2)	S12:dB/Ang(F2)	S22:dB/Ang(F2)
5.00000000000E+06	-1.00671262628E+01	-9.23145970352E+01	3.64097016086E+01	-1.50758665123E+02	-4.85242430850E+01	-1.47938567014E+02	-1.43406867445E+01	6.20875999859E+01
5.19500000000E+06	-1.04082806189E+01	-9.38811058901E+01	3.64808032966E+01	-1.53014771020E+02	-4.84447015705E+01	-1.50193889756E+02	-1.48957650952E+01	6.06304124206E+01
5.39000000000E+06	-1.07320916329E+01	-9.53731680620E+01	3.65491779098E+01	-1.55159150047E+02	-4.83837365617E+01	-1.52375893479E+02	-1.54370187771E+01	5.92814188968E+01
5.58500000000E+06	-1.10501001205E+01	-9.68397563125E+01	3.66014556060E+01	-1.57195925987E+02	-4.83202143903E+01	-1.54487520411E+02	-1.59646262840E+01	5.80008134540E+01
5.78000000000E+06	-1.13530758076E+01	-9.82054215200E+01	3.66516264693E+01	-1.59157330408E+02	-4.82712554781E+01	-1.56455347670E+02	-1.64855901817E+01	5.67894367026E+01
5.97500000000E+06	-1.16526712038E+01	-9.95436878947E+01	3.66986315655E+01	-1.61006063921E+02	-4.82130833598E+01	-1.58274546600E+02	-1.69920889061E+01	5.56380132729E+01
6.17000000000E+06	-1.19396379593E+01	-1.00837171096E+02	3.67378162556E+01	-1.62793266568E+02	-4.81710205945E+01	-1.60070673896E+02	-1.74892282959E+01	5.45417748532E+01
6.36500000000E+06	-1.22166976053E+01	-1.02175483410E+02	3.67704838846E+01	-1.64533234300E+02	-4.81264347993E+01	-1.61805682429E+02	-1.79782799008E+01	5.34845741341E+01
6.56000000000E+06	-1.24887285542E+01	-1.03439660108E+02	3.68083201278E+01	-1.66205861774E+02	-4.80878286791E+01	-1.63439286447E+02	-1.84582837370E+01	5.24673668872E+01
6.75500000000E+06	-1.27595782933E+01	-1.04615455353E+02	3.68364114240E+01	-1.67767244177E+02	-4.80565678437E+01	-1.65027118989E+02	-1.89301650388E+01	5.14776437787E+01
6.95000000000E+06	-1.30107599807E+01	-1.05845078497E+02	3.68612060183E+01	-1.69307586498E+02	-4.80208570299E+01	-1.66618578518E+02	-1.93994539970E+01	5.05423204013E+01
7.14500000000E+06	-1.32639762015E+01	-1.06951460412E+02	3.68849423421E+01	-1.70748427031E+02	-4.79887222701E+01	-1.68074014397E+02	-1.98609142591E+01	4.96156388254E+01
7.34000000000E+06	-1.35112156832E+01	-1.08160207942E+02	3.69060286630E+01	-1.72233837481E+02	-4.79618054175E+01	-1.69453979196E+02	-2.03151431765E+01	4.86989621928E+01
7.53500000000E+06	-1.37515472767E+01	-1.09287037806E+02	3.69229368695E+01	-1.73637599764E+02	-4.79311093185E+01	-1.70910865020E+02	-2.07626203604E+01	4.78249180611E+01
7.73000000000E+06	-1.39829305287E+01	-1.10359128350E+02	3.69432873789E+01	-1.74946465263E+02	-4.79151052019E+01	-1.72251844981E+02	-2.12073925243E+01	4.69523338632E+01
7.92500000000E+06	-1.42199191184E+01	-1.11454264187E+02	3.69626212215E+01	-1.76275643589E+02	-4.78803764933E+01	-1.73570691868E+02	-2.16504998942E+01	4.60996030843E+01
8.12000000000E+06	-1.44334923358E+01	-1.12542256158E+02	3.69758779776E+01	-1.77566656066E+02	-4.78639244265E+01	-1.74849095122E+02	-2.20900537467E+01	4.52788568385E+01
8.31500000000E+06	-1.46555593373E+01	-1.13641349601E+02	3.69912719870E+01	-1.78795793693E+02	-4.78498218028E+01	-1.76085796958E+02	-2.25250700272E+01	4.44498451920E+01
8.51000000000E+06	-1.48830063487E+01	-1.14723269701E+02	3.69996790923E+01	1.79938286650E+02	-4.78254707808E+01	-1.77331899665E+02	-2.29650859771E+01	4.35937209456E+01
8.70500000000E+06	-1.50922664410E+01	-1.15748438167E+02	3.70131310248E+01	1.78775340466E+02	-4.78102774519E+01	-1.78454751713E+02	-2.33987413759E+01	4.27908488648E+01
8.90000000000E+06	-1.52970047981E+01	-1.16846419870E+02	3.70291526436E+01	1.77595107297E+02	-4.77983355392E+01	-1.79680891241E+02	-2.38293583045E+01	4.19823558120E+01
9.09500000000E+06	-1.55147999843E+01	-1.17807084086E+02	3.70360252409E+01	1.76469250975E+02	-4.77731750804E+01	1.79177320541E+02	-2.42606231712E+01	4.11442899797E+01
9.29000000000E+06	-1.57143454562E+01	-1.18849520726E+02	3.70392309087E+01	1.75359458703E+02	-4.77608290982E+01	1.78113180394E+02	-2.46925046976E+01	4.03337590417E+01
9.48500000000E+06	-1.59088392527E+01	-1.19888142165E+02	3.70530766109E+01	1.74254701338E+02	-4.77558888886E+01	1.76996192554E+02	-2.51219293855E+01	3.95106273988E+01
9.68000000000E+06	-1.61124786804E+01	-1.20923831653E+02	3.70574634342E+01	1.73150397194E+02	-4.77426476172E+01	1.75945256298E+02	-2.55554198459E+01	3.87211109834E+01
9.87500000000E+06	-1.63062190190E+01	-1.21839937353E+02	3.70650710674E+01	1.72129407021E+02	-4.77310169582E+01	1.74851107824E+02	-2.59826123930E+01	3.78839347475E+01
1.00700000000E+07	-1.65062774410E+01	-1.22933047166E+02	3.70668244172E+01	1.71085807902E+02	-4.77175073589E+01	1.73813170120E+02	-2.64268895917E+01	3.69355247039E+01
1.02650000000E+07	-1.66809229706E+01	-1.23966257264E+02	3.70765436249E+01	1.70071124264E+02	-4.77124270271E+01	1.72766889421E+02	-2.68750435033E+01	3.61349165685E+01
1.04600000000E+07	-1.68652361120E+01	-1.24994249616E+02	3.70817354833E+01	1.69047970078E+02	-4.77012467297E+01	1.71709876401E+02	-2.73171625550E+01	3.52579529346E+01
1.06550000000E+07	-1.70569685952E+01	-1.25946905250E+02	3.70873692198E+01	1.68070616566E+02	-4.76956121034E+01	1.70729353617E+02	-2.77524441432E+01	3.43085995167E+01
1.08500000000E+07	-1.72346069343E+01	-1.26972225304E+02	3.70905576774E+01	1.67094534364E+02	-4.76881305112E+01	1.69747463749E+02	-2.81975150625E+01	3.33302273187E+01
1.10450000000E+07	-1.74159359533E+01	-1.28011842434E+02	3.70947910492E+01	1.66125874426E+02	-4.76786288752E+01	1.68746887891E+02	-2.86448337401E+01	3.22912260219E+01
1.12400000000E+07	-1.76004360346E+01	-1.28921896508E+02	3.71006390070E+01	1.65169530719E+02	-4.76756602388E+01	1.67786764973E+02	-2.91096144473E+01	3.12007542048E+01
1.14350000000E+07	-1.77660057232E+01	-1.29939516240E+02	3.71032068504E+01	1.64251565416E+02	-4.76650319632E+01	1.66873070728E+02	-2.95857715748E+01	3.01299375449E+01
1.16300000000E+07	-1.79439649014E+01	-1.31005656373E+02	3.71103728129E+01	1.63248631765E+02	-4.76609281964E+01	1.65890055445E+02	-3.00660132939E+01	2.89411307385E+01
1.18250000000E+07	-1.81213199570E+01	-1.31954884833E+02	3.71115743243E+01	1.62332651599E+02	-4.76519016516E+01	1.64942101335E+02	-3.05499289519E+01	2.78014371657E+01
1.20200000000E+07	-1.82902791301E+01	-1.32981046686E+02	3.71138598107E+01	1.61429978642E+02	-4.76432748826E+01	1.64034325512E+02	-3.10512990399E+01	2.65233470566E+01
1.22150000000E+07	-1.84540250802E+01	-1.33973705142E+02	3.71206946339E+01	1.60495107469E+02	-4.76326033765E+01	1.63058354930E+02	-3.15630304647E+01	2.52229920538E+01
1.24100000000E+07	-1.86315303432E+01	-1.35015005030E+02	3.71204180739E+01	1.59573381698E+02	-4.76306055250E+01	1.62200853222E+02	-3.20874804306E+01	2.38946357360E+01
1.26050000000E+07	-1.87997176830E+01	-1.35931927332E+02	3.71181025095E+01	1.58717912986E+02	-4.76280820447E+01	1.61257862545E+02	-3.26225767410E+01	2.23815524163E+01
1.28000000000E+07	-1.89673691286E+01	-1.36935008150E+02	3.71194387160E+01	1.57855509837E+02	-4.76222746874E+01	1.60371998103E+02	-3.31686719812E+01	2.08714443603E+01
1.29950000000E+07	-1.91473454266E+01	-1.37853368381E+02	3.71198298532E+01	1.56990706989E+02	-4.76158764019E+01	1.59512180851E+02	-3.37381977692E+01	1.92690586864E+01
1.31900000000E+07	-1.93014241736E+01	-1.38824867932E+02	3.71257479736E+01	1.56170575078E+02	-4.76103014243E+01	1.58644251396E+02	-3.43188753314E+01	1.74310940928E+01
1.33850000000E+07	-1.94742357491E+01	-1.39740339250E+02	3.71230571508E+01	1.55336392739E+02	-4.76094421790E+01	1.57794411168E+02	-3.49192615609E+01	1.56366404263E+01
1.35800000000E+07	-1.96216297270E+01	-1.40690321227E+02	3.71272901942E+01	1.54500329939E+02	-4.76048473266E+01	1.56932680622E+02	-3.55398596449E+01	1.35369597347E+01
1.37750000000E+07	-1.97843722414E+01	-1.41719163552E+02	3.71276589732E+01	1.53667149655E+02	-4.76003809110E+01	1.56102547263E+02	-3.61740722797E+01	1.13193307818E+01
1.39700000000E+07	-1.99461312837E+01	-1.42595848751E+02	3.71293519538E+01	1.52822032727E+02	-4.75858175120E+01	1.55295238495E+02	-3.68258874330E+01	8.95986282901E+00
1.41650000000E+07	-2.01188168844E+01	-1.43474929268E+02	3.71285249362E+01	1.52037301136E+02	-4.75912777077E+01	1.54480560929E+02	-3.75170765564E+01	6.15738447716E+00
1.43600000000E+07	-2.02656563489E+01	-1.44396529774E+02	3.71314827900E+01	1.51254401199E+02	-4.75822856465E+01	1.53688882427E+02	-3.81998778956E+01	3.17724100347E+00
1.45550000000E+07	-2.04305819285E+01	-1.45397092691E+02	3.71307954739E+01	1.50416606098E+02	-4.75813016055E+01	1.52896668524E+02	-3.89281547520E+01	-4.34512492124E-01
1.47500000000E+07	-2.05780655893E+01	-1.46231147352E+02	3.71325245520E+01	1.49627130768E+02	-4.75793436106E+01	1.52076062291E+02	-3.96544878770E+01	-4.30304042396E+00
1.49450000000E+07	-2.07400771415E+01	-1.47245273824E+02	3.71330536591E+01	1.48835705749E+02	-4.75672931263E+01	1.51289999362E+02	-4.03851685777E+01	-8.70038320835E+00
1.51400000000E+07	-2.08845433479E+01	-1.48152222856E+02	3.71343116621E+01	1.48069866949E+02	-4.75694859321E+01	1.50507080471E+02	-4.11045143885E+01	-1.37337577242E+01
1.53350000000E+07	-2.10463982176E+01	-1.49045488715E+02	3.71332343207E+01	1.47272514070E+02	-4.75659744578E+01	1.49723282478E+02	-4.18328100443E+01	-1.97355592877E+01
1.55300000000E+07	-2.12120494602E+01	-1.49939927398E+02	3.71304035118E+01	1.46484394491E+02	-4.75645341061E+01	1.48931945669E+02	-4.24806445716E+01	-2.62791573543E+01
1.57250000000E+07	-2.13509592719E+01	-1.50851380035E+02	3.71346539743E+01	1.45704674289E+02	-4.75533289147E+01	1.48204697167E+02	-4.30367110267E+01	-3.33870278032E+01
1.59200000000E+07	-2.15143080533E+01	-1.51744998380E+02	3.71346004068E+01	1.44938348643E+02	-4.75553313440E+01	1.47429532970E+02	-4.35030697684E+01	-4.15636324950E+01
1.61150000000E+07	-2.16592829047E+01	-1.52601588863E+02	3.71351130660E+01	1.44196045361E+02	-4.75494257580E+01	1.46671465169E+02	-4.37847150914E+01	-4.99144217139E+01
1.63100000000E+07	-2.17935271216E+01	-1.53550370741E+02	3.71371638759E+01	1.43398558412E+02	-4.75444140229E+01	1.45903427467E+02	-4.38721936830E+01	-5.86081762302E+01
1.65050000000E+07	-2.19601118847E+01	-1.54336942206E+02	3.71361530087E+01	1.42676987544E+02	-4.75390157068E+01	1.45159466199E+02	-4.37882649122E+01	-6.75810346446E+01
1.67000000000E+07	-2.21066775594E+01	-1.55258252264E+02	3.71326644188E+01	1.41920471976E+02	-4.75360122277E+01	1.44421288466E+02	-4.35614164062E+01	-7.59169419145E+01
1.68950000000E+07	-2.22746387960E+01	-1.56028669330E+02	3.71312366001E+01	1.41188965354E+02	-4.75400197771E+01	1.43707297556E+02	-4.31811124984E+01	-8.33482055078E+01
1.70900000000E+07	-2.23989301857E+01	-1.56914650468E+02	3.71335700775E+01	1.40427338413E+02	-4.75331583086E+01	1.43002772492E+02	-4.27320816989E+01	-9.00581364482E+01
1.72850000000E+07	-2.25485446212E+01	-1.57824044574E+02	3.71325302049E+01	1.39679013127E+02	-4.75296305549E+01	1.42222993091E+02	-4.22213306033E+01	-9.61355658432E+01
1.74800000000E+07	-2.26934524007E+01	-1.58764090801E+02	3.71350494960E+01	1.38937091749E+02	-4.75239235526E+01	1.41506700557E+02	-4.16689266601E+01	-1.01248110024E+02
1.76750000000E+07	-2.28415061274E+01	-1.59619025651E+02	3.71328753792E+01	1.38203758044E+02	-4.75226010209E+01	1.40765328237E+02	-4.11290644529E+01	-1.05837137246E+02
1.78700000000E+07	-2.29868473134E+01	-1.60384012609E+02	3.71321599603E+01	1.37453257726E+02	-4.75179852879E+01	1.40095573844E+02	-4.05863497432E+01	-1.09691856841E+02
1.80650000000E+07	-2.31408711604E+01	-1.61243627734E+02	3.71321221228E+01	1.36707842472E+02	-4.75179638728E+01	1.39332813866E+02	-4.00620926338E+01	-1.13230866085E+02
1.82600000000E+07	-2.33045098125E+01	-1.62162842335E+02	3.71303382318E+01	1.36008328657E+02	-4.75104732629E+01	1.38643141157E+02	-3.95386989203E+01	-1.16568053353E+02
1.84550000000E+07	-2.34314520073E+01	-1.63151175849E+02	3.71274429783E+01	1.35265767323E+02	-4.75046942706E+01	1.37920801691E+02	-3.90635460368E+01	-1.19158690487E+02
1.86500000000E+07	-2.35836456771E+01	-1.63817578173E+02	3.71296446323E+01	1.34574945192E+02	-4.75029116483E+01	1.37170950053E+02	-3.86070291707E+01	-1.21781037223E+02
1.88450000000E+07	-2.37268137695E+01	-1.64689584877E+02	3.71293799734E+01	1.33841271601E+02	-4.75063799549E+01	1.36534590327E+02	-3.81351801764E+01	-1.24001518243E+02
1.90400000000E+07	-2.38749115563E+01	-1.65487475206E+02	3.71309269599E+01	1.33118426543E+02	-4.75008536591E+01	1.35817493107E+02	-3.77149871300E+01	-1.25963762931E+02
1.92350000000E+07	-2.40069829697E+01	-1.66477171815E+02	3.71279475899E+01	1.32402478968E+02	-4.74956307980E+01	1.35106670870E+02	-3.72949786100E+01	-1.28037178836E+02
1.94300000000E+07	-2.41703049148E+01	-1.67205518675E+02	3.71265600688E+01	1.31705308569E+02	-4.74937854000E+01	1.34411808241E+02	-3.69146207684E+01	-1.29685546671E+02
1.96250000000E+07	-2.42871605573E+01	-1.68174785057E+02	3.71238337832E+01	1.30989126552E+02	-4.74902729029E+01	1.33724590882E+02	-3.65239763114E+01	-1.31268971100E+02
1.98200000000E+07	-2.44554406927E+01	-1.68833109236E+02	3.71235065607E+01	1.30267638205E+02	-4.74859419645E+01	1.33022712817E+02	-3.61796730097E+01	-1.32767388381E+02
2.00150000000E+07	-2.46002696631E+01	-1.69776081089E+02	3.71211352828E+01	1.29579269136E+02	-4.74807887258E+01	1.32321572361E+02	-3.58374148023E+01	-1.34205980391E+02
2.02100000000E+07	-2.47424399945E+01	-1.70557692425E+02	3.71225123412E+01	1.28861669958E+02	-4.74808004758E+01	1.31670863798E+02	-3.55080533513E+01	-1.35459009982E+02
2.04050000000E+07	-2.48806634966E+01	-1.71507444434E+02	3.71204362710E+01	1.28153911297E+02	-4.74838643039E+01	1.30959618701E+02	-3.52041882800E+01	-1.36761479947E+02
2.06000000000E+07	-2.50107363449E+01	-1.72400743208E+02	3.71207372802E+01	1.27475863642E+02	-4.74799932407E+01	1.30295260848E+02	-3.49038249613E+01	-1.37890662072E+02
2.07950000000E+07	-2.51670605637E+01	-1.73139601384E+02	3.71170773945E+01	1.26770466435E+02	-4.74708834163E+01	1.29625266080E+02	-3.46120627806E+01	-1.39021622835E+02
2.09900000000E+07	-2.53029662141E+01	-1.74104252824E+02	3.71173486238E+01	1.26048008174E+02	-4.74644168340E+01	1.28907155218E+02	-3.43402373925E+01	-1.40156641938E+02
2.11850000000E+07	-2.54553056588E+01	-1.74684829916E+02	3.71175710755E+01	1.25372634040E+02	-4.74668325144E+01	1.28260136005E+02	-3.40785120953E+01	-1.41140651030E+02
2.13800000000E+07	-2.56065702995E+01	-1.75662418080E+02	3.71143192455E+01	1.24675652381E+02	-4.74584257879E+01	1.27561650868E+02	-3.38319750941E+01	-1.42195695461E+02
2.15750000000E+07	-2.57681963859E+01	-1.76471679440E+02	3.71107602058E+01	1.23991009615E+02	-4.74567316598E+01	1.26909345525E+02	-3.35860990946E+01	-1.43098899799E+02
2.17700000000E+07	-2.58782876150E+01	-1.77267841163E+02	3.71162545525E+01	1.23322488627E+02	-4.74519490312E+01	1.26248314407E+02	-3.33560823945E+01	-1.44015489222E+02
2.19650000000E+07	-2.60413425758E+01	-1.78157568691E+02	3.71108800945E+01	1.22607861241E+02	-4.74541904099E+01	1.25593036833E+02	-3.31376257402E+01	-1.44899521696E+02
2.21600000000E+07	-2.61770068660E+01	-1.79019767050E+02	3.71068942940E+01	1.21927040150E+02	-4.74495920373E+01	1.24914888070E+02	-3.29235546609E+01	-1.45804521532E+02
2.23550000000E+07	-2.63166669928E+01	-1.79840269277E+02	3.71072852001E+01	1.21240417624E+02	-4.74475993525E+01	1.24259239205E+02	-3.27165018418E+01	-1.46637707677E+02
2.25500000000E+07	-2.64818336273E+01	1.79403217405E+02	3.71062506599E+01	1.20548755033E+02	-4.74424217884E+01	1.23602597604E+02	-3.25105949028E+01	-1.47480049900E+02
2.27450000000E+07	-2.65873503040E+01	1.78600620726E+02	3.71070404789E+01	1.19889851602E+02	-4.74389136504E+01	1.22920801555E+02	-3.23159580470E+01	-1.48265808454E+02
2.29400000000E+07	-2.67633220871E+01	1.77885456863E+02	3.71018444227E+01	1.19187164452E+02	-4.74363169430E+01	1.22274817597E+02	-3.21290622806E+01	-1.49016434142E+02
2.31350000000E+07	-2.68885855451E+01	1.76813947025E+02	3.71020474510E+01	1.18503959053E+02	-4.74355664141E+01	1.21618278554E+02	-3.19485068833E+01	-1.49742359298E+02
2.33300000000E+07	-2.70377968326E+01	1.76092555419E+02	3.70977603611E+01	1.17841160815E+02	-4.74277795031E+01	1.20953979442E+02	-3.17731592096E+01	-1.50497482691E+02
2.35250000000E+07	-2.71739279640E+01	1.75216210434E+02	3.71006847125E+01	1.17183434619E+02	-4.74315604607E+01	1.20274363548E+02	-3.16043858201E+01	-1.51193756405E+02
2.37200000000E+07	-2.73352163205E+01	1.74267245991E+02	3.70966955948E+01	1.16505773224E+02	-4.74273191025E+01	1.19635069060E+02	-3.14374190154E+01	-1.51906647990E+02
2.39150000000E+07	-2.74693609630E+01	1.73521357559E+02	3.70945279434E+01	1.15817955032E+02	-4.74238036229E+01	1.18994879460E+02	-3.12740373485E+01	-1.52607967326E+02
2.41100000000E+07	-2.76493024237E+01	1.72831326027E+02	3.70922480431E+01	1.15135834188E+02	-4.74201379724E+01	1.18332701559E+02	-3.11151855726E+01	-1.53331363600E+02
2.43050000000E+07	-2.77656668375E+01	1.71844839242E+02	3.70863788619E+01	1.14490591719E+02	-4.74159980351E+01	1.17667257399E+02	-3.09622793098E+01	-1.53962728855E+02
2.45000000000E+07	-2.79300590734E+01	1.71183538102E+02	3.70880999567E+01	1.13796464457E+02	-4.74159082236E+01	1.17009832150E+02	-3.08127349431E+01	-1.54649165364E+02
2.46950000000E+07	-2.80574547670E+01	1.70190746362E+02	3.70868286454E+01	1.13122035408E+02	-4.74107366264E+01	1.16407809807E+02	-3.06675758468E+01	-1.55277516179E+02
2.48900000000E+07	-2.82180505526E+01	1.69472724203E+02	3.70826772709E+01	1.12501273842E+02	-4.74062857836E+01	1.15763501672E+02	-3.05292717298E+01	-1.55962651697E+02
2.50850000000E+07	-2.83889685120E+01	1.68882614839E+02	3.70842045172E+01	1.11829486623E+02	-4.74064961453E+01	1.15115116809E+02	-3.03882876716E+01	-1.56574292054E+02
2.52800000000E+07	-2.85092043049E+01	1.67875746004E+02	3.70827363477E+01	1.11160463133E+02	-4.74027029523E+01	1.14466570972E+02	-3.02527284047E+01	-1.57232261688E+02
2.54750000000E+07	-2.86799251774E+01	1.66997786734E+02	3.70800873230E+01	1.10491016568E+02	-4.73979569732E+01	1.13833868651E+02	-3.01237182961E+01	-1.57792785508E+02
2.56700000000E+07	-2.88466498708E+01	1.66145406334E+02	3.70769871801E+01	1.09807144273E+02	-4.73916468188E+01	1.13205844114E+02	-2.99924077775E+01	-1.58488176589E+02
2.58650000000E+07	-2.90221346504E+01	1.65199311678E+02	3.70789786422E+01	1.09160548431E+02	-4.73891725243E+01	1.12557618635E+02	-2.98696918336E+01	-1.59108586044E+02
2.60600000000E+07	-2.91516618635E+01	1.64529769698E+02	3.70698891851E+01	1.08514831861E+02	-4.73941284791E+01	1.11922894090E+02	-2.97376295774E+01	-1.59691060742E+02
2.62550000000E+07	-2.93244845224E+01	1.63697439421E+02	3.70703616772E+01	1.07861408508E+02	-4.73852076776E+01	1.11296988565E+02	-2.96263908200E+01	-1.60354622183E+02
2.64500000000E+07	-2.94735606556E+01	1.62992601266E+02	3.70704587980E+01	1.07181780482E+02	-4.73812449282E+01	1.10693463543E+02	-2.95080432770E+01	-1.60938640467E+02
2.66450000000E+07	-2.96291539687E+01	1.62113455887E+02	3.70675400387E+01	1.06545671509E+02	-4.73784428248E+01	1.10022187438E+02	-2.93916827452E+01	-1.61516496618E+02
2.68400000000E+07	-2.97969858319E+01	1.61279567578E+02	3.70643851752E+01	1.05872137626E+02	-4.73756483506E+01	1.09403822239E+02	-2.92826183605E+01	-1.62171029548E+02
2.70350000000E+07	-2.99458783029E+01	1.60447826019E+02	3.70599201992E+01	1.05227300928E+02	-4.73814971690E+01	1.08757716208E+02	-2.91767966189E+01	-1.62719140249E+02
2.72300000000E+07	-3.01445311941E+01	1.59572884545E+02	3.70578188175E+01	1.04558793886E+02	-4.73715466626E+01	1.08114373337E+02	-2.90701990150E+01	-1.63342853410E+02
2.74250000000E+07	-3.02958935618E+01	1.58674340909E+02	3.70609600851E+01	1.03915299647E+02	-4.73716952324E+01	1.07501950682E+02	-2.89678182420E+01	-1.63945651711E+02
2.76200000000E+07	-3.04543649084E+01	1.57930969847E+02	3.70550572229E+01	1.03240462002E+02	-4.73611805664E+01	1.06854938200E+02	-2.88661904804E+01	-1.64537979956E+02
2.78150000000E+07	-3.06107357151E+01	1.56824435389E+02	3.70545475021E+01	1.02595444157E+02	-4.73623602623E+01	1.06247717038E+02	-2.87650982984E+01	-1.65108606698E+02
