# Hz S DB R 50
! CMT, M5045, 22160017, 22.4.3/2
! Date: 2/27/2023 00:43:28
! Data: Format (Calibration Info)
! Freq	S11:dB/Ang(F2)	S21:dB/Ang(F2)	S12:dB/Ang(F2)	S22:dB/Ang(F2)
5.00000000000E+06	-9.72815932388E+00	-7.63363110111E+01	3.65144788061E+01	3.61800162194E+01	-4.86592478081E+01	3.89667383339E+01	-1.49899893105E+01	6.89722332257E+01
5.19500000000E+06	-1.00845474433E+01	-7.73838590153E+01	3.65971878658E+01	3.40229743268E+01	-4.86311098398E+01	3.70053929629E+01	-1.56537772556E+01	6.80801313350E+01
5.39000000000E+06	-1.04358515915E+01	-7.83205011723E+01	3.66673304038E+01	3.19920490051E+01	-4.85300440078E+01	3.49315822315E+01	-1.62902436724E+01	6.73468038718E+01
5.58500000000E+06	-1.07708054494E+01	-7.92157235336E+01	3.67325517159E+01	3.00707376221E+01	-4.84057608522E+01	3.29917403847E+01	-1.69122976990E+01	6.68015826468E+01
5.78000000000E+06	-1.11017273898E+01	-8.00742899208E+01	3.67907509192E+01	2.82281496511E+01	-4.85001306283E+01	3.15220163271E+01	-1.75354411845E+01	6.62963549345E+01
5.97500000000E+06	-1.14274053771E+01	-8.08374886268E+01	3.68387372813E+01	2.64960577218E+01	-4.83213795983E+01	2.94364169206E+01	-1.81427529553E+01	6.59767182851E+01
6.17000000000E+06	-1.17375596127E+01	-8.15793555919E+01	3.68872249642E+01	2.48184106283E+01	-4.82030053929E+01	2.81479289019E+01	-1.87560537549E+01	6.58077101399E+01
6.36500000000E+06	-1.20506828606E+01	-8.22675250066E+01	3.69253479332E+01	2.32252844047E+01	-4.81491833035E+01	2.63193325061E+01	-1.93572145177E+01	6.57631762359E+01
6.56000000000E+06	-1.23525035122E+01	-8.29850623263E+01	3.69634274658E+01	2.16929245425E+01	-4.81894682443E+01	2.47851951553E+01	-1.99291617305E+01	6.56427041821E+01
6.75500000000E+06	-1.26503314369E+01	-8.36164680018E+01	3.69984915043E+01	2.02387892883E+01	-4.81509926892E+01	2.28896560755E+01	-2.04947704080E+01	6.57257970150E+01
6.95000000000E+06	-1.29425039998E+01	-8.42453139165E+01	3.70247605494E+01	1.88302325482E+01	-4.81487025050E+01	2.15599605242E+01	-2.10396954712E+01	6.59583743666E+01
7.14500000000E+06	-1.32237288771E+01	-8.48413635468E+01	3.70553265949E+01	1.74739178477E+01	-4.80512314865E+01	2.00894917849E+01	-2.16380500934E+01	6.63220213740E+01
7.34000000000E+06	-1.35079322346E+01	-8.53637564926E+01	3.70820440409E+01	1.61867081810E+01	-4.79660731691E+01	1.91101835182E+01	-2.21790104786E+01	6.66526390309E+01
7.53500000000E+06	-1.37862702863E+01	-8.59228834905E+01	3.71030698959E+01	1.49021703040E+01	-4.79428693371E+01	1.77356925103E+01	-2.27270245691E+01	6.70565774384E+01
7.73000000000E+06	-1.40636495469E+01	-8.63828480403E+01	3.71260694613E+01	1.37081110628E+01	-4.79280805306E+01	1.68780684539E+01	-2.32425551914E+01	6.77016381251E+01
7.92500000000E+06	-1.43350118063E+01	-8.69940338082E+01	3.71426355158E+01	1.24910082551E+01	-4.80137341395E+01	1.57119467127E+01	-2.37949330380E+01	6.80983126382E+01
8.12000000000E+06	-1.46044727353E+01	-8.74145625088E+01	3.71609191008E+01	1.13658802938E+01	-4.79110652819E+01	1.44371822581E+01	-2.43381201347E+01	6.89539465132E+01
8.31500000000E+06	-1.48661484133E+01	-8.78904347171E+01	3.71765329714E+01	1.02735223676E+01	-4.78917621876E+01	1.31162203583E+01	-2.48282928848E+01	6.98824696648E+01
8.51000000000E+06	-1.51306767418E+01	-8.82988628643E+01	3.71896384377E+01	9.20430506224E+00	-4.79260942275E+01	1.18606826609E+01	-2.53452898715E+01	7.10501624771E+01
8.70500000000E+06	-1.53903675480E+01	-8.87213744615E+01	3.72077692199E+01	8.16110569796E+00	-4.78899127562E+01	1.08825046324E+01	-2.58459072047E+01	7.20209493355E+01
8.90000000000E+06	-1.56498690347E+01	-8.91620621797E+01	3.72200295221E+01	7.13494343507E+00	-4.79207022692E+01	1.00521097102E+01	-2.63651043067E+01	7.33090304434E+01
9.09500000000E+06	-1.59135895515E+01	-8.95773964034E+01	3.72272868422E+01	6.13267992450E+00	-4.78407784283E+01	9.03911303231E+00	-2.68320095684E+01	7.40847856437E+01
9.29000000000E+06	-1.61586069422E+01	-8.99595533887E+01	3.72387199451E+01	5.16635930805E+00	-4.77856700223E+01	7.95138890696E+00	-2.73345323084E+01	7.56259177306E+01
9.48500000000E+06	-1.64110135586E+01	-9.03326953052E+01	3.72457552961E+01	4.23817413230E+00	-4.77751717663E+01	7.48074484180E+00	-2.77797921157E+01	7.72606774453E+01
9.68000000000E+06	-1.66717131338E+01	-9.06855908268E+01	3.72571710065E+01	3.30930378305E+00	-4.77424528379E+01	6.23986456695E+00	-2.82315173015E+01	7.87475219976E+01
9.87500000000E+06	-1.69264215100E+01	-9.11143468553E+01	3.72639292838E+01	2.38381361884E+00	-4.78011835229E+01	4.86300651465E+00	-2.86512826184E+01	8.03967416380E+01
1.00700000000E+07	-1.71754224868E+01	-9.14268111634E+01	3.72695422439E+01	1.51332270348E+00	-4.77284406439E+01	4.20193820975E+00	-2.90876747417E+01	8.18340491624E+01
1.02650000000E+07	-1.74182568284E+01	-9.17263510872E+01	3.72816063490E+01	6.40865155387E-01	-4.77705642504E+01	3.70089086657E+00	-2.94770215174E+01	8.39443178774E+01
1.04600000000E+07	-1.76652290170E+01	-9.20241056586E+01	3.72858152209E+01	-2.13622143283E-01	-4.76824266691E+01	2.56741908626E+00	-2.98274702698E+01	8.58541398323E+01
1.06550000000E+07	-1.79081797249E+01	-9.23496517164E+01	3.72922755317E+01	-1.03722270036E+00	-4.76769196147E+01	1.94347600101E+00	-3.02314072110E+01	8.78720432751E+01
1.08500000000E+07	-1.81453323134E+01	-9.26987398999E+01	3.72999559600E+01	-1.89742884901E+00	-4.76638788545E+01	1.46799810308E+00	-3.05798480936E+01	9.01747047446E+01
1.10450000000E+07	-1.83888705794E+01	-9.30244428881E+01	3.73044703457E+01	-2.69396112382E+00	-4.76623890420E+01	2.01951303690E-02	-3.08726626629E+01	9.17810888696E+01
1.12400000000E+07	-1.86353565680E+01	-9.33253700057E+01	3.73113770059E+01	-3.51290408545E+00	-4.76399650192E+01	-3.97014747932E-01	-3.11888305348E+01	9.40709513024E+01
1.14350000000E+07	-1.88727857493E+01	-9.36507689895E+01	3.73164897296E+01	-4.30605286781E+00	-4.76472485927E+01	-1.20040508887E+00	-3.14197152584E+01	9.65688033959E+01
1.16300000000E+07	-1.91097552897E+01	-9.39242749267E+01	3.73270718915E+01	-5.09031463801E+00	-4.76949879236E+01	-2.56631264265E+00	-3.16478374085E+01	9.83227234369E+01
1.18250000000E+07	-1.93553083093E+01	-9.41994737997E+01	3.73297607424E+01	-5.89149961354E+00	-4.76353308882E+01	-3.05775487443E+00	-3.19600012740E+01	1.00078069526E+02
1.20200000000E+07	-1.95938913663E+01	-9.44300659635E+01	3.73309056814E+01	-6.66453451063E+00	-4.75791942588E+01	-3.38732817168E+00	-3.21318059190E+01	1.02409010717E+02
1.22150000000E+07	-1.98483218029E+01	-9.47125815190E+01	3.73323489279E+01	-7.43661141417E+00	-4.76155702986E+01	-4.54966872519E+00	-3.25025528391E+01	1.04928741799E+02
1.24100000000E+07	-2.00898046978E+01	-9.49798387175E+01	3.73335469173E+01	-8.16815713206E+00	-4.76146664416E+01	-5.62160012386E+00	-3.27920830780E+01	1.07358268953E+02
1.26050000000E+07	-2.03477941543E+01	-9.51204543034E+01	3.73369352968E+01	-8.88906434253E+00	-4.76477270267E+01	-6.18636526316E+00	-3.28931534805E+01	1.08600717200E+02
1.28000000000E+07	-2.05847206806E+01	-9.53243940601E+01	3.73354677215E+01	-9.58895254370E+00	-4.76211271128E+01	-6.45644092048E+00	-3.31786073397E+01	1.11541726014E+02
1.29950000000E+07	-2.08277669261E+01	-9.54394811872E+01	3.73421024801E+01	-1.02445401159E+01	-4.75893835857E+01	-7.49181036741E+00	-3.32810263599E+01	1.14187450517E+02
1.31900000000E+07	-2.10726190591E+01	-9.56228965916E+01	3.73389917826E+01	-1.09258943816E+01	-4.75957854360E+01	-8.33290442762E+00	-3.34067603256E+01	1.16408409749E+02
1.33850000000E+07	-2.13305743583E+01	-9.57475271164E+01	3.73407508058E+01	-1.16127122213E+01	-4.76165440602E+01	-8.63420147659E+00	-3.35441503262E+01	1.18336863373E+02
1.35800000000E+07	-2.15830955948E+01	-9.58993890203E+01	3.73453940621E+01	-1.22908321007E+01	-4.76549595065E+01	-1.01299967342E+01	-3.37116367435E+01	1.20761530918E+02
1.37750000000E+07	-2.18330097960E+01	-9.59792155406E+01	3.73509250443E+01	-1.29530344039E+01	-4.76207150180E+01	-9.62280539821E+00	-3.38089629467E+01	1.23792891113E+02
1.39700000000E+07	-2.20867609952E+01	-9.59962588760E+01	3.73497388137E+01	-1.35891613409E+01	-4.75572375809E+01	-1.09023097786E+01	-3.38148769455E+01	1.25329179200E+02
1.41650000000E+07	-2.23235129246E+01	-9.61148187490E+01	3.73530585766E+01	-1.42390766613E+01	-4.75378857712E+01	-1.16923963476E+01	-3.38772162285E+01	1.27317951343E+02
1.43600000000E+07	-2.25957989793E+01	-9.60909773983E+01	3.73503866551E+01	-1.48871327524E+01	-4.75345077348E+01	-1.18106067715E+01	-3.40300908119E+01	1.28802349852E+02
1.45550000000E+07	-2.28670698905E+01	-9.61307719719E+01	3.73516546044E+01	-1.55429730617E+01	-4.75649477787E+01	-1.28087122979E+01	-3.39654514818E+01	1.31644710973E+02
1.47500000000E+07	-2.31163671423E+01	-9.61949947179E+01	3.73559617752E+01	-1.61728316082E+01	-4.75959309551E+01	-1.37096359518E+01	-3.40408368106E+01	1.33231220121E+02
1.49450000000E+07	-2.33827642992E+01	-9.61997580875E+01	3.73551038453E+01	-1.67845857574E+01	-4.75617425682E+01	-1.41172320019E+01	-3.40938809449E+01	1.35468443127E+02
1.51400000000E+07	-2.36601794733E+01	-9.60621617196E+01	3.73558630111E+01	-1.74134123149E+01	-4.75931111667E+01	-1.48698407936E+01	-3.40657756858E+01	1.36594438099E+02
1.53350000000E+07	-2.39215793385E+01	-9.59730810137E+01	3.73580380818E+01	-1.80421391860E+01	-4.75827904226E+01	-1.53239401772E+01	-3.40588592561E+01	1.38021282554E+02
1.55300000000E+07	-2.41911253051E+01	-9.59388997542E+01	3.73567928347E+01	-1.86452943829E+01	-4.75731307391E+01	-1.60220220187E+01	-3.41953916151E+01	1.40106538536E+02
1.57250000000E+07	-2.44570001063E+01	-9.58282217708E+01	3.73562475320E+01	-1.92513974337E+01	-4.75603359786E+01	-1.66002234536E+01	-3.41478788803E+01	1.41975666417E+02
1.59200000000E+07	-2.47392258728E+01	-9.56047782970E+01	3.73553031656E+01	-1.98797982888E+01	-4.75667915350E+01	-1.70973386833E+01	-3.39968017628E+01	1.43574098476E+02
1.61150000000E+07	-2.50196247066E+01	-9.54547505431E+01	3.73575848526E+01	-2.04639925132E+01	-4.75530157008E+01	-1.80371198717E+01	-3.40742891931E+01	1.44124893419E+02
1.63100000000E+07	-2.52857263032E+01	-9.52085418762E+01	3.73585508375E+01	-2.10821640481E+01	-4.75664838690E+01	-1.77595987781E+01	-3.41769671263E+01	1.46105833174E+02
1.65050000000E+07	-2.55678574459E+01	-9.50005769002E+01	3.73589770779E+01	-2.16558787094E+01	-4.75460723019E+01	-1.86978119073E+01	-3.41208018261E+01	1.47405956587E+02
1.67000000000E+07	-2.58564519938E+01	-9.46331337033E+01	3.73564647025E+01	-2.22446083727E+01	-4.75482645126E+01	-1.93359729298E+01	-3.41000207696E+01	1.49017166179E+02
1.68950000000E+07	-2.61628062060E+01	-9.43867785166E+01	3.73575674809E+01	-2.28186431250E+01	-4.74725567808E+01	-1.98190455905E+01	-3.40677402120E+01	1.50781412753E+02
1.70900000000E+07	-2.64556786061E+01	-9.41029069467E+01	3.73575230717E+01	-2.34052405400E+01	-4.75565590554E+01	-2.08072893631E+01	-3.39671152650E+01	1.51729946281E+02
1.72850000000E+07	-2.67473867635E+01	-9.36656366335E+01	3.73581181304E+01	-2.39793187561E+01	-4.75196354906E+01	-2.11153026811E+01	-3.39785370368E+01	1.53306786296E+02
1.74800000000E+07	-2.70406986508E+01	-9.31445038616E+01	3.73573844134E+01	-2.45565166657E+01	-4.75763721149E+01	-2.17597880591E+01	-3.39546963602E+01	1.53954653512E+02
1.76750000000E+07	-2.73455388965E+01	-9.26976593450E+01	3.73516392150E+01	-2.51186831965E+01	-4.74890742379E+01	-2.21065805418E+01	-3.38867993633E+01	1.56056082213E+02
1.78700000000E+07	-2.76715650759E+01	-9.21147073778E+01	3.73538452755E+01	-2.56855191752E+01	-4.75170171141E+01	-2.26313048920E+01	-3.39922295489E+01	1.57123730689E+02
1.80650000000E+07	-2.79779453378E+01	-9.15084644454E+01	3.73529327023E+01	-2.62583743354E+01	-4.75242446225E+01	-2.35770067920E+01	-3.39476726876E+01	1.57632453565E+02
1.82600000000E+07	-2.83029451760E+01	-9.07973364551E+01	3.73560651684E+01	-2.68173954228E+01	-4.75011092920E+01	-2.42737964667E+01	-3.38792252954E+01	1.58586816613E+02
1.84550000000E+07	-2.86134915182E+01	-9.00367592659E+01	3.73537467204E+01	-2.73932949546E+01	-4.75163972018E+01	-2.42343819203E+01	-3.37689272437E+01	1.59687072725E+02
1.86500000000E+07	-2.89345249625E+01	-8.93221024717E+01	3.73529810850E+01	-2.79406301257E+01	-4.74392113393E+01	-2.48012970216E+01	-3.37494433130E+01	1.60059402372E+02
1.88450000000E+07	-2.92417560170E+01	-8.83662273989E+01	3.73525579550E+01	-2.84812046958E+01	-4.75188161206E+01	-2.54585669229E+01	-3.38545034673E+01	1.61503076754E+02
1.90400000000E+07	-2.95926424121E+01	-8.73519635643E+01	3.73485791200E+01	-2.90390383281E+01	-4.74795259230E+01	-2.60844768203E+01	-3.37949229404E+01	1.61678439291E+02
1.92350000000E+07	-2.99155905989E+01	-8.62236646127E+01	3.73506851209E+01	-2.95748620158E+01	-4.74831913725E+01	-2.65892210161E+01	-3.36737530128E+01	1.63383009062E+02
1.94300000000E+07	-3.02248462874E+01	-8.50963966456E+01	3.73478723091E+01	-3.01115038546E+01	-4.74498525932E+01	-2.70520830695E+01	-3.36595287131E+01	1.63867501165E+02
1.96250000000E+07	-3.06072360126E+01	-8.38512650632E+01	3.73471727331E+01	-3.06560832919E+01	-4.74970108134E+01	-2.71844290056E+01	-3.36153496463E+01	1.65291598337E+02
1.98200000000E+07	-3.09425180628E+01	-8.24024754469E+01	3.73431203063E+01	-3.12085618739E+01	-4.74868860961E+01	-2.83151145938E+01	-3.36788320315E+01	1.65610297843E+02
2.00150000000E+07	-3.12871798720E+01	-8.08155132055E+01	3.73443094221E+01	-3.17157304192E+01	-4.74883467647E+01	-2.84071197546E+01	-3.35842951350E+01	1.66667136137E+02
2.02100000000E+07	-3.15713410852E+01	-7.92382513406E+01	3.73400255788E+01	-3.22697962944E+01	-4.74993515932E+01	-2.93230566765E+01	-3.35919002521E+01	1.67075114699E+02
2.04050000000E+07	-3.19312430845E+01	-7.74557208528E+01	3.73409303553E+01	-3.28091823050E+01	-4.74395829623E+01	-2.97700614043E+01	-3.35558020655E+01	1.67646055644E+02
2.06000000000E+07	-3.22071833301E+01	-7.56392134304E+01	3.73386590501E+01	-3.33131382473E+01	-4.74672233691E+01	-3.02334476892E+01	-3.35394001492E+01	1.69017746956E+02
2.07950000000E+07	-3.25632955305E+01	-7.36064917382E+01	3.73399936276E+01	-3.38720252725E+01	-4.74966263688E+01	-3.08180879118E+01	-3.36323412505E+01	1.69482216531E+02
2.09900000000E+07	-3.28021664339E+01	-7.13119742109E+01	3.73331828764E+01	-3.43835611571E+01	-4.74403403438E+01	-3.13717045682E+01	-3.35404147468E+01	1.70875349631E+02
2.11850000000E+07	-3.31087560860E+01	-6.88402432679E+01	3.73351580675E+01	-3.49075808386E+01	-4.75080872577E+01	-3.19540011548E+01	-3.35012988734E+01	1.71210597453E+02
2.13800000000E+07	-3.33977346794E+01	-6.63245216272E+01	3.73349957093E+01	-3.54244937498E+01	-4.74894730561E+01	-3.26171099893E+01	-3.35501875185E+01	1.71598018636E+02
2.15750000000E+07	-3.36870928975E+01	-6.35561869898E+01	3.73288362520E+01	-3.59558967656E+01	-4.74327960979E+01	-3.23231540502E+01	-3.34657002753E+01	1.72298950321E+02
2.17700000000E+07	-3.38852616762E+01	-6.07388938792E+01	3.73292579407E+01	-3.64754659406E+01	-4.74882403125E+01	-3.29928897429E+01	-3.34938479280E+01	1.73265240961E+02
2.19650000000E+07	-3.40879117796E+01	-5.80250548952E+01	3.73269303384E+01	-3.69784537799E+01	-4.74846747511E+01	-3.38752019111E+01	-3.34419746758E+01	1.74142285656E+02
2.21600000000E+07	-3.42911852047E+01	-5.50538862572E+01	3.73231745114E+01	-3.74918426411E+01	-4.73978783274E+01	-3.42058961873E+01	-3.34361363518E+01	1.74751264035E+02
2.23550000000E+07	-3.44401008921E+01	-5.18524959887E+01	3.73211021471E+01	-3.80339578991E+01	-4.74535571259E+01	-3.48294107787E+01	-3.33964518717E+01	1.75615824964E+02
2.25500000000E+07	-3.45592738670E+01	-4.87070871538E+01	3.73222533648E+01	-3.85215525764E+01	-4.74255805627E+01	-3.49490487917E+01	-3.33700647310E+01	1.75957725639E+02
2.27450000000E+07	-3.46010973521E+01	-4.54434132681E+01	3.73191176924E+01	-3.90474694175E+01	-4.74657719314E+01	-3.59649529604E+01	-3.34018230707E+01	1.76372277733E+02
2.29400000000E+07	-3.46915593847E+01	-4.24544662610E+01	3.73211835994E+01	-3.95416287443E+01	-4.74668546644E+01	-3.57314238144E+01	-3.33926751323E+01	1.78088070545E+02
2.31350000000E+07	-3.47222352023E+01	-3.89877157907E+01	3.73145197528E+01	-4.00502676859E+01	-4.74075869055E+01	-3.63838792079E+01	-3.33037245258E+01	1.78174108576E+02
2.33300000000E+07	-3.47027119086E+01	-3.59318366398E+01	3.73112668313E+01	-4.05345839045E+01	-4.74767792322E+01	-3.73143592724E+01	-3.34642323091E+01	1.78611875434E+02
2.35250000000E+07	-3.46099795980E+01	-3.26579408045E+01	3.73093624947E+01	-4.10574486435E+01	-4.74284268072E+01	-3.77677059183E+01	-3.33807251148E+01	1.79522784757E+02
2.37200000000E+07	-3.45016617814E+01	-2.96563638350E+01	3.73075323897E+01	-4.15422595746E+01	-4.74091397590E+01	-3.84043280678E+01	-3.33857555790E+01	1.79754545917E+02
2.39150000000E+07	-3.43444025272E+01	-2.69042014410E+01	3.73084782394E+01	-4.20723328246E+01	-4.74693358700E+01	-3.86401496722E+01	-3.33477258557E+01	-1.79285993564E+02
2.41100000000E+07	-3.42526237065E+01	-2.39943618651E+01	3.73036988006E+01	-4.25694367323E+01	-4.75356526247E+01	-3.90167402434E+01	-3.33508343560E+01	-1.78041160165E+02
2.43050000000E+07	-3.41623560915E+01	-2.13559641832E+01	3.73015077820E+01	-4.30307034360E+01	-4.74852124755E+01	-3.95241370627E+01	-3.32792289986E+01	-1.77727630787E+02
2.45000000000E+07	-3.39141551057E+01	-1.89394312686E+01	3.72970998815E+01	-4.35348598104E+01	-4.74519102911E+01	-4.05179679429E+01	-3.33751990146E+01	-1.77529163824E+02
2.46950000000E+07	-3.37703849277E+01	-1.64816098763E+01	3.72952508012E+01	-4.40480930276E+01	-4.74272459001E+01	-4.03690976130E+01	-3.32376890296E+01	-1.76587173132E+02
2.48900000000E+07	-3.35481570988E+01	-1.43827246772E+01	3.72927342388E+01	-4.45251499399E+01	-4.74069885704E+01	-4.09152477195E+01	-3.32552963882E+01	-1.76461797250E+02
2.50850000000E+07	-3.33101288507E+01	-1.21086846629E+01	3.72928946509E+01	-4.50250349623E+01	-4.73532657493E+01	-4.13414002082E+01	-3.32424860919E+01	-1.75498650443E+02
2.52800000000E+07	-3.30986522684E+01	-1.06482228831E+01	3.72883525476E+01	-4.55148449761E+01	-4.74168040169E+01	-4.17448637283E+01	-3.33220592379E+01	-1.75037830439E+02
2.54750000000E+07	-3.28958587038E+01	-8.73103522640E+00	3.72858845317E+01	-4.59990441520E+01	-4.74111498243E+01	-4.23149924070E+01	-3.32456451352E+01	-1.74208121657E+02
2.56700000000E+07	-3.26449918573E+01	-7.20052488603E+00	3.72844369011E+01	-4.65123653730E+01	-4.73863663971E+01	-4.27330498421E+01	-3.31613658892E+01	-1.73570244632E+02
2.58650000000E+07	-3.24256190351E+01	-5.46795151904E+00	3.72841774435E+01	-4.69800985939E+01	-4.74088959242E+01	-4.28851067072E+01	-3.31731318111E+01	-1.72769932943E+02
2.60600000000E+07	-3.22033005338E+01	-4.00114998944E+00	3.72797799208E+01	-4.74801459308E+01	-4.73867370909E+01	-4.37959751338E+01	-3.31694406725E+01	-1.72789726911E+02
2.62550000000E+07	-3.19982322797E+01	-3.03749808202E+00	3.72809739782E+01	-4.79388901300E+01	-4.74512755739E+01	-4.39646984591E+01	-3.31299277866E+01	-1.71514490807E+02
2.64500000000E+07	-3.17023514003E+01	-1.86140118824E+00	3.72797001752E+01	-4.84362826289E+01	-4.74272074412E+01	-4.48200597254E+01	-3.30946053542E+01	-1.71444937269E+02
2.66450000000E+07	-3.15177934783E+01	-6.59964907106E-01	3.72778083633E+01	-4.89237065025E+01	-4.74293135967E+01	-4.49845651468E+01	-3.30512928287E+01	-1.70170385567E+02
2.68400000000E+07	-3.12638080488E+01	2.65831754808E-01	3.72681121398E+01	-4.94083838601E+01	-4.74183183348E+01	-4.54795518276E+01	-3.30755509747E+01	-1.70093300558E+02
2.70350000000E+07	-3.10763583985E+01	1.09220014071E+00	3.72676533205E+01	-4.98711575934E+01	-4.73885474449E+01	-4.62072387139E+01	-3.31271349098E+01	-1.69330915118E+02
2.72300000000E+07	-3.08729965574E+01	2.08490401306E+00	3.72686310408E+01	-5.03728139256E+01	-4.73680398159E+01	-4.63743578240E+01	-3.30701412729E+01	-1.69379058035E+02
2.74250000000E+07	-3.06433144004E+01	2.58868268797E+00	3.72638099161E+01	-5.08334048059E+01	-4.74559474607E+01	-4.71850381863E+01	-3.30634936368E+01	-1.68143314125E+02
2.76200000000E+07	-3.04088387833E+01	3.46604054303E+00	3.72623746422E+01	-5.13092386650E+01	-4.73582574551E+01	-4.73608507516E+01	-3.30415835342E+01	-1.67822537488E+02
