# Hz S DB R 50
! CMT, M5045, 22160017, 22.4.3/2
! Date: 2/27/2023 00:51:24
! Data: Format (Calibration Info)
! Freq	S11:dB/Ang(F2)	S21:dB/Ang(F2)	S12:dB/Ang(F2)	S22:dB/Ang(F2)
5.00000000000E+06	-9.71366348022E+00	-7.70920287284E+01	3.63612560756E+01	3.73651844086E+01	-4.85250165354E+01	3.99873257423E+01	-1.42865899223E+01	7.35229241647E+01
5.19500000000E+06	-1.00743257624E+01	-7.81186916823E+01	3.64439992030E+01	3.51647453130E+01	-4.86306960503E+01	3.76782187100E+01	-1.49173901576E+01	7.27995181917E+01
5.39000000000E+06	-1.04244283117E+01	-7.90875637066E+01	3.65204007675E+01	3.30835347914E+01	-4.83923042035E+01	3.57644122652E+01	-1.55414412988E+01	7.21028394161E+01
5.58500000000E+06	-1.07643087779E+01	-8.00163447549E+01	3.65841876520E+01	3.10957818242E+01	-4.83163483602E+01	3.35850688864E+01	-1.61590661333E+01	7.16380558756E+01
5.78000000000E+06	-1.11002203971E+01	-8.08303692460E+01	3.66442812650E+01	2.92383097221E+01	-4.83013319079E+01	3.22740055717E+01	-1.67572127403E+01	7.12848612926E+01
5.97500000000E+06	-1.14252935376E+01	-8.16054319531E+01	3.66963480867E+01	2.74630142745E+01	-4.82539300150E+01	3.02963744669E+01	-1.73546541390E+01	7.09224645412E+01
6.17000000000E+06	-1.17386020128E+01	-8.23496907283E+01	3.67457059353E+01	2.57505515893E+01	-4.81512806447E+01	2.87020541880E+01	-1.79467855085E+01	7.08363317162E+01
6.36500000000E+06	-1.20451474102E+01	-8.30591796871E+01	3.67882374626E+01	2.41390443205E+01	-4.81458011927E+01	2.68955052260E+01	-1.85059796126E+01	7.07349491495E+01
6.56000000000E+06	-1.23485908278E+01	-8.36985585457E+01	3.68275906630E+01	2.25806294954E+01	-4.80871432353E+01	2.50986115663E+01	-1.90614494343E+01	7.08418516574E+01
6.75500000000E+06	-1.26473179090E+01	-8.43099045041E+01	3.68613614283E+01	2.10788150666E+01	-4.80323382175E+01	2.39554525882E+01	-1.96086637521E+01	7.12241990199E+01
6.95000000000E+06	-1.29408394517E+01	-8.49492260657E+01	3.68901034727E+01	1.96513058216E+01	-4.79463950878E+01	2.26843178262E+01	-2.01825190011E+01	7.13253427482E+01
7.14500000000E+06	-1.32237711966E+01	-8.55052293219E+01	3.69176026229E+01	1.82850499303E+01	-4.80099067371E+01	2.08989813818E+01	-2.07105089749E+01	7.16039029647E+01
7.34000000000E+06	-1.34991017161E+01	-8.60490284501E+01	3.69469583784E+01	1.69436221268E+01	-4.79684839979E+01	1.97495724141E+01	-2.12219892369E+01	7.20319087310E+01
7.53500000000E+06	-1.37774063107E+01	-8.66252129592E+01	3.69703644461E+01	1.56467929162E+01	-4.79570993663E+01	1.82672399731E+01	-2.17900051506E+01	7.24199734766E+01
7.73000000000E+06	-1.40521807906E+01	-8.70709367617E+01	3.69883517502E+01	1.44347164174E+01	-4.79168699982E+01	1.76833337531E+01	-2.22714377874E+01	7.32061937117E+01
7.92500000000E+06	-1.43233701799E+01	-8.75852366705E+01	3.70063762280E+01	1.32225952667E+01	-4.78947537176E+01	1.60998472613E+01	-2.28068174710E+01	7.41213358369E+01
8.12000000000E+06	-1.45893616924E+01	-8.80462682006E+01	3.70243955476E+01	1.20815942440E+01	-4.78891842467E+01	1.51359573901E+01	-2.32544881620E+01	7.47601473772E+01
8.31500000000E+06	-1.48373837325E+01	-8.84771934923E+01	3.70456839270E+01	1.09509231329E+01	-4.77642892727E+01	1.38520733862E+01	-2.38071575094E+01	7.54537189304E+01
8.51000000000E+06	-1.51056681346E+01	-8.89020717747E+01	3.70591816908E+01	9.85928717211E+00	-4.78029426173E+01	1.27999469722E+01	-2.42173070061E+01	7.68471564967E+01
8.70500000000E+06	-1.53575647453E+01	-8.93220591960E+01	3.70721638234E+01	8.78529405884E+00	-4.78162442950E+01	1.17733489723E+01	-2.47180193179E+01	7.77536305230E+01
8.90000000000E+06	-1.56108081892E+01	-8.97144576009E+01	3.70851282450E+01	7.74493414728E+00	-4.77316841254E+01	1.07241276287E+01	-2.52193778891E+01	7.90744331543E+01
9.09500000000E+06	-1.58563454388E+01	-9.00777784867E+01	3.70962663806E+01	6.76520913821E+00	-4.77629026309E+01	9.69515658797E+00	-2.56802629215E+01	8.02420286582E+01
9.29000000000E+06	-1.61081172816E+01	-9.05096959968E+01	3.71049094607E+01	5.76259335858E+00	-4.78327401369E+01	8.71876909705E+00	-2.61156261327E+01	8.16614401413E+01
9.48500000000E+06	-1.63478519466E+01	-9.08254529644E+01	3.71171327473E+01	4.82537227230E+00	-4.76644656501E+01	7.71864457853E+00	-2.65238186307E+01	8.30534540014E+01
9.68000000000E+06	-1.65976015669E+01	-9.12143125250E+01	3.71246094159E+01	3.87633415937E+00	-4.77354511105E+01	6.78719951951E+00	-2.69499625521E+01	8.44197867305E+01
9.87500000000E+06	-1.68307238433E+01	-9.15821941843E+01	3.71331448155E+01	2.95058696530E+00	-4.76626906202E+01	6.07338532095E+00	-2.73622898629E+01	8.63690975129E+01
1.00700000000E+07	-1.70667776282E+01	-9.19076078269E+01	3.71448120400E+01	2.09022159887E+00	-4.76934262195E+01	4.56898239878E+00	-2.77281825576E+01	8.80262781605E+01
1.02650000000E+07	-1.73017623624E+01	-9.22888751973E+01	3.71531776683E+01	1.16485585920E+00	-4.76296414235E+01	4.04145664782E+00	-2.81488120880E+01	8.94890291934E+01
1.04600000000E+07	-1.75401435642E+01	-9.25905641283E+01	3.71597368595E+01	3.14716061377E-01	-4.77312797199E+01	3.21843451462E+00	-2.84643542713E+01	9.13080834077E+01
1.06550000000E+07	-1.77686008502E+01	-9.29782390448E+01	3.71664081586E+01	-5.30936928318E-01	-4.76476959745E+01	2.10563597469E+00	-2.88120370101E+01	9.29766382860E+01
1.08500000000E+07	-1.79963663129E+01	-9.33180512031E+01	3.71733580009E+01	-1.38771164483E+00	-4.75812754551E+01	1.35705914362E+00	-2.91357508867E+01	9.51594527256E+01
1.10450000000E+07	-1.82346029810E+01	-9.36745083215E+01	3.71798302321E+01	-2.19893177162E+00	-4.76693796490E+01	7.82945122484E-01	-2.94552958231E+01	9.70305557392E+01
1.12400000000E+07	-1.84653259360E+01	-9.40741413284E+01	3.71846967509E+01	-3.03025034000E+00	-4.76627386026E+01	-1.02012103615E-01	-2.97425557293E+01	9.89274208175E+01
1.14350000000E+07	-1.86885490596E+01	-9.43375465053E+01	3.71933093051E+01	-3.83168154078E+00	-4.76173021403E+01	-6.65876423880E-01	-3.00419719679E+01	1.00693677420E+02
1.16300000000E+07	-1.89282982137E+01	-9.46881523424E+01	3.71981039294E+01	-4.63555395060E+00	-4.76489178144E+01	-1.85537843804E+00	-3.03034970921E+01	1.02960659366E+02
1.18250000000E+07	-1.91683344813E+01	-9.49964456899E+01	3.72026513586E+01	-5.44034220288E+00	-4.75643311099E+01	-2.74094611477E+00	-3.05579742705E+01	1.05013991997E+02
1.20200000000E+07	-1.93903569950E+01	-9.52758947091E+01	3.72046362796E+01	-6.23216120542E+00	-4.76069633325E+01	-3.64955237122E+00	-3.08072517299E+01	1.06958835855E+02
1.22150000000E+07	-1.96256209924E+01	-9.54721392945E+01	3.72053269535E+01	-6.98950837939E+00	-4.75536041532E+01	-4.45059979815E+00	-3.10814957825E+01	1.08895598476E+02
1.24100000000E+07	-1.98538913236E+01	-9.57608428189E+01	3.72063551552E+01	-7.74845596923E+00	-4.75832819144E+01	-5.05861871396E+00	-3.12208788412E+01	1.11370639121E+02
1.26050000000E+07	-2.00887561883E+01	-9.59752270634E+01	3.72089620234E+01	-8.47688000825E+00	-4.76535119370E+01	-5.67387500363E+00	-3.15005807572E+01	1.13990083503E+02
1.28000000000E+07	-2.03064963314E+01	-9.61819525972E+01	3.72119433259E+01	-9.14278220290E+00	-4.75434010010E+01	-6.47744211611E+00	-3.16335762549E+01	1.16195148697E+02
1.29950000000E+07	-2.05559759511E+01	-9.63521729975E+01	3.72128372035E+01	-9.83895886800E+00	-4.75326308325E+01	-7.20953831722E+00	-3.18718962052E+01	1.18328744353E+02
1.31900000000E+07	-2.07954979578E+01	-9.65164755319E+01	3.72147327083E+01	-1.05234261729E+01	-4.75594605841E+01	-7.81148528441E+00	-3.20297677030E+01	1.20202014514E+02
1.33850000000E+07	-2.10169197661E+01	-9.67530967930E+01	3.72195539463E+01	-1.12145586432E+01	-4.75864434165E+01	-8.89687143692E+00	-3.21340765368E+01	1.22694497775E+02
1.35800000000E+07	-2.12626101823E+01	-9.69105290424E+01	3.72228410267E+01	-1.18738760362E+01	-4.75514242680E+01	-9.42813602850E+00	-3.22929332595E+01	1.25384763836E+02
1.37750000000E+07	-2.14966845972E+01	-9.69903542350E+01	3.72207755816E+01	-1.25534667317E+01	-4.76075724756E+01	-1.03226720502E+01	-3.22636425179E+01	1.27293385746E+02
1.39700000000E+07	-2.17127229432E+01	-9.70610831874E+01	3.72225201796E+01	-1.32018440759E+01	-4.74873919753E+01	-1.04794916714E+01	-3.24371128890E+01	1.29308102127E+02
1.41650000000E+07	-2.19478365110E+01	-9.73092256730E+01	3.72277133384E+01	-1.38847269127E+01	-4.75052701623E+01	-1.12318490361E+01	-3.24578717077E+01	1.31901019503E+02
1.43600000000E+07	-2.21817521600E+01	-9.73837214202E+01	3.72282709205E+01	-1.45343421592E+01	-4.74782489203E+01	-1.19980464755E+01	-3.25236157578E+01	1.33914904314E+02
1.45550000000E+07	-2.24320952552E+01	-9.73837978127E+01	3.72277600691E+01	-1.51624411225E+01	-4.75143200555E+01	-1.22546632682E+01	-3.26124180903E+01	1.36254478328E+02
1.47500000000E+07	-2.26662418568E+01	-9.74408927700E+01	3.72302993136E+01	-1.57910609283E+01	-4.75613840697E+01	-1.31776373360E+01	-3.26657957999E+01	1.37668521803E+02
1.49450000000E+07	-2.29059838048E+01	-9.74724900736E+01	3.72310533998E+01	-1.64320927130E+01	-4.74654686222E+01	-1.37387354201E+01	-3.26532105050E+01	1.39379602852E+02
1.51400000000E+07	-2.31552760308E+01	-9.76138516815E+01	3.72331441958E+01	-1.70824952426E+01	-4.75781603841E+01	-1.42932273855E+01	-3.26347669713E+01	1.41341661494E+02
1.53350000000E+07	-2.33995118370E+01	-9.75885804913E+01	3.72351328198E+01	-1.77142854929E+01	-4.74658746402E+01	-1.52293352779E+01	-3.26861757889E+01	1.43386852317E+02
1.55300000000E+07	-2.36224722439E+01	-9.75780314415E+01	3.72343305596E+01	-1.83241253645E+01	-4.74419784404E+01	-1.52460774851E+01	-3.27251384514E+01	1.45452423712E+02
1.57250000000E+07	-2.38968330946E+01	-9.75766344437E+01	3.72316315917E+01	-1.89330729964E+01	-4.74841472622E+01	-1.67657585924E+01	-3.26133450749E+01	1.46684984198E+02
1.59200000000E+07	-2.41402474269E+01	-9.74029278592E+01	3.72346968847E+01	-1.95440356424E+01	-4.75897520366E+01	-1.67378280450E+01	-3.26242246832E+01	1.48258144187E+02
1.61150000000E+07	-2.43862309640E+01	-9.73905423006E+01	3.72343789570E+01	-2.01506072312E+01	-4.74707104783E+01	-1.73469104653E+01	-3.25406117506E+01	1.50191778497E+02
1.63100000000E+07	-2.46283775675E+01	-9.74393572719E+01	3.72360309655E+01	-2.07395758398E+01	-4.74813102121E+01	-1.81853216100E+01	-3.25222262649E+01	1.51126816773E+02
1.65050000000E+07	-2.48880235789E+01	-9.72138118115E+01	3.72350732413E+01	-2.13542538422E+01	-4.74749355083E+01	-1.84295457209E+01	-3.25388598439E+01	1.52587755517E+02
1.67000000000E+07	-2.51433255648E+01	-9.70559985623E+01	3.72354980989E+01	-2.19215249331E+01	-4.74486553476E+01	-1.88724125710E+01	-3.24797348697E+01	1.54581646917E+02
1.68950000000E+07	-2.54085733751E+01	-9.70541313279E+01	3.72327269096E+01	-2.25404525418E+01	-4.74819753963E+01	-2.02574132319E+01	-3.24077772023E+01	1.55449391710E+02
1.70900000000E+07	-2.56585323498E+01	-9.69346229764E+01	3.72356982894E+01	-2.31030363522E+01	-4.74481970526E+01	-2.05511902573E+01	-3.24124517642E+01	1.57339111842E+02
1.72850000000E+07	-2.59264251481E+01	-9.65496551646E+01	3.72340776021E+01	-2.36859941706E+01	-4.74667721728E+01	-2.10884370375E+01	-3.22959527665E+01	1.57830493396E+02
1.74800000000E+07	-2.61864730372E+01	-9.64230800600E+01	3.72329523872E+01	-2.42618815076E+01	-4.74244312050E+01	-2.18351920356E+01	-3.22799648349E+01	1.59143005693E+02
1.76750000000E+07	-2.64754625495E+01	-9.61128748612E+01	3.72332363092E+01	-2.48484464627E+01	-4.74733359578E+01	-2.17960403846E+01	-3.22413667113E+01	1.60713307754E+02
1.78700000000E+07	-2.67337852659E+01	-9.57946991627E+01	3.72342399115E+01	-2.54210241469E+01	-4.75107272892E+01	-2.24652065076E+01	-3.22106226137E+01	1.62251717581E+02
1.80650000000E+07	-2.70001079387E+01	-9.54132557686E+01	3.72314245820E+01	-2.59745095286E+01	-4.74681393196E+01	-2.33388127268E+01	-3.20876838987E+01	1.62737563297E+02
1.82600000000E+07	-2.73126842434E+01	-9.51506768236E+01	3.72296918911E+01	-2.65388008518E+01	-4.74313350176E+01	-2.40901718637E+01	-3.21460798334E+01	1.63899447058E+02
1.84550000000E+07	-2.75691236621E+01	-9.46555522185E+01	3.72305002517E+01	-2.70948746315E+01	-4.74187757205E+01	-2.40459303681E+01	-3.20272217945E+01	1.64666357012E+02
1.86500000000E+07	-2.78435171033E+01	-9.41391725300E+01	3.72281640427E+01	-2.76815355797E+01	-4.74277084681E+01	-2.45148190577E+01	-3.20510046833E+01	1.66009909659E+02
1.88450000000E+07	-2.81338219929E+01	-9.35981072386E+01	3.72275505075E+01	-2.82059802396E+01	-4.74600611925E+01	-2.57174262996E+01	-3.19465445369E+01	1.66790401691E+02
1.90400000000E+07	-2.84443387120E+01	-9.31200568209E+01	3.72272209572E+01	-2.87754152993E+01	-4.74052240418E+01	-2.56790194945E+01	-3.19271746754E+01	1.68215466387E+02
1.92350000000E+07	-2.87000237256E+01	-9.25656802785E+01	3.72296856609E+01	-2.93056235214E+01	-4.74079234970E+01	-2.63310982056E+01	-3.19526183862E+01	1.68955589711E+02
1.94300000000E+07	-2.90064913555E+01	-9.17802044400E+01	3.72245182582E+01	-2.98631387073E+01	-4.74339372412E+01	-2.71865854446E+01	-3.18399414095E+01	1.69387340812E+02
1.96250000000E+07	-2.93298577927E+01	-9.12246579023E+01	3.72226382695E+01	-3.04022904569E+01	-4.74420357029E+01	-2.74801556409E+01	-3.18279223330E+01	1.70605023731E+02
1.98200000000E+07	-2.96209425458E+01	-9.02686257745E+01	3.72254213051E+01	-3.09555479846E+01	-4.73796069348E+01	-2.78582873692E+01	-3.18122543281E+01	1.71344880349E+02
2.00150000000E+07	-2.99168028984E+01	-8.94058639598E+01	3.72197588293E+01	-3.14882824851E+01	-4.74283687047E+01	-2.84547733331E+01	-3.17273468692E+01	1.72072594007E+02
2.02100000000E+07	-3.02173665123E+01	-8.83926058304E+01	3.72203218071E+01	-3.20315078907E+01	-4.74086392572E+01	-2.89582858400E+01	-3.16852977290E+01	1.73352192292E+02
2.04050000000E+07	-3.04988866309E+01	-8.71784527131E+01	3.72203774916E+01	-3.25776867552E+01	-4.74656887138E+01	-2.96234652373E+01	-3.16442725261E+01	1.73907274271E+02
2.06000000000E+07	-3.07981261744E+01	-8.63027398861E+01	3.72164483492E+01	-3.30852559213E+01	-4.74208689853E+01	-2.97814056376E+01	-3.16039192691E+01	1.74291098583E+02
2.07950000000E+07	-3.11167802177E+01	-8.50756142122E+01	3.72188492911E+01	-3.36439877098E+01	-4.73940573087E+01	-3.07469324425E+01	-3.15779194417E+01	1.75198073676E+02
2.09900000000E+07	-3.14398850717E+01	-8.37679140134E+01	3.72168807241E+01	-3.41685443568E+01	-4.73702109598E+01	-3.12163856441E+01	-3.14855953088E+01	1.76108125482E+02
2.11850000000E+07	-3.17153782379E+01	-8.25624826204E+01	3.72132980561E+01	-3.46948815182E+01	-4.73915197073E+01	-3.11339476625E+01	-3.14436906548E+01	1.76957259979E+02
2.13800000000E+07	-3.20471557378E+01	-8.07860151220E+01	3.72106983578E+01	-3.52128285783E+01	-4.73409239522E+01	-3.23048290348E+01	-3.14182824938E+01	1.76997908896E+02
2.15750000000E+07	-3.23427150692E+01	-7.92307904969E+01	3.72093405653E+01	-3.57276758831E+01	-4.73922621754E+01	-3.23625355097E+01	-3.14415608622E+01	1.78085086280E+02
2.17700000000E+07	-3.26534179741E+01	-7.74722459824E+01	3.72085717403E+01	-3.62671756628E+01	-4.73972686161E+01	-3.33713965097E+01	-3.13256201455E+01	1.78782546183E+02
2.19650000000E+07	-3.28898152482E+01	-7.56670115948E+01	3.72057835066E+01	-3.67696911020E+01	-4.73845675497E+01	-3.38464398096E+01	-3.13211315523E+01	1.79040794277E+02
2.21600000000E+07	-3.32202575848E+01	-7.39159638646E+01	3.72025733308E+01	-3.72900982416E+01	-4.73981013854E+01	-3.39996127638E+01	-3.13285133400E+01	-1.79830918146E+02
2.23550000000E+07	-3.34905944726E+01	-7.16167287393E+01	3.72002022366E+01	-3.78130778180E+01	-4.73894274151E+01	-3.49294042695E+01	-3.12403569328E+01	-1.79151312266E+02
2.25500000000E+07	-3.37167091265E+01	-6.94357720255E+01	3.71998351915E+01	-3.83234874023E+01	-4.74099652194E+01	-3.52014960121E+01	-3.11924627853E+01	-1.78537301019E+02
2.27450000000E+07	-3.39927948330E+01	-6.71216991208E+01	3.71993133125E+01	-3.88217398562E+01	-4.73876071063E+01	-3.53807612438E+01	-3.11752653842E+01	-1.78038907173E+02
2.29400000000E+07	-3.41787715343E+01	-6.48866493055E+01	3.71955622150E+01	-3.93201620682E+01	-4.73387693746E+01	-3.59490011083E+01	-3.10581134012E+01	-1.77719318311E+02
2.31350000000E+07	-3.43758278613E+01	-6.21351761740E+01	3.71918843089E+01	-3.98456148972E+01	-4.73073714062E+01	-3.65616454323E+01	-3.10566739903E+01	-1.76854072601E+02
2.33300000000E+07	-3.45555634290E+01	-5.96959009452E+01	3.71937915574E+01	-4.03669738185E+01	-4.74150681626E+01	-3.70180012679E+01	-3.10587525712E+01	-1.76226067586E+02
2.35250000000E+07	-3.47483592771E+01	-5.67878675814E+01	3.71899656825E+01	-4.08433692868E+01	-4.73756911815E+01	-3.73921543793E+01	-3.09813407992E+01	-1.75683684882E+02
2.37200000000E+07	-3.48123091671E+01	-5.41496121310E+01	3.71862153863E+01	-4.13749138770E+01	-4.73473542336E+01	-3.80344683037E+01	-3.09799509480E+01	-1.75736678974E+02
2.39150000000E+07	-3.49437621813E+01	-5.07038723079E+01	3.71869487997E+01	-4.18586780926E+01	-4.73927934513E+01	-3.87906770961E+01	-3.08855269116E+01	-1.74058956649E+02
2.41100000000E+07	-3.50192334885E+01	-4.82063890213E+01	3.71868513047E+01	-4.23776833142E+01	-4.74084326822E+01	-3.89441179090E+01	-3.09067017250E+01	-1.73694016836E+02
2.43050000000E+07	-3.51100041914E+01	-4.50433324669E+01	3.71834125444E+01	-4.28715046980E+01	-4.72856961558E+01	-3.93734603903E+01	-3.07992394218E+01	-1.73528447546E+02
2.45000000000E+07	-3.51740721914E+01	-4.21629572769E+01	3.71822062983E+01	-4.33750246842E+01	-4.73463691992E+01	-3.97684463890E+01	-3.07796384407E+01	-1.72993714224E+02
2.46950000000E+07	-3.51076165067E+01	-3.91167470594E+01	3.71770929499E+01	-4.38664929805E+01	-4.73805396262E+01	-4.07242293080E+01	-3.07858229207E+01	-1.72184699359E+02
2.48900000000E+07	-3.51040597549E+01	-3.65086986142E+01	3.71750205979E+01	-4.43614054255E+01	-4.73395446355E+01	-4.08287264252E+01	-3.07485461647E+01	-1.72052072907E+02
2.50850000000E+07	-3.50093406577E+01	-3.37810442460E+01	3.71741323493E+01	-4.48496241576E+01	-4.73750781969E+01	-4.12975192405E+01	-3.06576835761E+01	-1.71654255086E+02
2.52800000000E+07	-3.49449260079E+01	-3.11174510690E+01	3.71732965022E+01	-4.53506170559E+01	-4.73581607838E+01	-4.18923118395E+01	-3.07070342504E+01	-1.71294738431E+02
2.54750000000E+07	-3.47571927126E+01	-2.87768412370E+01	3.71723127904E+01	-4.58541929294E+01	-4.73161216196E+01	-4.21951334381E+01	-3.06082364012E+01	-1.70436277795E+02
2.56700000000E+07	-3.46856295895E+01	-2.61553067360E+01	3.71692065772E+01	-4.63378106835E+01	-4.73397866155E+01	-4.28334039463E+01	-3.05568641655E+01	-1.70306805284E+02
2.58650000000E+07	-3.44998006619E+01	-2.35269832114E+01	3.71680652752E+01	-4.68359552273E+01	-4.72821490148E+01	-4.31707582325E+01	-3.05464389647E+01	-1.69429671640E+02
2.60600000000E+07	-3.43352945198E+01	-2.16802728598E+01	3.71638169631E+01	-4.73000383208E+01	-4.73522902546E+01	-4.37824681241E+01	-3.05121972535E+01	-1.69135920260E+02
2.62550000000E+07	-3.42289115228E+01	-1.96672698681E+01	3.71590506445E+01	-4.77964041663E+01	-4.73336456467E+01	-4.39102817143E+01	-3.04687096729E+01	-1.68894336558E+02
2.64500000000E+07	-3.40054093559E+01	-1.74781784659E+01	3.71578717859E+01	-4.82681550280E+01	-4.72390926514E+01	-4.48550475230E+01	-3.04879203598E+01	-1.68433125251E+02
2.66450000000E+07	-3.38613244832E+01	-1.53545214801E+01	3.71567716076E+01	-4.87568339144E+01	-4.73121781488E+01	-4.51544770685E+01	-3.04161017391E+01	-1.68066264056E+02
2.68400000000E+07	-3.36332741893E+01	-1.39412800144E+01	3.71531087515E+01	-4.92350002059E+01	-4.73047091388E+01	-4.52994168987E+01	-3.03054775953E+01	-1.67350696950E+02
2.70350000000E+07	-3.34724154951E+01	-1.25699132053E+01	3.71535813131E+01	-4.97442755239E+01	-4.73144536161E+01	-4.57933650343E+01	-3.03026277409E+01	-1.66709140763E+02
2.72300000000E+07	-3.32198887995E+01	-1.08432135537E+01	3.71477925288E+01	-5.02262847904E+01	-4.73354827647E+01	-4.65979306528E+01	-3.02381416022E+01	-1.66693409063E+02
2.74250000000E+07	-3.30398492929E+01	-9.76092697234E+00	3.71452517539E+01	-5.06834569576E+01	-4.73388932383E+01	-4.72193021587E+01	-3.02460422324E+01	-1.65819129254E+02
2.76200000000E+07	-3.28165180900E+01	-8.22055512231E+00	3.71433327526E+01	-5.11766462920E+01	-4.73226914027E+01	-4.77882772909E+01	-3.02096672987E+01	-1.65742653508E+02
