# Hz S DB R 50
! CMT, M5045, 22160017, 22.4.3/2
! Date: 2/27/2023 00:59:13
! Data: Format (Calibration Info)
! Freq	S11:dB/Ang(F2)	S21:dB/Ang(F2)	S12:dB/Ang(F2)	S22:dB/Ang(F2)
5.00000000000E+06	-9.81890228486E+00	-7.66584191395E+01	3.64474716518E+01	3.56825300883E+01	-4.85196946396E+01	3.88891383150E+01	-1.51362585891E+01	6.85805233186E+01
5.19500000000E+06	-1.01713628495E+01	-7.76869845186E+01	3.65264838046E+01	3.35287270660E+01	-4.84660979262E+01	3.65887556425E+01	-1.57888139590E+01	6.75959205238E+01
5.39000000000E+06	-1.05194802547E+01	-7.86557343855E+01	3.65979641663E+01	3.14999631127E+01	-4.83809042728E+01	3.40475500800E+01	-1.64264548460E+01	6.70025749167E+01
5.58500000000E+06	-1.08594947661E+01	-7.95610236399E+01	3.66580687217E+01	2.96015688551E+01	-4.82865335373E+01	3.27262432399E+01	-1.70568233752E+01	6.61475775874E+01
5.78000000000E+06	-1.11846327009E+01	-8.04419060958E+01	3.67147951665E+01	2.77752205455E+01	-4.82861158793E+01	3.05408926293E+01	-1.76971003551E+01	6.57495236254E+01
5.97500000000E+06	-1.14994555612E+01	-8.11946319617E+01	3.67675769706E+01	2.60341833360E+01	-4.82154838843E+01	2.93382294720E+01	-1.83003084357E+01	6.54167479925E+01
6.17000000000E+06	-1.18198806010E+01	-8.19525006501E+01	3.68100960006E+01	2.43917203792E+01	-4.82868004541E+01	2.71289096893E+01	-1.89029872688E+01	6.50979897366E+01
6.36500000000E+06	-1.21259639449E+01	-8.26948740243E+01	3.68493341614E+01	2.27929146122E+01	-4.82279940955E+01	2.56414149691E+01	-1.95080518071E+01	6.51095642032E+01
6.56000000000E+06	-1.24266544788E+01	-8.32921045008E+01	3.68837389788E+01	2.13264699051E+01	-4.81166583894E+01	2.41395639687E+01	-2.00774965341E+01	6.50287247187E+01
6.75500000000E+06	-1.27195360952E+01	-8.39618876800E+01	3.69179457926E+01	1.98428218967E+01	-4.80137411923E+01	2.29506822479E+01	-2.06694523903E+01	6.48742617735E+01
6.95000000000E+06	-1.29987139100E+01	-8.45966003289E+01	3.69499771865E+01	1.84663100265E+01	-4.80623982339E+01	2.10586027906E+01	-2.12532019106E+01	6.50905401699E+01
7.14500000000E+06	-1.32913556741E+01	-8.52228573203E+01	3.69756784285E+01	1.71170586640E+01	-4.79513972376E+01	2.03674917880E+01	-2.18285709580E+01	6.54053039142E+01
7.34000000000E+06	-1.35641855007E+01	-8.57418049307E+01	3.70029303493E+01	1.58220206967E+01	-4.79699063763E+01	1.87085336157E+01	-2.23824305846E+01	6.55330967261E+01
7.53500000000E+06	-1.38455113513E+01	-8.62858196052E+01	3.70225289974E+01	1.45773781767E+01	-4.79289682484E+01	1.73886722348E+01	-2.29219578350E+01	6.58937867585E+01
7.73000000000E+06	-1.41175529192E+01	-8.68409547933E+01	3.70409542977E+01	1.33654318381E+01	-4.78722088734E+01	1.58426793521E+01	-2.34660768927E+01	6.63338728447E+01
7.92500000000E+06	-1.43854607406E+01	-8.72956884336E+01	3.70609458165E+01	1.21926653827E+01	-4.78613525226E+01	1.51812340719E+01	-2.40619841852E+01	6.70415213838E+01
8.12000000000E+06	-1.46524322061E+01	-8.78337398971E+01	3.70794544565E+01	1.10385851462E+01	-4.78532797797E+01	1.40682496763E+01	-2.45776405529E+01	6.77593120698E+01
8.31500000000E+06	-1.49158888942E+01	-8.82900069292E+01	3.70957825573E+01	9.95890460593E+00	-4.79043477794E+01	1.27316186810E+01	-2.51209823403E+01	6.84136433006E+01
8.51000000000E+06	-1.51699975712E+01	-8.87574349613E+01	3.71084486432E+01	8.88220192241E+00	-4.77532557951E+01	1.20099109015E+01	-2.56514290367E+01	6.93159301664E+01
8.70500000000E+06	-1.54259765001E+01	-8.91458904427E+01	3.71198396324E+01	7.86638408348E+00	-4.78452558053E+01	1.07198393873E+01	-2.61599322640E+01	7.03993156651E+01
8.90000000000E+06	-1.56766961927E+01	-8.96270681307E+01	3.71334266968E+01	6.83817844677E+00	-4.78005609205E+01	9.49640016395E+00	-2.66752101462E+01	7.14529593112E+01
9.09500000000E+06	-1.59284289584E+01	-9.00469201415E+01	3.71458477377E+01	5.85021095752E+00	-4.77458193454E+01	8.58235393836E+00	-2.72512322001E+01	7.22558980952E+01
9.29000000000E+06	-1.61911275893E+01	-9.04234279671E+01	3.71533187247E+01	4.89706585014E+00	-4.77597585402E+01	7.99366168997E+00	-2.76831216636E+01	7.39155481268E+01
9.48500000000E+06	-1.64285228651E+01	-9.08051113724E+01	3.71638614762E+01	3.96338043640E+00	-4.77934212142E+01	6.94581517280E+00	-2.81992298833E+01	7.51183538506E+01
9.68000000000E+06	-1.66653216104E+01	-9.12130875894E+01	3.71741084178E+01	3.01568051598E+00	-4.76609291196E+01	5.87232834044E+00	-2.87202583874E+01	7.65180661806E+01
9.87500000000E+06	-1.69249645715E+01	-9.15901427328E+01	3.71797162692E+01	2.11301157138E+00	-4.77124455065E+01	5.03614404025E+00	-2.92048113280E+01	7.80198745871E+01
1.00700000000E+07	-1.71730280397E+01	-9.19623787374E+01	3.71848062711E+01	1.24000917366E+00	-4.77116177321E+01	4.49767541441E+00	-2.96730800211E+01	7.99732406652E+01
1.02650000000E+07	-1.74083117897E+01	-9.23257500803E+01	3.71926474034E+01	3.94312759090E-01	-4.76688333378E+01	3.69794714937E+00	-3.01436278157E+01	8.20866930176E+01
1.04600000000E+07	-1.76448090069E+01	-9.26663053229E+01	3.71998654838E+01	-4.64108783930E-01	-4.77229388267E+01	2.33269556028E+00	-3.05182281702E+01	8.40873825834E+01
1.06550000000E+07	-1.78839297704E+01	-9.30068132466E+01	3.72097583783E+01	-1.30272476641E+00	-4.77092647247E+01	1.39510508778E+00	-3.08969636427E+01	8.54317274648E+01
1.08500000000E+07	-1.81170314809E+01	-9.34017264481E+01	3.72138861424E+01	-2.13491107072E+00	-4.77618739644E+01	8.17434765539E-01	-3.12763112423E+01	8.78890140706E+01
1.10450000000E+07	-1.83511856217E+01	-9.37193496039E+01	3.72223847885E+01	-2.93114255088E+00	-4.76301551902E+01	-1.92234527562E-02	-3.15941665056E+01	9.04760299957E+01
1.12400000000E+07	-1.85832157463E+01	-9.40886982871E+01	3.72295615920E+01	-3.76105510660E+00	-4.76466364637E+01	-8.35881129786E-01	-3.20642129363E+01	9.31756945251E+01
1.14350000000E+07	-1.88207377525E+01	-9.44096483518E+01	3.72334755895E+01	-4.53996289638E+00	-4.76358572063E+01	-1.78843524556E+00	-3.23894635640E+01	9.43584118622E+01
1.16300000000E+07	-1.90749659950E+01	-9.48028186232E+01	3.72360828597E+01	-5.32017868585E+00	-4.76357801741E+01	-2.67048190114E+00	-3.27406485017E+01	9.61028602701E+01
1.18250000000E+07	-1.93037422702E+01	-9.50552979192E+01	3.72456962269E+01	-6.13492940025E+00	-4.76961507950E+01	-3.17668344634E+00	-3.29790689810E+01	9.93783201042E+01
1.20200000000E+07	-1.95387322825E+01	-9.53623492066E+01	3.72447011062E+01	-6.87941251747E+00	-4.76505641136E+01	-4.02780901754E+00	-3.33379917723E+01	1.01435205592E+02
1.22150000000E+07	-1.97764667403E+01	-9.56704266930E+01	3.72479428750E+01	-7.64327318987E+00	-4.75528472563E+01	-5.46548984155E+00	-3.37361417347E+01	1.04824434946E+02
1.24100000000E+07	-2.00121849984E+01	-9.59457874088E+01	3.72465811628E+01	-8.37529807618E+00	-4.75878231682E+01	-5.78771668667E+00	-3.38873764197E+01	1.07523108839E+02
1.26050000000E+07	-2.02556086195E+01	-9.61815735608E+01	3.72479100888E+01	-9.08325342480E+00	-4.76075549814E+01	-6.59471952937E+00	-3.41639127739E+01	1.10055488630E+02
1.28000000000E+07	-2.04935232950E+01	-9.63830680678E+01	3.72472492731E+01	-9.77717623326E+00	-4.75016496931E+01	-6.74656287602E+00	-3.45280018867E+01	1.12647311365E+02
1.29950000000E+07	-2.07345795724E+01	-9.64924273262E+01	3.72535634462E+01	-1.04515946246E+01	-4.76327439558E+01	-7.35654625983E+00	-3.46022291294E+01	1.15991379554E+02
1.31900000000E+07	-2.09848442266E+01	-9.67125032625E+01	3.72503531076E+01	-1.11223980045E+01	-4.75894102205E+01	-7.71234054844E+00	-3.47955025182E+01	1.19364448729E+02
1.33850000000E+07	-2.12184528028E+01	-9.69110725383E+01	3.72586150406E+01	-1.17904124602E+01	-4.75991072364E+01	-9.31393007914E+00	-3.47534423180E+01	1.21172917763E+02
1.35800000000E+07	-2.14626919867E+01	-9.70682335021E+01	3.72587589843E+01	-1.24568788373E+01	-4.76555109481E+01	-1.01210437247E+01	-3.50054071812E+01	1.24950607620E+02
1.37750000000E+07	-2.17177787747E+01	-9.72426586612E+01	3.72627045789E+01	-1.31114961379E+01	-4.75357012268E+01	-1.06417115979E+01	-3.51799925839E+01	1.28010999883E+02
1.39700000000E+07	-2.19458875486E+01	-9.74411330658E+01	3.72644243293E+01	-1.37688485522E+01	-4.75668944591E+01	-1.08664783792E+01	-3.53052525436E+01	1.29570336810E+02
1.41650000000E+07	-2.21993777979E+01	-9.75254971630E+01	3.72657793152E+01	-1.44237418827E+01	-4.75969235119E+01	-1.15982307311E+01	-3.53231969363E+01	1.31968878488E+02
1.43600000000E+07	-2.24383495727E+01	-9.75743402902E+01	3.72672226340E+01	-1.50720468036E+01	-4.75325343384E+01	-1.26004169607E+01	-3.53725552547E+01	1.34544818831E+02
1.45550000000E+07	-2.27076149265E+01	-9.76243808253E+01	3.72671255775E+01	-1.56853857545E+01	-4.75843299690E+01	-1.32321873266E+01	-3.53308129030E+01	1.37842745586E+02
1.47500000000E+07	-2.29518599704E+01	-9.78095279847E+01	3.72689889770E+01	-1.63378546521E+01	-4.75316735055E+01	-1.36409696774E+01	-3.52773761273E+01	1.40218731253E+02
1.49450000000E+07	-2.32168931584E+01	-9.77484161184E+01	3.72662860764E+01	-1.69491157817E+01	-4.75888332854E+01	-1.45338335505E+01	-3.52951744574E+01	1.42348118023E+02
1.51400000000E+07	-2.34577104998E+01	-9.79072037535E+01	3.72694259302E+01	-1.75775647693E+01	-4.76101598404E+01	-1.47274446405E+01	-3.53155123304E+01	1.44318574251E+02
1.53350000000E+07	-2.37153269956E+01	-9.77970698428E+01	3.72692371297E+01	-1.82012565640E+01	-4.75090091953E+01	-1.55961022062E+01	-3.52571441066E+01	1.47354056830E+02
1.55300000000E+07	-2.39692182825E+01	-9.78111441139E+01	3.72726962558E+01	-1.87827278962E+01	-4.75090601375E+01	-1.63338151611E+01	-3.51887186606E+01	1.49294851149E+02
1.57250000000E+07	-2.42261772572E+01	-9.77131822048E+01	3.72685668252E+01	-1.94058543246E+01	-4.75240140070E+01	-1.62509467700E+01	-3.51092091059E+01	1.51470580042E+02
1.59200000000E+07	-2.45051871282E+01	-9.76628802893E+01	3.72706188648E+01	-2.00086457778E+01	-4.75764974315E+01	-1.73008819047E+01	-3.49776731040E+01	1.52966049092E+02
1.61150000000E+07	-2.47745912142E+01	-9.76225833550E+01	3.72719159329E+01	-2.06177140311E+01	-4.75445746181E+01	-1.77326782253E+01	-3.49970385515E+01	1.54505615103E+02
1.63100000000E+07	-2.50321679544E+01	-9.75053965868E+01	3.72707956874E+01	-2.12098523816E+01	-4.75494211610E+01	-1.81357531623E+01	-3.50337146522E+01	1.56685633151E+02
1.65050000000E+07	-2.53126216174E+01	-9.73395513002E+01	3.72680947668E+01	-2.17905137256E+01	-4.74971686943E+01	-1.89736566605E+01	-3.48381434709E+01	1.57757356334E+02
1.67000000000E+07	-2.55889507464E+01	-9.73011748925E+01	3.72714960012E+01	-2.23690175453E+01	-4.74861171784E+01	-1.97667925312E+01	-3.48870017173E+01	1.60052074815E+02
1.68950000000E+07	-2.58637049122E+01	-9.70789174986E+01	3.72695911969E+01	-2.29624677298E+01	-4.75037560347E+01	-2.03533344890E+01	-3.47549632703E+01	1.61009454518E+02
1.70900000000E+07	-2.61523784391E+01	-9.67493263115E+01	3.72710232937E+01	-2.35504727558E+01	-4.75171812776E+01	-2.08712585654E+01	-3.46513358704E+01	1.62814677674E+02
1.72850000000E+07	-2.64294536540E+01	-9.66613773853E+01	3.72688790227E+01	-2.41097101666E+01	-4.75066510713E+01	-2.17511878368E+01	-3.45200860071E+01	1.64021127042E+02
1.74800000000E+07	-2.67352825251E+01	-9.62820379132E+01	3.72682125225E+01	-2.47097328868E+01	-4.75717280731E+01	-2.20415254691E+01	-3.44707241670E+01	1.64898124112E+02
1.76750000000E+07	-2.69922632781E+01	-9.60189865226E+01	3.72716156628E+01	-2.52565430465E+01	-4.74837826752E+01	-2.23116705765E+01	-3.44074475999E+01	1.66210979241E+02
1.78700000000E+07	-2.73002907473E+01	-9.56274148218E+01	3.72692379567E+01	-2.58359767036E+01	-4.74623895243E+01	-2.28088919819E+01	-3.43695728159E+01	1.67799104968E+02
1.80650000000E+07	-2.76091420660E+01	-9.51969407156E+01	3.72677263938E+01	-2.63728280966E+01	-4.74470839981E+01	-2.38934943337E+01	-3.42390961456E+01	1.68736256599E+02
1.82600000000E+07	-2.79102158194E+01	-9.47479021159E+01	3.72651958040E+01	-2.69547325038E+01	-4.74679973314E+01	-2.41575930262E+01	-3.40810533500E+01	1.69977689249E+02
1.84550000000E+07	-2.82448387169E+01	-9.42330350203E+01	3.72673305591E+01	-2.75051790346E+01	-4.74929917016E+01	-2.50082607273E+01	-3.41151057526E+01	1.70314358438E+02
1.86500000000E+07	-2.85294526047E+01	-9.36082513547E+01	3.72650622046E+01	-2.80523259816E+01	-4.75237073869E+01	-2.49858928520E+01	-3.40551721541E+01	1.71805595352E+02
1.88450000000E+07	-2.88401660858E+01	-9.29726520320E+01	3.72637552447E+01	-2.85759835011E+01	-4.74641730898E+01	-2.56468172823E+01	-3.39444639445E+01	1.73081126835E+02
1.90400000000E+07	-2.91980673971E+01	-9.21653142737E+01	3.72594062495E+01	-2.91468301335E+01	-4.74991593521E+01	-2.64120427283E+01	-3.38665461056E+01	1.73590942551E+02
1.92350000000E+07	-2.95099447066E+01	-9.14400777883E+01	3.72630523432E+01	-2.96914143718E+01	-4.74174555681E+01	-2.68129984589E+01	-3.38621574933E+01	1.75630611788E+02
1.94300000000E+07	-2.98108383245E+01	-9.06868664793E+01	3.72618385430E+01	-3.02487864972E+01	-4.74166239804E+01	-2.73530103076E+01	-3.36806053765E+01	1.75440212087E+02
1.96250000000E+07	-3.01469459472E+01	-8.95732249202E+01	3.72602165412E+01	-3.07869047732E+01	-4.74700819274E+01	-2.76618274166E+01	-3.36870662726E+01	1.76859654101E+02
1.98200000000E+07	-3.04689616166E+01	-8.86434750057E+01	3.72569201795E+01	-3.13274693660E+01	-4.75194900797E+01	-2.82425253623E+01	-3.35843275425E+01	1.77807847289E+02
2.00150000000E+07	-3.08448980543E+01	-8.75338471347E+01	3.72551515238E+01	-3.18402145028E+01	-4.74369845034E+01	-2.91582359130E+01	-3.35215685077E+01	1.78153139562E+02
2.02100000000E+07	-3.11868505354E+01	-8.62444814722E+01	3.72540859327E+01	-3.23827559084E+01	-4.74661184326E+01	-2.94830544437E+01	-3.35284573935E+01	1.78937403129E+02
2.04050000000E+07	-3.14940538033E+01	-8.48516830616E+01	3.72530585793E+01	-3.29129405262E+01	-4.75108097063E+01	-2.99235884445E+01	-3.34023581763E+01	-1.79653103699E+02
2.06000000000E+07	-3.18463235120E+01	-8.34551325528E+01	3.72509071698E+01	-3.34406156726E+01	-4.75149694339E+01	-3.01725330776E+01	-3.33394347745E+01	-1.79111590800E+02
2.07950000000E+07	-3.21416485233E+01	-8.19505659539E+01	3.72496972663E+01	-3.39906594644E+01	-4.74158721799E+01	-3.07685330724E+01	-3.32292558096E+01	-1.78122849882E+02
2.09900000000E+07	-3.24868438459E+01	-8.04808248138E+01	3.72495539159E+01	-3.44948050549E+01	-4.74326662644E+01	-3.14131441628E+01	-3.32421268022E+01	-1.77855370815E+02
2.11850000000E+07	-3.28469109645E+01	-7.83357858930E+01	3.72448909856E+01	-3.50210747252E+01	-4.74887764705E+01	-3.16115824845E+01	-3.31671315835E+01	-1.76568096023E+02
2.13800000000E+07	-3.31828508272E+01	-7.62851336625E+01	3.72438442687E+01	-3.55634472840E+01	-4.73770768072E+01	-3.23707246676E+01	-3.30879821806E+01	-1.76314577427E+02
2.15750000000E+07	-3.34652641489E+01	-7.41207103821E+01	3.72444104561E+01	-3.60742267356E+01	-4.74834396739E+01	-3.27793365687E+01	-3.29869688190E+01	-1.75869829066E+02
2.17700000000E+07	-3.38095915399E+01	-7.19540824316E+01	3.72418667969E+01	-3.65762234967E+01	-4.73800850824E+01	-3.32336592291E+01	-3.30126783865E+01	-1.74581230266E+02
2.19650000000E+07	-3.40735304664E+01	-6.95505339958E+01	3.72388926066E+01	-3.70955169667E+01	-4.74487367026E+01	-3.36606474285E+01	-3.29695961930E+01	-1.74039755716E+02
2.21600000000E+07	-3.43278562154E+01	-6.72400048141E+01	3.72380742271E+01	-3.76221197447E+01	-4.73974640785E+01	-3.43396254089E+01	-3.28212230775E+01	-1.73935290373E+02
2.23550000000E+07	-3.45702828782E+01	-6.38793671425E+01	3.72370982919E+01	-3.81247062303E+01	-4.75193930202E+01	-3.49451507065E+01	-3.28831250860E+01	-1.72689115054E+02
2.25500000000E+07	-3.47968105422E+01	-6.12420557829E+01	3.72340103996E+01	-3.86231346171E+01	-4.74579380378E+01	-3.52039650274E+01	-3.28417341754E+01	-1.72236716098E+02
2.27450000000E+07	-3.50133216063E+01	-5.80801407623E+01	3.72333246123E+01	-3.91389271510E+01	-4.74335634195E+01	-3.58880677403E+01	-3.27383517158E+01	-1.72020272838E+02
2.29400000000E+07	-3.51781281248E+01	-5.47505230929E+01	3.72303592754E+01	-3.96422889186E+01	-4.74009998441E+01	-3.67321431709E+01	-3.27479063522E+01	-1.70892409114E+02
2.31350000000E+07	-3.53616811503E+01	-5.14563965924E+01	3.72280910602E+01	-4.01468544578E+01	-4.73865492170E+01	-3.68877306682E+01	-3.25742139606E+01	-1.70085169498E+02
2.33300000000E+07	-3.53831372302E+01	-4.86084428343E+01	3.72249043610E+01	-4.06485576195E+01	-4.74732974229E+01	-3.71134180388E+01	-3.25629094016E+01	-1.69922999669E+02
2.35250000000E+07	-3.55265811370E+01	-4.55971172159E+01	3.72223866614E+01	-4.11604451161E+01	-4.74421322654E+01	-3.74003686076E+01	-3.25095189395E+01	-1.69419803287E+02
2.37200000000E+07	-3.55292243943E+01	-4.17128310610E+01	3.72235698075E+01	-4.16244311773E+01	-4.74360100309E+01	-3.82969158823E+01	-3.25005168799E+01	-1.68741049661E+02
2.39150000000E+07	-3.55392278470E+01	-3.82561331503E+01	3.72211043220E+01	-4.21576119464E+01	-4.73896112555E+01	-3.91740897978E+01	-3.24769887369E+01	-1.68714589448E+02
2.41100000000E+07	-3.54483481973E+01	-3.50395330697E+01	3.72171238983E+01	-4.26244893060E+01	-4.74069491886E+01	-3.94685748171E+01	-3.24685445188E+01	-1.68011570026E+02
2.43050000000E+07	-3.53902014344E+01	-3.20585529694E+01	3.72158836159E+01	-4.31385540232E+01	-4.73766427692E+01	-3.95382044287E+01	-3.23377553708E+01	-1.67544745154E+02
2.45000000000E+07	-3.52757103185E+01	-2.88303326615E+01	3.72135818615E+01	-4.36104592997E+01	-4.73643789393E+01	-4.03781469583E+01	-3.23703393601E+01	-1.66317975045E+02
2.46950000000E+07	-3.51871338398E+01	-2.61725501556E+01	3.72134528708E+01	-4.41357194424E+01	-4.73542991074E+01	-4.09335309396E+01	-3.22440611107E+01	-1.66325561093E+02
2.48900000000E+07	-3.50415758713E+01	-2.33761154120E+01	3.72088314340E+01	-4.46179885431E+01	-4.73971992551E+01	-4.12118991814E+01	-3.22042974208E+01	-1.66099593065E+02
2.50850000000E+07	-3.48296634579E+01	-2.08454237164E+01	3.72092412255E+01	-4.51171260290E+01	-4.73913982149E+01	-4.16428239824E+01	-3.21915521561E+01	-1.65181934806E+02
2.52800000000E+07	-3.45975580056E+01	-1.84761490775E+01	3.72064322884E+01	-4.56113653226E+01	-4.73826909384E+01	-4.25239755106E+01	-3.21283693610E+01	-1.64685887623E+02
2.54750000000E+07	-3.44427778697E+01	-1.63059359020E+01	3.72067734733E+01	-4.60839946987E+01	-4.74187976659E+01	-4.24739515892E+01	-3.19899070599E+01	-1.64189385116E+02
2.56700000000E+07	-3.41922507767E+01	-1.41814281843E+01	3.72010472975E+01	-4.66092068519E+01	-4.74050848641E+01	-4.29308729217E+01	-3.20021340248E+01	-1.63390342658E+02
2.58650000000E+07	-3.39816239188E+01	-1.23114353830E+01	3.71972986783E+01	-4.70635531518E+01	-4.74054622552E+01	-4.36360744072E+01	-3.19773154037E+01	-1.63212234452E+02
2.60600000000E+07	-3.37298667640E+01	-1.02778374725E+01	3.71966378962E+01	-4.75356889543E+01	-4.73817365313E+01	-4.42685269706E+01	-3.19880872849E+01	-1.63105684915E+02
2.62550000000E+07	-3.35223630217E+01	-8.77865865265E+00	3.71911172809E+01	-4.80451673349E+01	-4.73808647575E+01	-4.44744484050E+01	-3.19207016994E+01	-1.62350938756E+02
2.64500000000E+07	-3.33302219036E+01	-6.78055652354E+00	3.71908296003E+01	-4.85114548714E+01	-4.73764724602E+01	-4.46382706771E+01	-3.18834040996E+01	-1.61933233830E+02
2.66450000000E+07	-3.30494785239E+01	-5.39594766496E+00	3.71898099157E+01	-4.90186270933E+01	-4.73669379942E+01	-4.51894835344E+01	-3.18339295741E+01	-1.61297389831E+02
2.68400000000E+07	-3.28447878520E+01	-4.24185531505E+00	3.71878276640E+01	-4.94816830081E+01	-4.73766606281E+01	-4.57032054899E+01	-3.17271255722E+01	-1.60763871530E+02
2.70350000000E+07	-3.26067870542E+01	-2.85706241115E+00	3.71808720050E+01	-4.99684929541E+01	-4.73646420616E+01	-4.59603129489E+01	-3.17023834565E+01	-1.60322611363E+02
2.72300000000E+07	-3.23709966754E+01	-1.79286367804E+00	3.71817166377E+01	-5.04418641908E+01	-4.73523793082E+01	-4.61069261174E+01	-3.16549789619E+01	-1.60305643472E+02
2.74250000000E+07	-3.21106296457E+01	-9.46017447438E-01	3.71767387759E+01	-5.09092373746E+01	-4.73813058684E+01	-4.70763686217E+01	-3.16408716723E+01	-1.59359878018E+02
2.76200000000E+07	-3.18866758251E+01	2.05791625679E-01	3.71748247105E+01	-5.13928803055E+01	-4.73567067446E+01	-4.74570680025E+01	-3.16384786293E+01	-1.59316187176E+02
