# Hz S DB R 50
! CMT, M5045, 22160017, 22.4.3/2
! Date: 1/19/2023 23:18:23
! Data: Format (Calibration Info)
! Freq	S11:dB/Ang(F2)	S21:dB/Ang(F2)	S12:dB/Ang(F2)	S22:dB/Ang(F2)
5.00000000000E+06	-2.71451804080E+01	1.41165030929E+02	-4.26859319033E-01	1.77636421177E+02	-4.30744961531E-01	1.77642646912E+02	-2.71894247982E+01	1.41194234940E+02
5.19500000000E+06	-2.72669631072E+01	1.41337281092E+02	-4.26183628626E-01	1.77460622944E+02	-4.30032093569E-01	1.77468030193E+02	-2.73083440381E+01	1.41421550424E+02
5.39000000000E+06	-2.73716026173E+01	1.41481441400E+02	-4.25358843220E-01	1.77289742978E+02	-4.29746124959E-01	1.77292407632E+02	-2.74151627114E+01	1.41619719807E+02
5.58500000000E+06	-2.74650334551E+01	1.41690161792E+02	-4.24795784611E-01	1.77120149292E+02	-4.28188641675E-01	1.77126649277E+02	-2.75114915218E+01	1.41803985179E+02
5.78000000000E+06	-2.75602379147E+01	1.41837329474E+02	-4.24050547508E-01	1.76952949481E+02	-4.28290962971E-01	1.76961695636E+02	-2.75998009918E+01	1.41955383847E+02
5.97500000000E+06	-2.76468971998E+01	1.42005231442E+02	-4.23756693013E-01	1.76786830849E+02	-4.27561635211E-01	1.76794501677E+02	-2.76765109155E+01	1.42143515735E+02
6.17000000000E+06	-2.77202365022E+01	1.42161255311E+02	-4.23507091611E-01	1.76621863414E+02	-4.27608447432E-01	1.76632531811E+02	-2.77523965038E+01	1.42382618010E+02
6.36500000000E+06	-2.77858873413E+01	1.42292071800E+02	-4.24012446425E-01	1.76469135864E+02	-4.27554790907E-01	1.76475320991E+02	-2.78247937115E+01	1.42513002169E+02
6.56000000000E+06	-2.78578246871E+01	1.42477498001E+02	-4.24023782057E-01	1.76309825393E+02	-4.27846919812E-01	1.76318659526E+02	-2.78927959756E+01	1.42674098931E+02
6.75500000000E+06	-2.79132201032E+01	1.42616879061E+02	-4.24832167322E-01	1.76153812333E+02	-4.28017110248E-01	1.76157812664E+02	-2.79520976731E+01	1.42808805279E+02
6.95000000000E+06	-2.79714410115E+01	1.42707437406E+02	-4.25341247389E-01	1.75995129924E+02	-4.28549358432E-01	1.76005593558E+02	-2.80071783651E+01	1.42989651554E+02
7.14500000000E+06	-2.80128643940E+01	1.42792721624E+02	-4.25970195358E-01	1.75844823748E+02	-4.28333739598E-01	1.75848322353E+02	-2.80481821629E+01	1.43054638078E+02
7.34000000000E+06	-2.80667017226E+01	1.42872638447E+02	-4.26331815299E-01	1.75692968316E+02	-4.28388036380E-01	1.75698718988E+02	-2.80980014491E+01	1.43146902945E+02
7.53500000000E+06	-2.81084418036E+01	1.42921280090E+02	-4.26942573136E-01	1.75539452552E+02	-4.29745166817E-01	1.75546268876E+02	-2.81357590057E+01	1.43205946293E+02
7.73000000000E+06	-2.81498844876E+01	1.42993781821E+02	-4.27536404474E-01	1.75395620462E+02	-4.29795086957E-01	1.75401789394E+02	-2.81753374109E+01	1.43269486763E+02
7.92500000000E+06	-2.81966760904E+01	1.43048637953E+02	-4.28432341138E-01	1.75245792931E+02	-4.30011044512E-01	1.75253394633E+02	-2.82142305950E+01	1.43338014846E+02
8.12000000000E+06	-2.82348032928E+01	1.43133273856E+02	-4.29312779313E-01	1.75103363261E+02	-4.31129020324E-01	1.75105259294E+02	-2.82484923093E+01	1.43381852511E+02
8.31500000000E+06	-2.82637151448E+01	1.43148972086E+02	-4.29849960445E-01	1.74953058635E+02	-4.31421321631E-01	1.74961301780E+02	-2.82852734589E+01	1.43385933304E+02
8.51000000000E+06	-2.83074192809E+01	1.43172758034E+02	-4.29826448638E-01	1.74808395153E+02	-4.32933125128E-01	1.74811626401E+02	-2.83225779428E+01	1.43369319039E+02
8.70500000000E+06	-2.83366042476E+01	1.43136822790E+02	-4.30829102191E-01	1.74661440320E+02	-4.33113774012E-01	1.74667429058E+02	-2.83483647617E+01	1.43353210602E+02
8.90000000000E+06	-2.83719691313E+01	1.43103188009E+02	-4.32690001067E-01	1.74518971381E+02	-4.34347615009E-01	1.74525898317E+02	-2.83770822836E+01	1.43327052490E+02
9.09500000000E+06	-2.84034139553E+01	1.43069918422E+02	-4.33139224089E-01	1.74383075253E+02	-4.35695219287E-01	1.74379828944E+02	-2.84104069826E+01	1.43277142023E+02
9.29000000000E+06	-2.84395812251E+01	1.43061307079E+02	-4.33768172246E-01	1.74238322840E+02	-4.35685302032E-01	1.74241993033E+02	-2.84441155782E+01	1.43253208726E+02
9.48500000000E+06	-2.84695437267E+01	1.43036763903E+02	-4.34708588770E-01	1.74098962232E+02	-4.36909323425E-01	1.74097627123E+02	-2.84751086159E+01	1.43212876818E+02
9.68000000000E+06	-2.84971260289E+01	1.43014692181E+02	-4.35916915219E-01	1.73953198695E+02	-4.38547494166E-01	1.73954417709E+02	-2.85050160118E+01	1.43188621517E+02
9.87500000000E+06	-2.85371714958E+01	1.42992893760E+02	-4.37249730905E-01	1.73811325873E+02	-4.39163398855E-01	1.73806652483E+02	-2.85434592708E+01	1.43168244312E+02
1.00700000000E+07	-2.85667467863E+01	1.42944838058E+02	-4.38482598023E-01	1.73669385858E+02	-4.39805017987E-01	1.73667466547E+02	-2.85696951575E+01	1.43091940938E+02
1.02650000000E+07	-2.85946423630E+01	1.42839353142E+02	-4.39295958501E-01	1.73527237946E+02	-4.40256307471E-01	1.73518686864E+02	-2.86063201353E+01	1.42972800092E+02
1.04600000000E+07	-2.86285802459E+01	1.42660153554E+02	-4.40664562419E-01	1.73384066126E+02	-4.41338413229E-01	1.73379509520E+02	-2.86298654327E+01	1.42782448745E+02
1.06550000000E+07	-2.86445005085E+01	1.42433364509E+02	-4.40318267965E-01	1.73238301398E+02	-4.42068297159E-01	1.73228214614E+02	-2.86486179028E+01	1.42576843517E+02
1.08500000000E+07	-2.86630897138E+01	1.42168072539E+02	-4.41636156866E-01	1.73093765389E+02	-4.43038827765E-01	1.73081330720E+02	-2.86683791543E+01	1.42287300769E+02
1.10450000000E+07	-2.86710424362E+01	1.41837826142E+02	-4.41868947939E-01	1.72943508288E+02	-4.43366469231E-01	1.72923818361E+02	-2.86739383595E+01	1.41951848021E+02
1.12400000000E+07	-2.86748852591E+01	1.41493204750E+02	-4.42311973333E-01	1.72787652379E+02	-4.43226234455E-01	1.72775339732E+02	-2.86832548721E+01	1.41578775688E+02
1.14350000000E+07	-2.86815162147E+01	1.41095284527E+02	-4.41942285887E-01	1.72631774856E+02	-4.44064144399E-01	1.72615281095E+02	-2.86824436526E+01	1.41190818911E+02
1.16300000000E+07	-2.86813732855E+01	1.40688378690E+02	-4.43553990923E-01	1.72477726577E+02	-4.45975820220E-01	1.72465478203E+02	-2.86791942831E+01	1.40719468588E+02
1.18250000000E+07	-2.86831749572E+01	1.40270176436E+02	-4.45593468638E-01	1.72325778316E+02	-4.46937535425E-01	1.72324326717E+02	-2.86891921069E+01	1.40328015158E+02
1.20200000000E+07	-2.86971956592E+01	1.39820649813E+02	-4.47399534713E-01	1.72189446555E+02	-4.48954656542E-01	1.72194544531E+02	-2.86845368186E+01	1.39837554861E+02
1.22150000000E+07	-2.87005886693E+01	1.39435949091E+02	-4.49398599794E-01	1.72062824154E+02	-4.50608187567E-01	1.72062111731E+02	-2.86956300266E+01	1.39418517566E+02
1.24100000000E+07	-2.87140932812E+01	1.39097885569E+02	-4.49594095574E-01	1.71937554782E+02	-4.50353569736E-01	1.71938659830E+02	-2.87037618706E+01	1.39028774467E+02
1.26050000000E+07	-2.87227516578E+01	1.38704120891E+02	-4.50265479601E-01	1.71811543174E+02	-4.51374528577E-01	1.71811892509E+02	-2.87161098612E+01	1.38616679746E+02
1.28000000000E+07	-2.87361584332E+01	1.38367087954E+02	-4.51159959694E-01	1.71680371421E+02	-4.51515276199E-01	1.71676422285E+02	-2.87275367803E+01	1.38246215955E+02
1.29950000000E+07	-2.87410807273E+01	1.38094398748E+02	-4.51938247761E-01	1.71548538088E+02	-4.52443975290E-01	1.71547680773E+02	-2.87290725813E+01	1.37891158344E+02
1.31900000000E+07	-2.87643475910E+01	1.37775880959E+02	-4.51970688818E-01	1.71422426437E+02	-4.53407464083E-01	1.71416574021E+02	-2.87514926145E+01	1.37640402654E+02
1.33850000000E+07	-2.87699931396E+01	1.37471947728E+02	-4.52600549294E-01	1.71289710794E+02	-4.53039102019E-01	1.71278601989E+02	-2.87601175715E+01	1.37315443112E+02
1.35800000000E+07	-2.87782041375E+01	1.37199193492E+02	-4.54016586863E-01	1.71158144289E+02	-4.54665946444E-01	1.71153478957E+02	-2.87746103873E+01	1.37046170540E+02
1.37750000000E+07	-2.87955982693E+01	1.36953838884E+02	-4.53859088960E-01	1.71026853675E+02	-4.54023290569E-01	1.71021251526E+02	-2.87867392579E+01	1.36739447236E+02
1.39700000000E+07	-2.87986734268E+01	1.36690680266E+02	-4.54527772925E-01	1.70892297038E+02	-4.55264350053E-01	1.70888701139E+02	-2.87853798967E+01	1.36466015155E+02
1.41650000000E+07	-2.88103005414E+01	1.36419592979E+02	-4.55814958195E-01	1.70762558925E+02	-4.55876047079E-01	1.70754376061E+02	-2.87988636840E+01	1.36207242573E+02
1.43600000000E+07	-2.88225618013E+01	1.36167242170E+02	-4.56265501700E-01	1.70630439773E+02	-4.57099614498E-01	1.70616890879E+02	-2.88099492464E+01	1.35975254712E+02
1.45550000000E+07	-2.88301827030E+01	1.35926090728E+02	-4.56507250229E-01	1.70498397139E+02	-4.57703000019E-01	1.70485530365E+02	-2.88147212557E+01	1.35720466155E+02
1.47500000000E+07	-2.88396897646E+01	1.35707730453E+02	-4.57321839444E-01	1.70359682495E+02	-4.58859412788E-01	1.70346654001E+02	-2.88234203099E+01	1.35372111180E+02
1.49450000000E+07	-2.88473791703E+01	1.35435421794E+02	-4.58728837452E-01	1.70238356299E+02	-4.59412801106E-01	1.70213065927E+02	-2.88355593207E+01	1.35129438127E+02
1.51400000000E+07	-2.88553767106E+01	1.35179374435E+02	-4.59264462749E-01	1.70093290482E+02	-4.60762656208E-01	1.70081254910E+02	-2.88339878294E+01	1.34885404498E+02
1.53350000000E+07	-2.88625565427E+01	1.34947139802E+02	-4.60099668915E-01	1.69965530974E+02	-4.60705986107E-01	1.69947277013E+02	-2.88546818732E+01	1.34649644290E+02
1.55300000000E+07	-2.88733047144E+01	1.34731707433E+02	-4.60730118330E-01	1.69835378915E+02	-4.61657694304E-01	1.69818734971E+02	-2.88536622144E+01	1.34392887812E+02
1.57250000000E+07	-2.88867313381E+01	1.34445580909E+02	-4.61039843628E-01	1.69699798609E+02	-4.63100909064E-01	1.69683395758E+02	-2.88672590300E+01	1.34134302412E+02
1.59200000000E+07	-2.88873993465E+01	1.34232313784E+02	-4.62335899028E-01	1.69566325624E+02	-4.63745876755E-01	1.69551851974E+02	-2.88794140504E+01	1.33866068197E+02
1.61150000000E+07	-2.88920955101E+01	1.33988001122E+02	-4.62914558327E-01	1.69438566365E+02	-4.64476387501E-01	1.69416912028E+02	-2.88817627215E+01	1.33624072856E+02
1.63100000000E+07	-2.89054452104E+01	1.33755335697E+02	-4.63750715110E-01	1.69312073544E+02	-4.65142376850E-01	1.69290810331E+02	-2.88847701051E+01	1.33320932486E+02
1.65050000000E+07	-2.89083287965E+01	1.33513020486E+02	-4.64582358489E-01	1.69172448406E+02	-4.66079366083E-01	1.69159775860E+02	-2.88949247983E+01	1.33096926299E+02
1.67000000000E+07	-2.89178094096E+01	1.33272452809E+02	-4.65669372723E-01	1.69039462314E+02	-4.66515066745E-01	1.69029107000E+02	-2.89045496972E+01	1.32808937418E+02
1.68950000000E+07	-2.89217900355E+01	1.33056773791E+02	-4.65508279413E-01	1.68909848238E+02	-4.67292914171E-01	1.68897254603E+02	-2.89124546623E+01	1.32567006093E+02
1.70900000000E+07	-2.89284879494E+01	1.32830533810E+02	-4.66989712534E-01	1.68777697001E+02	-4.67562432235E-01	1.68766185768E+02	-2.89175551791E+01	1.32339070491E+02
1.72850000000E+07	-2.89374738940E+01	1.32577763436E+02	-4.67529354072E-01	1.68650858057E+02	-4.68853118300E-01	1.68634312331E+02	-2.89330965276E+01	1.32077860984E+02
1.74800000000E+07	-2.89418504963E+01	1.32368669165E+02	-4.68588610854E-01	1.68514192676E+02	-4.69624838796E-01	1.68494946941E+02	-2.89381228189E+01	1.31829881170E+02
1.76750000000E+07	-2.89397646903E+01	1.32097373710E+02	-4.69084373693E-01	1.68378018102E+02	-4.70769060832E-01	1.68368683422E+02	-2.89378575959E+01	1.31537049914E+02
1.78700000000E+07	-2.89505747945E+01	1.31884387768E+02	-4.70633636424E-01	1.68250525462E+02	-4.71666117907E-01	1.68237951799E+02	-2.89431588858E+01	1.31317268215E+02
1.80650000000E+07	-2.89526266832E+01	1.31639425411E+02	-4.70261046239E-01	1.68113868392E+02	-4.72117741781E-01	1.68106114033E+02	-2.89481959336E+01	1.31075925980E+02
1.82600000000E+07	-2.89558266937E+01	1.31432256905E+02	-4.71815069697E-01	1.67986886761E+02	-4.73604868971E-01	1.67973234090E+02	-2.89564560190E+01	1.30810141552E+02
1.84550000000E+07	-2.89550097961E+01	1.31177857037E+02	-4.72805594001E-01	1.67857381992E+02	-4.73361400211E-01	1.67845967387E+02	-2.89628506688E+01	1.30568834112E+02
1.86500000000E+07	-2.89689392308E+01	1.30965301538E+02	-4.72724067226E-01	1.67725275832E+02	-4.75065684847E-01	1.67715123337E+02	-2.89658633616E+01	1.30348641289E+02
1.88450000000E+07	-2.89658485897E+01	1.30700922360E+02	-4.74242398051E-01	1.67593094744E+02	-4.75870431756E-01	1.67578503877E+02	-2.89718870263E+01	1.30113109321E+02
1.90400000000E+07	-2.89744727964E+01	1.30431060805E+02	-4.74107590892E-01	1.67457299890E+02	-4.76277677139E-01	1.67451637505E+02	-2.89714813653E+01	1.29829687220E+02
1.92350000000E+07	-2.89757321848E+01	1.30201801698E+02	-4.74878465436E-01	1.67328837176E+02	-4.77563935123E-01	1.67321321639E+02	-2.89768487243E+01	1.29624188945E+02
1.94300000000E+07	-2.89766690178E+01	1.29967335951E+02	-4.75697208964E-01	1.67200695892E+02	-4.78460518214E-01	1.67195416670E+02	-2.89789630936E+01	1.29355888083E+02
1.96250000000E+07	-2.89804453185E+01	1.29742052669E+02	-4.76477236906E-01	1.67066658342E+02	-4.78861525634E-01	1.67060493667E+02	-2.89900420607E+01	1.29107095257E+02
1.98200000000E+07	-2.89851234659E+01	1.29526446536E+02	-4.78236005518E-01	1.66940068498E+02	-4.79326912047E-01	1.66933898362E+02	-2.89927334784E+01	1.28881997852E+02
2.00150000000E+07	-2.89783163923E+01	1.29261444671E+02	-4.78736053378E-01	1.66809239843E+02	-4.80642752677E-01	1.66802373685E+02	-2.89868317230E+01	1.28639680358E+02
2.02100000000E+07	-2.89829643233E+01	1.29106747317E+02	-4.79374033965E-01	1.66679007717E+02	-4.81314694630E-01	1.66671611662E+02	-2.89999075371E+01	1.28461756663E+02
2.04050000000E+07	-2.89863838393E+01	1.28866851497E+02	-4.79428628860E-01	1.66547431520E+02	-4.81476672859E-01	1.66536578979E+02	-2.89977346552E+01	1.28196095964E+02
2.06000000000E+07	-2.89890645912E+01	1.28594691565E+02	-4.80561315210E-01	1.66418738628E+02	-4.82600003291E-01	1.66413075701E+02	-2.90030802885E+01	1.27934601547E+02
2.07950000000E+07	-2.89907722702E+01	1.28397862342E+02	-4.81386573484E-01	1.66287109941E+02	-4.83496619653E-01	1.66280941343E+02	-2.89939560032E+01	1.27708812357E+02
2.09900000000E+07	-2.89915275607E+01	1.28147357141E+02	-4.82409125933E-01	1.66153987710E+02	-4.84200958320E-01	1.66149795003E+02	-2.89939057436E+01	1.27464137240E+02
2.11850000000E+07	-2.89884587455E+01	1.27882070331E+02	-4.82476796954E-01	1.66027341512E+02	-4.85159170629E-01	1.66019685497E+02	-2.89918271203E+01	1.27186394593E+02
2.13800000000E+07	-2.89909448655E+01	1.27659101460E+02	-4.83168146127E-01	1.65898560770E+02	-4.85679073279E-01	1.65886288728E+02	-2.89913416488E+01	1.27008160690E+02
2.15750000000E+07	-2.89916739972E+01	1.27387723878E+02	-4.84175992175E-01	1.65763991166E+02	-4.86967164006E-01	1.65757580155E+02	-2.89936044960E+01	1.26751011305E+02
2.17700000000E+07	-2.89953903235E+01	1.27195290671E+02	-4.85289815247E-01	1.65636779364E+02	-4.87613873105E-01	1.65632833457E+02	-2.89863426427E+01	1.26490064258E+02
2.19650000000E+07	-2.89988932412E+01	1.26908142049E+02	-4.86032531012E-01	1.65509444465E+02	-4.88171665257E-01	1.65502123383E+02	-2.89896686687E+01	1.26286826890E+02
2.21600000000E+07	-2.89959608935E+01	1.26745799750E+02	-4.86190253467E-01	1.65378410652E+02	-4.89252491492E-01	1.65370858406E+02	-2.89831638056E+01	1.26037936909E+02
2.23550000000E+07	-2.89948789370E+01	1.26511855611E+02	-4.87602471230E-01	1.65248897260E+02	-4.89383667957E-01	1.65239160951E+02	-2.89820578899E+01	1.25775879119E+02
2.25500000000E+07	-2.89965958662E+01	1.26274677343E+02	-4.88733711269E-01	1.65118421120E+02	-4.90917297500E-01	1.65112301488E+02	-2.89855331045E+01	1.25561669226E+02
2.27450000000E+07	-2.89905769842E+01	1.26044183746E+02	-4.89271899408E-01	1.64992297071E+02	-4.91601797285E-01	1.64982071750E+02	-2.89846286934E+01	1.25317705684E+02
2.29400000000E+07	-2.89904156695E+01	1.25807592717E+02	-4.90041076252E-01	1.64857901545E+02	-4.92311624940E-01	1.64849685714E+02	-2.89798128013E+01	1.25077147839E+02
2.31350000000E+07	-2.89943394327E+01	1.25560319941E+02	-4.89859166907E-01	1.64731675612E+02	-4.92451326860E-01	1.64723884774E+02	-2.89791827386E+01	1.24809342955E+02
2.33300000000E+07	-2.89851429858E+01	1.25316527771E+02	-4.90807475391E-01	1.64604680684E+02	-4.93786944282E-01	1.64596958901E+02	-2.89738840207E+01	1.24627450325E+02
2.35250000000E+07	-2.89852217647E+01	1.25119261293E+02	-4.92000578216E-01	1.64473600211E+02	-4.94856402279E-01	1.64468837360E+02	-2.89699825503E+01	1.24379489775E+02
2.37200000000E+07	-2.89806510618E+01	1.24853931226E+02	-4.93101647035E-01	1.64344691059E+02	-4.95028598558E-01	1.64333844609E+02	-2.89706827248E+01	1.24141425687E+02
2.39150000000E+07	-2.89833378557E+01	1.24642057532E+02	-4.93725080002E-01	1.64218336034E+02	-4.96794764243E-01	1.64207527857E+02	-2.89650446381E+01	1.23911961459E+02
2.41100000000E+07	-2.89863105680E+01	1.24431782541E+02	-4.93967182992E-01	1.64088530309E+02	-4.96940212224E-01	1.64080724718E+02	-2.89617860914E+01	1.23689670581E+02
2.43050000000E+07	-2.89738423229E+01	1.24165947619E+02	-4.95134544721E-01	1.63959373584E+02	-4.96961556031E-01	1.63953879232E+02	-2.89574307569E+01	1.23467575220E+02
2.45000000000E+07	-2.89813783762E+01	1.23890910725E+02	-4.95590870737E-01	1.63828105748E+02	-4.98236754118E-01	1.63821124552E+02	-2.89508017880E+01	1.23217918383E+02
2.46950000000E+07	-2.89710339016E+01	1.23684638344E+02	-4.96950340782E-01	1.63699258217E+02	-4.98512251192E-01	1.63690469450E+02	-2.89511774923E+01	1.23007608199E+02
2.48900000000E+07	-2.89694735429E+01	1.23452039037E+02	-4.97482386224E-01	1.63572094481E+02	-4.99908140499E-01	1.63560946413E+02	-2.89450140405E+01	1.22740960146E+02
2.50850000000E+07	-2.89677998662E+01	1.23181412630E+02	-4.98858437094E-01	1.63440935247E+02	-5.00226378839E-01	1.63433135588E+02	-2.89376018043E+01	1.22561336211E+02
2.52800000000E+07	-2.89632771457E+01	1.23019123406E+02	-4.99986075664E-01	1.63314318966E+02	-5.01409514003E-01	1.63305038244E+02	-2.89362571155E+01	1.22324675023E+02
2.54750000000E+07	-2.89596740890E+01	1.22791404840E+02	-5.00364093466E-01	1.63182608916E+02	-5.02499394610E-01	1.63176294937E+02	-2.89297855060E+01	1.22055512592E+02
2.56700000000E+07	-2.89530163117E+01	1.22549255487E+02	-5.01467680516E-01	1.63055867934E+02	-5.03473540712E-01	1.63045949346E+02	-2.89243150927E+01	1.21862076602E+02
2.58650000000E+07	-2.89444400413E+01	1.22320584967E+02	-5.01783766799E-01	1.62929409909E+02	-5.03664334982E-01	1.62915061031E+02	-2.89223210321E+01	1.21653784255E+02
2.60600000000E+07	-2.89467514537E+01	1.22069113232E+02	-5.02065248127E-01	1.62802586917E+02	-5.04333006352E-01	1.62790668921E+02	-2.89185171936E+01	1.21392143659E+02
2.62550000000E+07	-2.89379986502E+01	1.21847655375E+02	-5.03062798905E-01	1.62671893830E+02	-5.04936281296E-01	1.62666879045E+02	-2.89127427122E+01	1.21138142986E+02
2.64500000000E+07	-2.89372328152E+01	1.21593945529E+02	-5.04161499481E-01	1.62546811755E+02	-5.05658990752E-01	1.62533507735E+02	-2.89086358139E+01	1.20915476282E+02
2.66450000000E+07	-2.89270023818E+01	1.21367465144E+02	-5.05081532235E-01	1.62417237041E+02	-5.06430386526E-01	1.62407315794E+02	-2.89052320268E+01	1.20680769253E+02
2.68400000000E+07	-2.89209843081E+01	1.21151740648E+02	-5.05542917068E-01	1.62286376986E+02	-5.07470786801E-01	1.62280236826E+02	-2.88959297523E+01	1.20446685354E+02
2.70350000000E+07	-2.89209044612E+01	1.20890217449E+02	-5.05989397253E-01	1.62156170302E+02	-5.07642363787E-01	1.62146169927E+02	-2.88963181103E+01	1.20163210764E+02
2.72300000000E+07	-2.89120192079E+01	1.20671159184E+02	-5.07407902501E-01	1.62034283929E+02	-5.08903802123E-01	1.62024496714E+02	-2.88844857233E+01	1.19961667863E+02
2.74250000000E+07	-2.89060898149E+01	1.20420959877E+02	-5.07491982401E-01	1.61905933744E+02	-5.09360023042E-01	1.61893383414E+02	-2.88816519021E+01	1.19767207969E+02
2.76200000000E+07	-2.89035811376E+01	1.20218630987E+02	-5.08562851197E-01	1.61776394328E+02	-5.09694072044E-01	1.61766434020E+02	-2.88807744016E+01	1.19497935696E+02
2.78150000000E+07	-2.88887807452E+01	1.19941428819E+02	-5.08920044960E-01	1.61650288608E+02	-5.10794684800E-01	1.61635017690E+02	-2.88711699648E+01	1.19305160448E+02
