# Hz S DB R 50
! CMT, M5045, 22160017, 22.4.3/2
! Date: 1/19/2023 23:06:23
! Data: Format (Calibration Info)
! Freq	S11:dB/Ang(F2)	S21:dB/Ang(F2)	S12:dB/Ang(F2)	S22:dB/Ang(F2)
5.00000000000E+06	-2.70399273227E+01	1.40476399866E+02	-4.27877806929E-01	-2.31554410799E+00	-4.31000773639E-01	-2.30834775118E+00	-2.70902496006E+01	1.40581635257E+02
5.19500000000E+06	-2.71644548871E+01	1.40654555050E+02	-4.26159962540E-01	-2.48922813912E+00	-4.30179814540E-01	-2.48430803168E+00	-2.72150028987E+01	1.40807116180E+02
5.39000000000E+06	-2.72708032567E+01	1.40782693333E+02	-4.25944437491E-01	-2.66474329170E+00	-4.29806369304E-01	-2.65829492708E+00	-2.73281731345E+01	1.41002468718E+02
5.58500000000E+06	-2.73733300161E+01	1.40940257767E+02	-4.25241444612E-01	-2.83533609226E+00	-4.27506572771E-01	-2.82661606312E+00	-2.74307243881E+01	1.41172295995E+02
5.78000000000E+06	-2.74713708528E+01	1.41085836333E+02	-4.24480716630E-01	-3.00214511548E+00	-4.27512811209E-01	-2.99192935888E+00	-2.75255217899E+01	1.41337451935E+02
5.97500000000E+06	-2.75615555697E+01	1.41254672037E+02	-4.23626360608E-01	-3.16940029692E+00	-4.26270815418E-01	-3.16216251558E+00	-2.76059390062E+01	1.41511060755E+02
6.17000000000E+06	-2.76399486920E+01	1.41414210659E+02	-4.23299529661E-01	-3.33200032864E+00	-4.27067580590E-01	-3.32697043452E+00	-2.76869919204E+01	1.41764218667E+02
6.36500000000E+06	-2.77122638641E+01	1.41566097932E+02	-4.23916053411E-01	-3.48871454935E+00	-4.26903584514E-01	-3.48636463247E+00	-2.77645081228E+01	1.41905644015E+02
6.56000000000E+06	-2.77856394449E+01	1.41712405892E+02	-4.23990346311E-01	-3.65045933503E+00	-4.27000653891E-01	-3.64336002371E+00	-2.78372501690E+01	1.42048025088E+02
6.75500000000E+06	-2.78414000208E+01	1.41863012271E+02	-4.24452872719E-01	-3.80310424618E+00	-4.26623979659E-01	-3.80207341435E+00	-2.78990755733E+01	1.42206236339E+02
6.95000000000E+06	-2.79048733990E+01	1.41937356872E+02	-4.24939972694E-01	-3.96518635732E+00	-4.27004079528E-01	-3.95286365807E+00	-2.79573127953E+01	1.42426165258E+02
7.14500000000E+06	-2.79504249644E+01	1.42031362997E+02	-4.25150726297E-01	-4.11688239955E+00	-4.27120034484E-01	-4.11201707117E+00	-2.80057394476E+01	1.42468125151E+02
7.34000000000E+06	-2.80097458399E+01	1.42134078522E+02	-4.25927336717E-01	-4.26806497786E+00	-4.27286627476E-01	-4.26102218539E+00	-2.80568995716E+01	1.42564521946E+02
7.53500000000E+06	-2.80527924410E+01	1.42144894511E+02	-4.25807863154E-01	-4.42184527355E+00	-4.28233281513E-01	-4.41544743477E+00	-2.80939268054E+01	1.42642408882E+02
7.73000000000E+06	-2.80986626366E+01	1.42223050705E+02	-4.26519338478E-01	-4.56908187067E+00	-4.28040504470E-01	-4.56561705423E+00	-2.81361664218E+01	1.42741049793E+02
7.92500000000E+06	-2.81415701177E+01	1.42299575578E+02	-4.27166931478E-01	-4.71652774847E+00	-4.28327717460E-01	-4.70870649376E+00	-2.81775056861E+01	1.42804711571E+02
8.12000000000E+06	-2.81852538038E+01	1.42352438828E+02	-4.28017571143E-01	-4.86333736272E+00	-4.29469507967E-01	-4.85754817420E+00	-2.82121173085E+01	1.42855900995E+02
8.31500000000E+06	-2.82133298807E+01	1.42386869168E+02	-4.28570527812E-01	-5.01316265830E+00	-4.29655157750E-01	-5.00759827940E+00	-2.82515532244E+01	1.42872038165E+02
8.51000000000E+06	-2.82619227259E+01	1.42400090492E+02	-4.28847116987E-01	-5.15859270010E+00	-4.31177149602E-01	-5.15585992653E+00	-2.82920694642E+01	1.42873357289E+02
8.70500000000E+06	-2.82905067665E+01	1.42390971344E+02	-4.29781032212E-01	-5.30466660109E+00	-4.31552488902E-01	-5.30065940158E+00	-2.83239701504E+01	1.42842862075E+02
8.90000000000E+06	-2.83283889348E+01	1.42354306635E+02	-4.31912380313E-01	-5.44523736003E+00	-4.32955657141E-01	-5.44218273644E+00	-2.83557983652E+01	1.42844450950E+02
9.09500000000E+06	-2.83604365556E+01	1.42291299656E+02	-4.32068410864E-01	-5.58847915657E+00	-4.33826122612E-01	-5.58548795640E+00	-2.83894681594E+01	1.42809579289E+02
9.29000000000E+06	-2.83998739268E+01	1.42307758406E+02	-4.32824138760E-01	-5.72506772716E+00	-4.34306022437E-01	-5.72733352589E+00	-2.84239745635E+01	1.42769015504E+02
9.48500000000E+06	-2.84335792133E+01	1.42274384561E+02	-4.34370422703E-01	-5.86869219432E+00	-4.35160778245E-01	-5.87074995099E+00	-2.84584636280E+01	1.42766105336E+02
9.68000000000E+06	-2.84633100671E+01	1.42242216724E+02	-4.34515840872E-01	-6.01350564818E+00	-4.36274935686E-01	-6.01620857509E+00	-2.84862766056E+01	1.42760711491E+02
9.87500000000E+06	-2.85029914926E+01	1.42241164084E+02	-4.35450144346E-01	-6.15987373585E+00	-4.36729458228E-01	-6.16196894549E+00	-2.85225151345E+01	1.42739127545E+02
1.00700000000E+07	-2.85387897007E+01	1.42160205238E+02	-4.37397117176E-01	-6.29433249401E+00	-4.38190594049E-01	-6.30475365984E+00	-2.85562726868E+01	1.42681235802E+02
1.02650000000E+07	-2.85636518430E+01	1.42067770410E+02	-4.37734379229E-01	-6.44241534356E+00	-4.38882362133E-01	-6.45019107477E+00	-2.85932204003E+01	1.42556469790E+02
1.04600000000E+07	-2.85973083575E+01	1.41890370121E+02	-4.38580579396E-01	-6.58544106408E+00	-4.39598684685E-01	-6.59298702854E+00	-2.86183329068E+01	1.42378341983E+02
1.06550000000E+07	-2.86176005163E+01	1.41662418025E+02	-4.38954836242E-01	-6.73068126594E+00	-4.39929349710E-01	-6.74072554916E+00	-2.86374843435E+01	1.42183566294E+02
1.08500000000E+07	-2.86339348496E+01	1.41378289293E+02	-4.39480524961E-01	-6.88031800104E+00	-4.40587871600E-01	-6.88655723155E+00	-2.86588666248E+01	1.41917896898E+02
1.10450000000E+07	-2.86428961407E+01	1.41051231901E+02	-4.39738650830E-01	-7.02583958165E+00	-4.40861250028E-01	-7.04200232916E+00	-2.86652580648E+01	1.41606350950E+02
1.12400000000E+07	-2.86474777561E+01	1.40720231509E+02	-4.40626430258E-01	-7.18456731832E+00	-4.41215324735E-01	-7.19766633020E+00	-2.86739511341E+01	1.41212672493E+02
1.14350000000E+07	-2.86575649986E+01	1.40330111496E+02	-4.39921782572E-01	-7.33632976862E+00	-4.41958345700E-01	-7.35675395231E+00	-2.86735247415E+01	1.40852384361E+02
1.16300000000E+07	-2.86530881141E+01	1.39913255915E+02	-4.42459204922E-01	-7.49556056355E+00	-4.43372977651E-01	-7.50835923021E+00	-2.86709436981E+01	1.40416557794E+02
1.18250000000E+07	-2.86539743739E+01	1.39530622239E+02	-4.44185413836E-01	-7.64654454069E+00	-4.44890442801E-01	-7.64836640178E+00	-2.86815060309E+01	1.40030820145E+02
1.20200000000E+07	-2.86680310984E+01	1.39070356782E+02	-4.45653705938E-01	-7.78211732576E+00	-4.46800302089E-01	-7.78133577584E+00	-2.86796372796E+01	1.39550925046E+02
1.22150000000E+07	-2.86746497844E+01	1.38673774749E+02	-4.47569769318E-01	-7.90714033275E+00	-4.48547562241E-01	-7.90793588844E+00	-2.86888625838E+01	1.39121984720E+02
1.24100000000E+07	-2.86904787679E+01	1.38328073254E+02	-4.48510194382E-01	-8.03980860867E+00	-4.48176718069E-01	-8.03481071865E+00	-2.86957360732E+01	1.38724469873E+02
1.26050000000E+07	-2.86974193625E+01	1.37947830415E+02	-4.48547514118E-01	-8.15908534590E+00	-4.49262287365E-01	-8.16047782643E+00	-2.87081226420E+01	1.38341179540E+02
1.28000000000E+07	-2.87123382294E+01	1.37609118447E+02	-4.49152883346E-01	-8.29012531896E+00	-4.49184999647E-01	-8.29799619016E+00	-2.87228222297E+01	1.38017944918E+02
1.29950000000E+07	-2.87181146498E+01	1.37329353190E+02	-4.50436925902E-01	-8.42151801663E+00	-4.50086081504E-01	-8.42866166592E+00	-2.87247125812E+01	1.37645101928E+02
1.31900000000E+07	-2.87404814410E+01	1.36986046646E+02	-4.50440915877E-01	-8.55217489496E+00	-4.50687281172E-01	-8.55856824704E+00	-2.87460194238E+01	1.37402443280E+02
1.33850000000E+07	-2.87458790299E+01	1.36723473872E+02	-4.50602545393E-01	-8.68337135689E+00	-4.51028902793E-01	-8.69076732870E+00	-2.87551489253E+01	1.37092490615E+02
1.35800000000E+07	-2.87576121677E+01	1.36439018673E+02	-4.51167723816E-01	-8.81180074404E+00	-4.52634010387E-01	-8.82214486331E+00	-2.87717538991E+01	1.36838966096E+02
1.37750000000E+07	-2.87747840875E+01	1.36172806785E+02	-4.51871635612E-01	-8.94719279895E+00	-4.51790583504E-01	-8.95390724913E+00	-2.87799312854E+01	1.36554014925E+02
1.39700000000E+07	-2.87806822476E+01	1.35925506065E+02	-4.53054730768E-01	-9.08158444617E+00	-4.53059753383E-01	-9.08852665466E+00	-2.87847251601E+01	1.36278021620E+02
1.41650000000E+07	-2.87921611464E+01	1.35660666009E+02	-4.54421585726E-01	-9.21404204204E+00	-4.54032070843E-01	-9.22074804196E+00	-2.87979422324E+01	1.36038483541E+02
1.43600000000E+07	-2.88017090175E+01	1.35381348709E+02	-4.54437994763E-01	-9.34360831720E+00	-4.54621237678E-01	-9.35883347981E+00	-2.88057912737E+01	1.35810085921E+02
1.45550000000E+07	-2.88090249366E+01	1.35155198387E+02	-4.54978679679E-01	-9.48088258452E+00	-4.55150985095E-01	-9.49093333843E+00	-2.88098182776E+01	1.35545626197E+02
1.47500000000E+07	-2.88203814058E+01	1.34915503911E+02	-4.55861713794E-01	-9.61436238334E+00	-4.56443132952E-01	-9.62979640334E+00	-2.88168490209E+01	1.35230297903E+02
1.49450000000E+07	-2.88275615568E+01	1.34661536612E+02	-4.56849671722E-01	-9.74054823111E+00	-4.57278330318E-01	-9.76193795650E+00	-2.88308248862E+01	1.35006918549E+02
1.51400000000E+07	-2.88394550579E+01	1.34396353547E+02	-4.57116831272E-01	-9.87817784090E+00	-4.58210793178E-01	-9.89309799851E+00	-2.88337696219E+01	1.34759333970E+02
1.53350000000E+07	-2.88470646736E+01	1.34162043546E+02	-4.57844585918E-01	-1.00082125950E+01	-4.58241006847E-01	-1.00333752028E+01	-2.88501965687E+01	1.34516711903E+02
1.55300000000E+07	-2.88568374675E+01	1.33934098458E+02	-4.58568739812E-01	-1.01452518193E+01	-4.59334717387E-01	-1.01584388848E+01	-2.88531543445E+01	1.34263201478E+02
1.57250000000E+07	-2.88643821281E+01	1.33634629779E+02	-4.59001044376E-01	-1.02775410153E+01	-4.59897769600E-01	-1.02912290128E+01	-2.88639364632E+01	1.34036705002E+02
1.59200000000E+07	-2.88679074568E+01	1.33446383771E+02	-4.60427116709E-01	-1.04083305477E+01	-4.60610637070E-01	-1.04231532526E+01	-2.88752021783E+01	1.33769745639E+02
1.61150000000E+07	-2.88779805479E+01	1.33166125246E+02	-4.61506045256E-01	-1.05402612194E+01	-4.62326993922E-01	-1.05596495947E+01	-2.88779047191E+01	1.33546205716E+02
1.63100000000E+07	-2.88865803425E+01	1.32934815187E+02	-4.62152113987E-01	-1.06693820006E+01	-4.62549635086E-01	-1.06849270241E+01	-2.88814445489E+01	1.33254169446E+02
1.65050000000E+07	-2.88911872407E+01	1.32678238877E+02	-4.62806937014E-01	-1.08045394093E+01	-4.63284093577E-01	-1.08161013104E+01	-2.88926500574E+01	1.33023014573E+02
1.67000000000E+07	-2.89016257400E+01	1.32462673851E+02	-4.63248449632E-01	-1.09379022517E+01	-4.63772092368E-01	-1.09497848249E+01	-2.89001962954E+01	1.32736031278E+02
1.68950000000E+07	-2.89086238219E+01	1.32233669755E+02	-4.63716092031E-01	-1.10638290232E+01	-4.64952246495E-01	-1.10802567261E+01	-2.89079415747E+01	1.32536737812E+02
1.70900000000E+07	-2.89146266111E+01	1.32019730564E+02	-4.64889396116E-01	-1.11966937258E+01	-4.65483687997E-01	-1.12116305148E+01	-2.89196266670E+01	1.32306607643E+02
1.72850000000E+07	-2.89217428567E+01	1.31759762896E+02	-4.65553936572E-01	-1.13263483289E+01	-4.65907482179E-01	-1.13457214627E+01	-2.89289028524E+01	1.32051594353E+02
1.74800000000E+07	-2.89296414817E+01	1.31547964741E+02	-4.65276183708E-01	-1.14618603984E+01	-4.67579445234E-01	-1.14773903742E+01	-2.89335813850E+01	1.31805133561E+02
1.76750000000E+07	-2.89280933263E+01	1.31295555087E+02	-4.66929037847E-01	-1.15963805872E+01	-4.68851543035E-01	-1.16101228085E+01	-2.89387839495E+01	1.31519152075E+02
1.78700000000E+07	-2.89358737076E+01	1.31058505576E+02	-4.67883034164E-01	-1.17288229622E+01	-4.68806577919E-01	-1.17356412606E+01	-2.89421052018E+01	1.31331934258E+02
1.80650000000E+07	-2.89391585183E+01	1.30812480284E+02	-4.68795678588E-01	-1.18556509321E+01	-4.69703275364E-01	-1.18710923900E+01	-2.89479191910E+01	1.31085758436E+02
1.82600000000E+07	-2.89407067323E+01	1.30595736279E+02	-4.69411744149E-01	-1.19948979833E+01	-4.70281163314E-01	-1.20018069362E+01	-2.89551711796E+01	1.30826261793E+02
1.84550000000E+07	-2.89468019959E+01	1.30349934883E+02	-4.70269688133E-01	-1.21200400441E+01	-4.71262638056E-01	-1.21323603439E+01	-2.89608670899E+01	1.30589953465E+02
1.86500000000E+07	-2.89581518504E+01	1.30117626113E+02	-4.70676274776E-01	-1.22526294084E+01	-4.72795925060E-01	-1.22625315684E+01	-2.89649205900E+01	1.30385193064E+02
1.88450000000E+07	-2.89516428682E+01	1.29872194504E+02	-4.72225960870E-01	-1.23838199930E+01	-4.73257005666E-01	-1.23958385710E+01	-2.89682038715E+01	1.30167911259E+02
1.90400000000E+07	-2.89650816589E+01	1.29584319419E+02	-4.72632352485E-01	-1.25184364746E+01	-4.73751423229E-01	-1.25236292323E+01	-2.89702601822E+01	1.29871371424E+02
1.92350000000E+07	-2.89646247134E+01	1.29352248479E+02	-4.71691753727E-01	-1.26455854568E+01	-4.74313596964E-01	-1.26548210285E+01	-2.89728792712E+01	1.29669878460E+02
1.94300000000E+07	-2.89626517215E+01	1.29115094386E+02	-4.73470705958E-01	-1.27710099484E+01	-4.76025460384E-01	-1.27876465711E+01	-2.89755587071E+01	1.29427322104E+02
1.96250000000E+07	-2.89729957062E+01	1.28886296002E+02	-4.74628408934E-01	-1.29116021093E+01	-4.76619917269E-01	-1.29186939198E+01	-2.89846247136E+01	1.29193841948E+02
1.98200000000E+07	-2.89703911132E+01	1.28694034175E+02	-4.75186488999E-01	-1.30406684321E+01	-4.76230895709E-01	-1.30473280693E+01	-2.89889359352E+01	1.28971621561E+02
2.00150000000E+07	-2.89667773173E+01	1.28413552162E+02	-4.75719610334E-01	-1.31655016172E+01	-4.77712188220E-01	-1.31778429792E+01	-2.89823762878E+01	1.28738999459E+02
2.02100000000E+07	-2.89759032730E+01	1.28226334264E+02	-4.76734544849E-01	-1.33017770191E+01	-4.78205190412E-01	-1.33062997744E+01	-2.89914281241E+01	1.28565840091E+02
2.04050000000E+07	-2.89773673592E+01	1.28001129612E+02	-4.77374203486E-01	-1.34334102041E+01	-4.78692861695E-01	-1.34403937614E+01	-2.89927658509E+01	1.28327752710E+02
2.06000000000E+07	-2.89789933516E+01	1.27721530695E+02	-4.78315896993E-01	-1.35600031124E+01	-4.79409133168E-01	-1.35703137754E+01	-2.89947467067E+01	1.28066231196E+02
2.07950000000E+07	-2.89825449709E+01	1.27529709286E+02	-4.79367182765E-01	-1.36928938624E+01	-4.80665437374E-01	-1.36979312231E+01	-2.89875211893E+01	1.27834930360E+02
2.09900000000E+07	-2.89814146134E+01	1.27255834774E+02	-4.79222506821E-01	-1.38236369921E+01	-4.81452184197E-01	-1.38273393929E+01	-2.89870636318E+01	1.27589854434E+02
2.11850000000E+07	-2.89817053539E+01	1.27008172972E+02	-4.80141310868E-01	-1.39497835396E+01	-4.82260830546E-01	-1.39557557835E+01	-2.89852133543E+01	1.27341231638E+02
2.13800000000E+07	-2.89829659772E+01	1.26742849111E+02	-4.81205867536E-01	-1.40793141612E+01	-4.82927149565E-01	-1.40929996800E+01	-2.89850765224E+01	1.27182403870E+02
2.15750000000E+07	-2.89824118643E+01	1.26468866030E+02	-4.82252700785E-01	-1.42123054964E+01	-4.84148611051E-01	-1.42215426851E+01	-2.89884284429E+01	1.26924170314E+02
2.17700000000E+07	-2.89859396952E+01	1.26282013825E+02	-4.83294352959E-01	-1.43406710354E+01	-4.84949427837E-01	-1.43482300800E+01	-2.89799532609E+01	1.26657110262E+02
2.19650000000E+07	-2.89899413660E+01	1.25991611619E+02	-4.83452532463E-01	-1.44689388533E+01	-4.85767931764E-01	-1.44801926787E+01	-2.89814334888E+01	1.26464240354E+02
2.21600000000E+07	-2.89885630880E+01	1.25827210225E+02	-4.84127770078E-01	-1.46007320646E+01	-4.86528043480E-01	-1.46054370465E+01	-2.89755059196E+01	1.26222181600E+02
2.23550000000E+07	-2.89884750546E+01	1.25595408406E+02	-4.85120340625E-01	-1.47310564559E+01	-4.86839793630E-01	-1.47363428775E+01	-2.89748900787E+01	1.25968925332E+02
2.25500000000E+07	-2.89861857477E+01	1.25340234620E+02	-4.86400260821E-01	-1.48570497619E+01	-4.87894921221E-01	-1.48694110797E+01	-2.89772308938E+01	1.25767133371E+02
2.27450000000E+07	-2.89842598261E+01	1.25089713031E+02	-4.86665313791E-01	-1.49845010786E+01	-4.88833308465E-01	-1.49977611850E+01	-2.89780018394E+01	1.25538928518E+02
2.29400000000E+07	-2.89810010563E+01	1.24879251461E+02	-4.87110535652E-01	-1.51193828484E+01	-4.89358880063E-01	-1.51260340015E+01	-2.89697872873E+01	1.25324400964E+02
2.31350000000E+07	-2.89875088118E+01	1.24633951019E+02	-4.87185727497E-01	-1.52427854249E+01	-4.89921500750E-01	-1.52544535930E+01	-2.89682029639E+01	1.25050758884E+02
2.33300000000E+07	-2.89762458747E+01	1.24361818766E+02	-4.88502435347E-01	-1.53715329130E+01	-4.91296420109E-01	-1.53812397479E+01	-2.89612768721E+01	1.24865549966E+02
2.35250000000E+07	-2.89778989674E+01	1.24157396868E+02	-4.89935266500E-01	-1.55046952514E+01	-4.91647428724E-01	-1.55122634022E+01	-2.89558471749E+01	1.24626981503E+02
2.37200000000E+07	-2.89792578084E+01	1.23890188713E+02	-4.90658082752E-01	-1.56312084130E+01	-4.92193802673E-01	-1.56434881130E+01	-2.89576853276E+01	1.24402845290E+02
2.39150000000E+07	-2.89746417368E+01	1.23664332835E+02	-4.91240373792E-01	-1.57626103159E+01	-4.93794827948E-01	-1.57678167200E+01	-2.89513931772E+01	1.24185896374E+02
2.41100000000E+07	-2.89799944543E+01	1.23451974001E+02	-4.91858198989E-01	-1.58938631728E+01	-4.94243762551E-01	-1.58989796161E+01	-2.89516904068E+01	1.23962831036E+02
2.43050000000E+07	-2.89707704713E+01	1.23174179264E+02	-4.92950232351E-01	-1.60185460048E+01	-4.94725378701E-01	-1.60294064311E+01	-2.89454531122E+01	1.23754130637E+02
2.45000000000E+07	-2.89775121456E+01	1.22897912235E+02	-4.93388832260E-01	-1.61494518643E+01	-4.95885207182E-01	-1.61582480288E+01	-2.89364859603E+01	1.23504172758E+02
2.46950000000E+07	-2.89665836591E+01	1.22668828578E+02	-4.94529090623E-01	-1.62775054588E+01	-4.96351696047E-01	-1.62901088480E+01	-2.89372003111E+01	1.23292026297E+02
2.48900000000E+07	-2.89673735196E+01	1.22463354350E+02	-4.95291365127E-01	-1.64051534089E+01	-4.96920008464E-01	-1.64188890379E+01	-2.89328478684E+01	1.23042365495E+02
2.50850000000E+07	-2.89633771807E+01	1.22179925294E+02	-4.95968680002E-01	-1.65329288785E+01	-4.97844805125E-01	-1.65463403892E+01	-2.89211581294E+01	1.22877689148E+02
2.52800000000E+07	-2.89577489660E+01	1.22003137797E+02	-4.96661335024E-01	-1.66661778957E+01	-4.98802739991E-01	-1.66742785186E+01	-2.89186481963E+01	1.22636208796E+02
2.54750000000E+07	-2.89569839582E+01	1.21775473559E+02	-4.97460145742E-01	-1.67922859139E+01	-4.99676419242E-01	-1.68032732449E+01	-2.89142596293E+01	1.22407259213E+02
2.56700000000E+07	-2.89479930674E+01	1.21534175540E+02	-4.98807047900E-01	-1.69227398123E+01	-5.00267176824E-01	-1.69362371475E+01	-2.89080094220E+01	1.22176267044E+02
2.58650000000E+07	-2.89452623477E+01	1.21305177049E+02	-4.99146822088E-01	-1.70496160135E+01	-5.01418267316E-01	-1.70633320575E+01	-2.89049663143E+01	1.21983884440E+02
2.60600000000E+07	-2.89433822259E+01	1.21029733183E+02	-4.99784201272E-01	-1.71766423330E+01	-5.00842423587E-01	-1.71899633950E+01	-2.89017095897E+01	1.21763206293E+02
2.62550000000E+07	-2.89345888193E+01	1.20812600534E+02	-5.00532671559E-01	-1.73079795606E+01	-5.02183809133E-01	-1.73140395649E+01	-2.88934949957E+01	1.21508923019E+02
2.64500000000E+07	-2.89350538363E+01	1.20555816471E+02	-5.01104687648E-01	-1.74360934888E+01	-5.03155448615E-01	-1.74458073149E+01	-2.88920343551E+01	1.21290074125E+02
2.66450000000E+07	-2.89236674181E+01	1.20317069575E+02	-5.02826601118E-01	-1.75647115620E+01	-5.02855815294E-01	-1.75717390523E+01	-2.88826806493E+01	1.21055219570E+02
2.68400000000E+07	-2.89199320037E+01	1.20101782610E+02	-5.03019322346E-01	-1.76913716390E+01	-5.04434513540E-01	-1.76987508553E+01	-2.88757450076E+01	1.20826006943E+02
2.70350000000E+07	-2.89178465098E+01	1.19818160291E+02	-5.03311402056E-01	-1.78233298364E+01	-5.04669159303E-01	-1.78269668340E+01	-2.88726497870E+01	1.20569016801E+02
2.72300000000E+07	-2.89105288344E+01	1.19608753225E+02	-5.04518741008E-01	-1.79469468986E+01	-5.05983319883E-01	-1.79538320939E+01	-2.88597669634E+01	1.20367286581E+02
2.74250000000E+07	-2.89029670884E+01	1.19351872438E+02	-5.05338112608E-01	-1.80775319552E+01	-5.05913209210E-01	-1.80899825300E+01	-2.88608585026E+01	1.20163996039E+02
2.76200000000E+07	-2.88968402259E+01	1.19145995437E+02	-5.05572522925E-01	-1.82008805653E+01	-5.06678553502E-01	-1.82125235574E+01	-2.88577687863E+01	1.19930040759E+02
