!Keysight Technologies N9917A: A.12.46
!Date: Wednesday, 22 June 2022 17:12:07
!TimeZone: (UTC) Coordinated Universal Time!Model: N9917A
!Serial: MY56071016
!GPS Latitude: 
!GPS Longitude: 
!GPS TimeStamp: 0001-01-01 00:00:00Z
!GPS Seconds Since Last Read: 0
!CHECKSUM:0536677626
!Correction: S11(ON U)
!S1P File: Measurement: S11:
# Hz S DB R 50
5000000	-0.0891948759769952	-8.52714049283737
5195000	-0.0900427381477563	-8.95096789563749
5390000	-0.0689312703861304	-9.46748864332924
5585000	-0.0778035882756287	-9.67674688244012
5780000	-0.0999507024373683	-10.2090918732431
5975000	-0.0974950961478457	-10.621300245041
6170000	-0.0764549149689548	-11.1985101151656
6365000	-0.093110499046977	-11.527674957935
6560000	-0.0776011729065849	-11.9953983847324
6755000	-0.0656720069476378	-12.373272018854
6950000	-0.0804491655460491	-12.8347744524958
7145000	-0.0951590223139981	-13.1700298545008
7340000	-0.0902558202480535	-13.7204269773073
7535000	-0.0857811280293342	-14.0954713806489
7730000	-0.0869520565264669	-14.5651883937679
7925000	-0.0736754989370411	-15.0879389706318
8120000	-0.057852259218706	-15.4247882659512
8315000	-0.0811010294139667	-16.0187848660872
8510000	-0.0782935069441107	-16.4652311223923
8705000	-0.0734140397855332	-16.817194128323
8900000	-0.0819917390530992	-17.3717993242999
9095000	-0.0729697559621144	-17.6968797063575
9290000	-0.0731140517540744	-18.1930926215984
9485000	-0.0795763234259185	-18.6826273207881
9680000	-0.0644523945259187	-19.0982189554564
9875000	-0.0711199788374419	-19.5344329687009
10070000	-0.0882641322382341	-20.0736184844262
10265000	-0.0768326391616119	-20.547023840366
10460000	-0.0713439003934075	-20.9274028169283
10655000	-0.0612963866487156	-21.3733187684936
10850000	-0.0726589483419306	-21.955851548233
11045000	-0.0804956809570099	-22.4638657863508
11240000	-0.081673663986208	-22.8893970644953
11435000	-0.0782855881525482	-23.3906395217992
11630000	-0.0726649468050721	-23.9730397805869
11825000	-0.0812316566161322	-24.3933740940015
12020000	-0.0746597816645204	-24.9814951020151
12215000	-0.0760372286496711	-25.3583041773507
12410000	-0.0741545354245588	-25.9313289998373
12605000	-0.0887509667096509	-26.4346627031846
12800000	-0.0740225341901027	-26.9357850918549
12995000	-0.0895970855049663	-27.5714381636022
13190000	-0.0737080657664899	-27.9977391580504
13385000	-0.0803741322104007	-28.5187272207757
13580000	-0.0624911712049755	-29.1635070358265
13775000	-0.0832017530961384	-29.7312673825964
13970000	-0.0533058110063226	-30.1443831946424
14165000	-0.0379047633324107	-30.6637828827976
14360000	-0.0793537125044375	-31.4019735594717
14555000	-0.0659518526526123	-31.7285394647992
14750000	-0.059658657043757	-32.4790838932074
14945000	-0.0473560991211717	-33.1274335312117
15140000	-0.0510996417784496	-33.4944859413191
15335000	-0.0707248581748649	-34.1079727751969
15530000	-0.0487153135209314	-34.7103677140992
15725000	-0.0654010057358889	-35.2792147945937
15920000	-0.0623323740321267	-35.9429027371276
16115000	-0.0731219154834682	-36.634842600386
16310000	-0.0698887796810619	-37.3363067244293
16505000	-0.0812637983132287	-37.8037445302727
16700000	-0.0705349155277352	-38.5020229437261
16895000	-0.0680964261260725	-39.0845172388016
17090000	-0.0653490866239296	-39.7831939997449
17285000	-0.0517684313730879	-40.7443253746591
17480000	-0.0709540927864037	-41.1451690388855
17675000	-0.0677032214277515	-41.9089534978633
17870000	-0.0704384143926275	-42.5550493968566
18065000	-0.0803241343027244	-43.3241219242134
18260000	-0.0686984698649796	-44.0058202033421
18455000	-0.0702364742960895	-44.8763101625012
18650000	-0.0941776094502694	-45.5080152741941
18845000	-0.0712710731733041	-46.2582223027114
19040000	-0.0897960416565931	-46.9537381578112
19235000	-0.112838564419191	-47.8682043658088
19430000	-0.0856257813209654	-48.5475254098264
19625000	-0.0997854978191677	-49.4523641797648
19820000	-0.0905871201078313	-50.3114876633009
20015000	-0.116958228302074	-51.113684669792
20210000	-0.111083805001369	-51.9361864398858
20405000	-0.136504120064605	-52.8753828879949
20600000	-0.119785626058308	-53.5935114960823
20795000	-0.114164391580287	-54.6153895724498
20990000	-0.146989292278249	-55.547744074567
21185000	-0.107098875476485	-56.2890454857082
21380000	-0.162768144572135	-57.2545381143392
21575000	-0.179873581466913	-58.4676706725606
21770000	-0.164116137169355	-59.3503910344684
21965000	-0.186105882373999	-60.4269739913132
22160000	-0.210038814762531	-61.333900932305
22355000	-0.180648086995789	-62.6920236855676
22550000	-0.181432166215226	-63.7725657433408
22745000	-0.219046134796744	-64.8584894202408
22940000	-0.228653442300031	-65.860745108898
23135000	-0.229895065803321	-67.2748591884388
23330000	-0.258192249876527	-68.4277796591923
23525000	-0.274814507875327	-69.692309750927
23720000	-0.266753165432807	-70.9054280784663
23915000	-0.269562887870087	-72.2156707739591
24110000	-0.285923172546822	-73.4872973589946
24305000	-0.293860680742683	-74.7630538356116
24500000	-0.320232862594515	-76.0674332033844
24695000	-0.355289640945082	-77.5496281831792
24890000	-0.352846253643941	-78.8953121713464
25085000	-0.350513550768077	-80.4894461946329
25280000	-0.394665458381393	-81.9747709342228
25475000	-0.415205616152327	-83.2488867049923
25670000	-0.454368662138503	-85.1064417736528
25865000	-0.456858759575515	-86.7862453162353
26060000	-0.487604349560498	-88.1708677183946
26255000	-0.535731562554174	-89.9059055734194
26450000	-0.537766847218581	-91.8031449891873
26645000	-0.588896219352949	-93.5043083716694
26840000	-0.622428424683904	-95.2625276531942
27035000	-0.666935054037893	-97.1243430950773
27230000	-0.678777802582373	-99.2753024315904
27425000	-0.684619481191962	-100.855124277662
27620000	-0.77294861885091	-103.188406016611
27815000	-0.785772233973545	-105.131861835737
28010000	-0.83438601517753	-107.248637228615
28205000	-0.863570022891432	-109.323024893194
28400000	-0.909983117979741	-111.705241261227
28595000	-0.980998665087618	-113.787609437941
28790000	-1.02515185695799	-116.09868889914
28985000	-1.05084681102026	-118.28724587749
29180000	-1.13525130144549	-120.923050213214
29375000	-1.20098164075455	-123.408450930251
29570000	-1.24221607489981	-125.861459828123
29765000	-1.34524762552895	-128.575086258078
29960000	-1.40126811516148	-131.060734090014
30155000	-1.45222304614848	-133.871083860026
30350000	-1.52613381648571	-136.600916224012
30545000	-1.5971730701094	-139.468950881323
30740000	-1.6636300448038	-142.345620203392
30935000	-1.76297945056587	-145.27514791494
31130000	-1.83922201169333	-148.364816726371
31325000	-1.89227608574475	-151.375883560272
31520000	-2.00544912158752	-154.612836407963
31715000	-2.08972512321557	-157.893867877997
31910000	-2.16241672679752	-160.832826315065
32105000	-2.26287415044991	-164.206451067033
32300000	-2.35114774014199	-167.301868642179
32495000	-2.43402366770716	-170.802497090878
32690000	-2.50308252644143	-174.088916555983
32885000	-2.60145759579173	-177.368608074617
33080000	-2.66464521439631	179.399820284111
33275000	-2.757445293457	175.97393642437
33470000	-2.80594104372131	172.482884561883
33665000	-2.89727244931	169.138636349315
33860000	-2.93437307610469	165.810767466999
34055000	-3.00576076545199	162.455589718779
34250000	-3.08853386666982	159.148417208203
34445000	-3.21946439962895	155.699849475236
34640000	-3.14557785533764	152.527321736989
34835000	-3.19959269810839	149.127775747839
35030000	-3.23260384849397	145.951107692713
35225000	-3.26555472832899	142.47668834707
35420000	-3.28770550851383	139.536844285882
35615000	-3.30831576342947	136.329053277071
35810000	-3.29707090597675	133.066530555362
36005000	-3.31795777911583	130.019920777241
36200000	-3.33235329756451	126.776186415659
36395000	-3.33478819238673	123.969759635812
36590000	-3.34377568424807	120.928294143823
36785000	-3.37995523341061	117.919647563349
36980000	-3.34526331191403	114.953593612505
37175000	-3.37472458794979	112.196146147862
37370000	-3.38995079669446	109.587225453725
37565000	-3.38768401912557	107.021090767439
37760000	-3.36365585764614	104.250240350969
37955000	-3.37877584012023	101.781735528825
38150000	-3.39979213797524	99.2803336284664
38345000	-3.346711398619	97.0443910403864
38540000	-3.36817480688877	94.6022306138937
38735000	-3.33758245543051	92.4463020826109
38930000	-3.32206465860302	90.3204720202145
39125000	-3.34825752786183	88.226980854805
39320000	-3.28989787015595	86.3249554887341
39515000	-3.28761346401445	83.8159943013863
39710000	-3.24453006383076	81.9875769598227
39905000	-3.21286389683863	80.2694202368266
40100000	-3.19258034576925	78.300565003627
40295000	-3.17902532437001	76.5673644892811
40490000	-3.16071315095609	74.6452485331462
40685000	-3.11910427960328	73.0525970805359
40880000	-3.1201318615976	71.2874327728451
41075000	-3.10837148040356	69.6899881879376
41270000	-3.07098483399467	68.1304914053161
41465000	-3.05700341024071	66.5201615294911
41660000	-2.99994779895235	65.002939924879
41855000	-3.00018947995234	63.7329797982577
42050000	-2.97774084086622	62.2438681216935
42245000	-2.98888067301183	60.8460983693812
42440000	-2.9297316922072	59.1154105005858
42635000	-2.91656770172785	57.9608146402677
42830000	-2.88248984647555	56.4926281291904
43025000	-2.89587154364234	55.6665596386014
43220000	-2.82997589642199	54.2811687106449
43415000	-2.81913851168947	53.01573954394
43610000	-2.81768577667104	51.9445307145029
43805000	-2.78062797501004	50.6408149919719
44000000	-2.76044462516569	49.517452479218
44195000	-2.7443447333036	48.6133973972623
44390000	-2.72123807523284	47.4725359241782
44585000	-2.72002937735153	46.3067681725275
44780000	-2.70011768384089	45.3498313196744
44975000	-2.66303093880176	44.3356259987829
45170000	-2.62909801657254	43.5010165250275
45365000	-2.64589123709489	42.5528309437297
45560000	-2.59239210865863	41.4111109483987
45755000	-2.60247370605051	40.5839083665578
45950000	-2.59466205799268	39.7861068823825
46145000	-2.58579100019101	38.7710948724714
46340000	-2.61296092727147	37.9994835460863
46535000	-2.54466904366471	37.007246423089
46730000	-2.5562324919588	36.4382765908727
46925000	-2.54272190415608	35.6137242413536
47120000	-2.50582381184362	34.7351650072924
47315000	-2.47948979271519	34.086109717425
47510000	-2.49201319774312	33.0040220334259
47705000	-2.47717390666871	32.2991454224036
47900000	-2.47370764093715	31.4269901332571
48095000	-2.44330043534413	30.8347016765181
48290000	-2.41973268854916	29.9409406168529
48485000	-2.43296256729185	29.2812058204096
48680000	-2.42016291199925	28.5738325450142
48875000	-2.41424085616285	28.0976627514817
49070000	-2.38948154351428	27.3292335198849
49265000	-2.4055777021189	26.8413976514118
49460000	-2.3824186308992	25.8716454622508
49655000	-2.36540204516767	25.268780290283
49850000	-2.36482718969541	24.6329062248847
50045000	-2.37008573125896	23.918138182891
50240000	-2.35158862150171	23.3991718951373
50435000	-2.35965351858776	22.7518310649363
50630000	-2.31533799851315	22.2011518459085
50825000	-2.36811632564147	21.4712383560529
51020000	-2.32332940748491	20.9874091322511
51215000	-2.33381197119967	20.5001650942024
51410000	-2.32231213627191	19.8492203294871
51605000	-2.30950648824076	19.308894562925
51800000	-2.30482143184525	18.7307731312838
51995000	-2.30374862197768	18.035703806233
52190000	-2.3237173618367	17.5937899438794
52385000	-2.30887589909758	17.2208980321531
52580000	-2.28610921403807	16.573064965812
52775000	-2.26905448401001	15.8794442653722
52970000	-2.27326610548968	15.2882425953958
53165000	-2.29123221551109	14.8285603547722
53360000	-2.28084799758189	14.4694683328669
53555000	-2.29461961278154	13.8958592701162
53750000	-2.30197391608583	13.3941600515431
53945000	-2.2777900006904	12.8615612810405
54140000	-2.27090093607356	12.4771582013512
54335000	-2.26902557425007	11.8888073129762
54530000	-2.29946951879512	11.3940794078767
54725000	-2.2559931875788	11.0581001383809
54920000	-2.27335561080066	10.5595696281633
55115000	-2.27569489793271	10.1032299633835
55310000	-2.25860358091601	9.53971073679198
55505000	-2.27899735767033	9.15576754574457
55700000	-2.29198959115039	8.76560728080095
55895000	-2.28460818542039	8.46354618997084
56090000	-2.26249353954257	7.85408780654826
56285000	-2.27678782061405	7.40404158507557
56480000	-2.29332043314435	6.93455794292688
56675000	-2.28322000585517	6.52433533191065
56870000	-2.2833455744363	6.18933455857258
57065000	-2.27968940622895	5.65176929954997
57260000	-2.27263823409226	5.26904739517129
57455000	-2.27733973019592	4.7889006119932
57650000	-2.29520039180585	4.44992986679884
57845000	-2.27644142098403	4.33548710470989
58040000	-2.2865814562427	3.62876429883936
58235000	-2.29304925384527	3.25113713065006
58430000	-2.30284992412109	2.84150980038181
58625000	-2.30793702040899	2.44386991773798
58820000	-2.29273810680975	2.18314486204536
59015000	-2.31595535887063	1.87189789895203
59210000	-2.33649577924837	1.55409400189601
59405000	-2.30086399508617	1.1869801601952
59600000	-2.35046600520146	0.724908449722046
59795000	-2.32935117235245	0.476797695675604
59990000	-2.32683511333907	-0.0121755560316617
60185000	-2.35192184784362	-0.26631111420859
60380000	-2.33509456176967	-0.747550894456881
60575000	-2.37070448923822	-1.00886935897145
60770000	-2.35547850070582	-1.4108052713528
60965000	-2.33875886674928	-1.86983095469998
61160000	-2.38662961107204	-2.06307589821013
61355000	-2.36446210395621	-2.61137031256132
61550000	-2.35852564658923	-2.83564589532386
61745000	-2.36597499084723	-3.26752792143516
61940000	-2.37003454432563	-3.71208624610674
62135000	-2.38354363887592	-3.97200117767584
62330000	-2.3741033790928	-4.41708258938106
62525000	-2.38971006018673	-4.63603206945697
62720000	-2.40023116787404	-4.96728060338968
62915000	-2.40590798370517	-5.46872137540316
63110000	-2.39420560415583	-5.54031480344976
63305000	-2.41628887887105	-6.16404084446165
63500000	-2.40024373649165	-6.41593093998384
63695000	-2.41054848255878	-6.73631653191346
63890000	-2.41593014538007	-7.12265954660601
64085000	-2.43129901032538	-7.41857140628904
64280000	-2.43544897343187	-7.71941378664808
64475000	-2.43953023227059	-8.00834272849745
64670000	-2.45440940354272	-8.4637647676551
64865000	-2.46302235931106	-8.66849028599153
65060000	-2.46795382556255	-9.02927581659539
65255000	-2.47568003920717	-9.34313417847365
65450000	-2.47609506316876	-9.50964908134053
65645000	-2.48552761709744	-9.96497416446691
65840000	-2.48950219851104	-10.3234090927911
66035000	-2.50616273729468	-10.4958107376843
66230000	-2.51472505030215	-10.8063769812146
66425000	-2.49649413395989	-11.1072421916464
66620000	-2.51334804148856	-11.4392029291156
66815000	-2.53500859159235	-11.8325713622309
67010000	-2.53566506212652	-12.1947484311134
67205000	-2.52271130346077	-12.4558388181161
67400000	-2.49083077361381	-12.7038014108658
67595000	-2.53350253593698	-13.0793096024771
67790000	-2.55670423122234	-13.4561545805605
67985000	-2.55707819976833	-13.6733188073573
68180000	-2.55775526123473	-13.9300870366058
68375000	-2.58712013429278	-14.3008813260692
68570000	-2.59503512322846	-14.6268113106806
68765000	-2.57263701433348	-14.7908656010189
68960000	-2.59884444552402	-15.1785549561372
69155000	-2.61084333358969	-15.4965672916754
69350000	-2.63416014266219	-15.6694153108556
69545000	-2.63650095089816	-16.065538377149
69740000	-2.65468557557284	-16.437221358254
69935000	-2.66569621304417	-16.6361913472874
70130000	-2.66841242983195	-16.948656719324
70325000	-2.68841978754816	-17.2852121212112
70520000	-2.71354151447566	-17.6487544906717
70715000	-2.73096298082021	-17.9213694356305
70910000	-2.74117330725606	-18.2409091589559
71105000	-2.76236010863714	-18.3620440924371
71300000	-2.76643704888692	-18.6499945633716
71495000	-2.77417759345261	-18.9292131370856
71690000	-2.81325510009175	-19.4433071334552
71885000	-2.83480344318134	-19.7382657969969
72080000	-2.85569537948882	-20.0134193338967
72275000	-2.84477156564227	-20.1422702347485
72470000	-2.84687057479031	-20.5729481231667
72665000	-2.88486567907089	-20.9095819186176
72860000	-2.88529688293838	-21.0883442948918
73055000	-2.88802833581117	-21.3225218120464
73250000	-2.92751590040428	-21.7121017846437
73445000	-2.93800921547829	-21.9972814400615
73640000	-2.97564822258149	-22.0448360490514
73835000	-2.98630341537824	-22.624391586965
74030000	-3.01387285266591	-22.8414162482913
74225000	-3.02067027062598	-23.0549377989339
74420000	-3.04722558517457	-23.2509953393565
74615000	-3.04727157143717	-23.6619836951192
74810000	-3.06283471352785	-23.8776933093689
75005000	-3.08594271320505	-24.2852214646648
75200000	-3.11910225726652	-24.5656025938925
75395000	-3.13809598214551	-24.6308668338988
75590000	-3.13949605501105	-25.0161557352681
75785000	-3.17582812825099	-25.226534081567
75980000	-3.19736758929733	-25.6207824555081
76175000	-3.19283212924342	-25.8723599427425
76370000	-3.20653269290357	-26.085726202301
76565000	-3.24296759913468	-26.7097184635355
76760000	-3.25447929183846	-26.9135466338838
76955000	-3.26421747235577	-27.0976107637418
77150000	-3.3186349223866	-27.3388213810269
77345000	-3.3261456445494	-27.6977614332501
77540000	-3.35224936145692	-27.91980005577
77735000	-3.38898555001266	-28.1320131168173
77930000	-3.37646883714998	-28.5209835823413
78125000	-3.3844801176146	-28.8671989956054
78320000	-3.42752602088249	-28.9144188535852
78515000	-3.45785446936878	-29.3260944816698
78710000	-3.45871058189298	-29.5869285218887
78905000	-3.51237384782967	-29.6751724511159
79100000	-3.53111850056878	-30.1931871044646
79295000	-3.56002276029262	-30.3324415381653
79490000	-3.57344381918818	-30.5441923873936
79685000	-3.61108561028009	-30.8949901383287
79880000	-3.62158225699034	-31.1221938659066
80075000	-3.65835885171528	-31.3672568982065
80270000	-3.69159326828439	-31.5976760167363
80465000	-3.71547332751018	-31.8381672307603
80660000	-3.72561405365471	-32.117424546297
80855000	-3.77836231097323	-32.0933664617883
81050000	-3.80131362209395	-32.3759817729747
81245000	-3.81923408181549	-32.635035943272
81440000	-3.84305575072574	-32.8556281065618
81635000	-3.89113018680975	-33.2378981892319
81830000	-3.883482977245	-33.6915588993994
82025000	-3.92231325641527	-33.6548790252511
82220000	-3.9516074194162	-33.9632863307198
82415000	-3.996065713939	-34.3935825925773
82610000	-4.04763129089592	-34.7245075036486
82805000	-4.07189249120686	-34.6615942671001
83000000	-4.10124539781849	-35.2012191584766
83195000	-4.1269923506217	-35.2945711053484
83390000	-4.14322849631007	-35.397399296052
83585000	-4.21813201763355	-35.6456554789499
83780000	-4.21413171607503	-36.0112777319376
83975000	-4.24868421397014	-36.2726105701378
84170000	-4.28732397680477	-36.3839827403297
84365000	-4.32905908495089	-36.6769567263798
84560000	-4.34095307015323	-36.7520204055813
84755000	-4.37312406490159	-37.031869211776
84950000	-4.42147218739363	-37.265259500831
85145000	-4.47204905121622	-37.4347646053985
85340000	-4.48134664665912	-37.7422630217857
85535000	-4.5642063960724	-37.8869697807895
85730000	-4.60495889540441	-38.2532616867936
85925000	-4.59835826587039	-38.4189602044911
86120000	-4.66989966804667	-38.8741962294427
86315000	-4.67751063065423	-38.8641705210367
86510000	-4.76269571024713	-38.9690897465375
86705000	-4.80612954914834	-39.4465192998241
86900000	-4.84556336159589	-39.5607413594087
87095000	-4.87334751383643	-39.9198639958485
87290000	-4.95060746326812	-39.9793495869218
87485000	-4.98956175496504	-40.1459719246346
87680000	-5.00564826489423	-40.184848697752
87875000	-5.09607070826057	-40.6375060031599
88070000	-5.11639998188932	-40.9673393543275
