!Keysight Technologies N9917A: A.12.46
!Date: Wednesday, 22 June 2022 17:36:24
!TimeZone: (UTC) Coordinated Universal Time!Model: N9917A
!Serial: MY56071016
!GPS Latitude: 
!GPS Longitude: 
!GPS TimeStamp: 0001-01-01 00:00:00Z
!GPS Seconds Since Last Read: 0
!CHECKSUM:0641549428
!Correction: S11(ON U)
!S1P File: Measurement: S11:
# Hz S DB R 50
5000000	0.0267467274478614	-10.5919549927819
5195000	0.00746346252636352	-10.865856945146
5390000	0.0120194733620201	-11.2902526957881
5585000	0.0168606706267367	-11.7954960748434
5780000	0.0190795399890821	-12.13289894416
5975000	0.00277965476506204	-12.5868703536069
6170000	-0.0116160986958567	-13.0052253596004
6365000	0.00270218061012409	-13.2614635682804
6560000	-0.0104725537085549	-13.7610810452523
6755000	-0.0152071393472338	-14.1677786074364
6950000	-0.00816663575264761	-14.5289139558614
7145000	-0.00149345373103247	-14.8466417678218
7340000	0.00532380246259218	-15.4755452817496
7535000	-0.00486339180469484	-15.7057168687345
7730000	-0.00799354396753775	-16.2326517940129
7925000	-0.00338732020273652	-16.6136332990256
8120000	0.00368613984574031	-17.0099078306121
8315000	0.00211946069658705	-17.5057064481846
8510000	0.00145114760130644	-17.8489509172006
8705000	-0.00501808123552	-18.2593586011164
8900000	-0.0349579502522865	-18.6210591336951
9095000	-0.0278604264151152	-19.2439037741602
9290000	-0.0352938193844431	-19.5295727406069
9485000	-0.0329169745864209	-19.9331585751435
9680000	-0.0258541936610781	-20.4458913071243
9875000	-0.037356225607704	-20.8317828503714
10070000	-0.0241928025949893	-21.398944655701
10265000	-0.0328085966374837	-21.7228309273037
10460000	-0.0242540787543053	-22.2423574699041
10655000	-0.0354845958792417	-22.6998987744813
10850000	-0.0451448477362278	-23.073545567818
11045000	-0.0394747425454785	-23.611271231134
11240000	-0.0462194385781572	-24.0761965223741
11435000	-0.0330729205831909	-24.525486240453
11630000	-0.0601997771793388	-25.0376689431779
11825000	-0.0395632762656861	-25.5087658363352
12020000	-0.0376505243074998	-26.0278638720107
12215000	-0.0625433031363816	-26.5121361954577
12410000	-0.056936496724755	-26.9484694248115
12605000	-0.0563607416376233	-27.4291454672508
12800000	-0.0526873659568085	-28.1288822043628
12995000	-0.0441628930278473	-28.4819053462972
13190000	-0.0593316726476668	-29.1795929207446
13385000	-0.0579210060673387	-29.6030264850097
13580000	-0.035329895429477	-30.1006933132562
13775000	-0.0702524338152282	-30.5648634112256
13970000	-0.0557131239996252	-31.2822535502432
14165000	-0.0538728942975136	-31.938334590061
14360000	-0.0867508903427336	-32.5113169333988
14555000	-0.06886750476852	-32.9076859105219
14750000	-0.0737633843661107	-33.4868360953544
14945000	-0.056455292669701	-34.1381355551659
15140000	-0.0718606947000315	-34.5354134091976
15335000	-0.0495692949746985	-35.1770933955564
15530000	-0.0890621386368261	-35.82294957709
15725000	-0.0579214617438192	-36.5285305073428
15920000	-0.0723192139110093	-37.0022890017334
16115000	-0.0623367744926226	-37.678899424778
16310000	-0.0756124264104503	-38.4212482963205
16505000	-0.0719190795143928	-38.9444213888951
16700000	-0.0546589728862052	-39.5603733773177
16895000	-0.0717294827798417	-40.2134432022183
17090000	-0.0985217882030868	-40.7866587209662
17285000	-0.0964866457193893	-41.5147128607751
17480000	-0.0702161773824821	-42.3763835247767
17675000	-0.0880929397862625	-42.9815083677147
17870000	-0.083716638595722	-43.6914021579607
18065000	-0.102998774485965	-44.3910013416575
18260000	-0.109024217555836	-45.0419660287802
18455000	-0.0815748958059983	-45.7604411678484
18650000	-0.117263110361156	-46.5087465860982
18845000	-0.107777114072961	-47.2349235464353
19040000	-0.07992042914708	-48.0977477223074
19235000	-0.0959263965486687	-48.8871958845616
19430000	-0.132316143887159	-49.474399512682
19625000	-0.124561328835922	-50.4162599991002
19820000	-0.121065398827891	-51.3165535159877
20015000	-0.148026281715422	-52.0372799767413
20210000	-0.121473220986462	-52.827464763477
20405000	-0.144849440604021	-53.7248131546084
20600000	-0.1374507158536	-54.6432864385653
20795000	-0.140238692727722	-55.4418218062986
20990000	-0.175418338254841	-56.4737289934347
21185000	-0.168794438320263	-57.4398898167084
21380000	-0.188265510095999	-58.3795633866474
21575000	-0.19496541597691	-59.1536955252702
21770000	-0.194887205625168	-60.3217787492462
21965000	-0.199566682785722	-61.2372847466652
22160000	-0.228747507331326	-62.2875116697786
22355000	-0.250106815992089	-63.6606335979359
22550000	-0.268562700670474	-64.4504021677435
22745000	-0.262757554944418	-65.7180114568919
22940000	-0.293876453276051	-66.7504714145474
23135000	-0.271741570082444	-67.9819126773895
23330000	-0.293513554884431	-69.0500967497583
23525000	-0.327010235962836	-70.4659750563507
23720000	-0.324254168504437	-71.7570270044433
23915000	-0.359811012295169	-72.9605170018335
24110000	-0.372771664744032	-74.2820869782139
24305000	-0.366480954544537	-75.7137703911579
24500000	-0.39071610062975	-77.0758077166825
24695000	-0.431926847839364	-78.5045246375796
24890000	-0.417419725576385	-79.6563810689098
25085000	-0.47877949382225	-81.3908459788614
25280000	-0.479719849217322	-82.8396879663198
25475000	-0.500447456582529	-84.2801546091472
25670000	-0.513315288997638	-85.805897340934
25865000	-0.533627181148137	-87.3261483891738
26060000	-0.576921250549811	-89.1577377711975
26255000	-0.617738722191354	-90.8414122884051
26450000	-0.648577439877509	-92.5359769848409
26645000	-0.663394829389923	-94.3049355948571
26840000	-0.683315810021538	-96.2352551920261
27035000	-0.768585802982862	-98.1145333637255
27230000	-0.804544111238452	-99.9007557942128
27425000	-0.823776533089777	-102.070982283941
27620000	-0.845258494267143	-104.087238583764
27815000	-0.921348313445335	-106.214497151534
28010000	-0.935474185190649	-108.251333976222
28205000	-0.99633352845705	-110.424771022355
28400000	-1.05401246909304	-112.534943278581
28595000	-1.09919176413895	-114.872046465809
28790000	-1.13752822815788	-117.190448707547
28985000	-1.17935045278003	-119.579928783744
29180000	-1.26990813968429	-122.02506864743
29375000	-1.31822800523857	-124.594309151434
29570000	-1.39587835893478	-127.085853016641
29765000	-1.45788868322337	-129.687701698225
29960000	-1.52966879076397	-132.349560637045
30155000	-1.57362775492425	-134.944117491501
30350000	-1.65697968169869	-137.882911228628
30545000	-1.72192610335924	-140.640757969046
30740000	-1.79743978219885	-143.620027595617
30935000	-1.90282638302343	-146.534033899532
31130000	-1.97260964059495	-149.630466974792
31325000	-2.05129683369197	-152.680754804613
31520000	-2.12666668073921	-155.797388657744
31715000	-2.20529042029786	-158.971708148516
31910000	-2.2850033710755	-162.08399185104
32105000	-2.37511864444741	-165.412111955397
32300000	-2.46313493103985	-168.672093559254
32495000	-2.51740891492494	-171.991465577421
32690000	-2.57746669501666	-175.333052287093
32885000	-2.66562149785722	-178.639563512227
33080000	-2.75313279128816	177.903964703541
33275000	-2.79915134123165	174.56628089295
33470000	-2.88006805076636	170.86416045222
33665000	-2.93353114716456	167.687378350251
33860000	-3.04481923390734	164.200262821882
34055000	-3.06663157708536	160.63560200859
34250000	-3.1168144924357	157.354777980382
34445000	-3.18056406758999	153.965951410042
34640000	-3.20968421217582	150.700681203509
34835000	-3.21866996259385	147.137444509906
35030000	-3.26710488882264	144.180236127148
35225000	-3.28430294899557	140.560162639852
35420000	-3.31887109949507	137.342422086531
35615000	-3.31894443409899	134.113567145052
35810000	-3.34003250651619	131.068707591732
36005000	-3.35889619558605	127.787734678878
36200000	-3.352224221453	124.846188377343
36395000	-3.37863875714037	121.643779132975
36590000	-3.39595638311854	118.777700009668
36785000	-3.36921251580425	115.927414378468
36980000	-3.37735994301661	113.321814235793
37175000	-3.37156420550644	110.72690085486
37370000	-3.36391769974273	107.794996711894
37565000	-3.36481827235269	105.081663077401
37760000	-3.36197833834559	102.562402252904
37955000	-3.35030958075741	100.15801775925
38150000	-3.34620079489122	97.9654111238248
38345000	-3.30431480414678	95.0786839502733
38540000	-3.30366414629699	92.9895651414654
38735000	-3.28509861683487	90.6499103424823
38930000	-3.28301198918047	88.6347366829792
39125000	-3.25069439516451	86.5032621535478
39320000	-3.22478215413018	84.300115538769
39515000	-3.22489854856924	82.0868695639429
39710000	-3.19163896806324	80.1420479402096
39905000	-3.14247106865685	78.2865057834738
40100000	-3.14952995880008	76.4078585070385
40295000	-3.14294476451357	74.868240149145
40490000	-3.1049658367442	72.7305341114822
40685000	-3.06052949208553	71.2075890959983
40880000	-3.06460716895349	69.6268147394274
41075000	-3.00304697219991	67.8499279899095
41270000	-3.00187613295477	66.4208074543265
41465000	-2.99611512236939	64.5725665342587
41660000	-3.0142736631725	63.2500663130336
41855000	-2.94977144233845	61.6490410847841
42050000	-2.97552347596309	60.378016842458
42245000	-2.93754363737555	58.8593605544267
42440000	-2.94529455843113	57.7313638823252
42635000	-2.8975490000679	56.3669504517188
42830000	-2.89865909129143	55.2694774310729
43025000	-2.87076403978667	53.7453125120488
43220000	-2.86781957452683	52.5187697930363
43415000	-2.83937765635178	51.5677239457151
43610000	-2.82351403155422	50.500555344868
43805000	-2.79387633985415	49.4599600390644
44000000	-2.79674244815853	48.0612978157644
44195000	-2.74792547197219	47.1425026086107
44390000	-2.7204841148724	46.1256000095491
44585000	-2.69247291302665	45.3770353063016
44780000	-2.67683170591247	44.0923033494532
44975000	-2.6545021698194	43.2406361394948
45170000	-2.61406774319489	42.2397789051715
45365000	-2.57521188813969	41.3247610070821
45560000	-2.56215622681671	40.1802782137271
45755000	-2.57710292779871	39.2344245376134
45950000	-2.56134217757671	38.4395286300172
46145000	-2.5418638796376	37.3761133320878
46340000	-2.53919283430894	36.6172131468351
46535000	-2.49398845188745	35.7118076970195
46730000	-2.51188422695185	34.8895085060441
46925000	-2.49183417666023	34.0242137419551
47120000	-2.48493109428773	33.2371180116579
47315000	-2.47279628846285	32.1956753554536
47510000	-2.46488255092003	31.741865322785
47705000	-2.4695051421139	30.9482572965935
47900000	-2.46915171405762	30.2311832210463
48095000	-2.49276267339007	29.5623799127501
48290000	-2.45086414679139	28.7051344810175
48485000	-2.44617502541686	27.9173581719769
48680000	-2.43884922529057	27.4101969899103
48875000	-2.40863926686784	26.5589158432479
49070000	-2.38016702547752	25.9661830358336
49265000	-2.39526381396571	25.3192450428599
49460000	-2.40908954152245	24.6049617172695
49655000	-2.39711472633773	23.852069981404
49850000	-2.39711429845015	23.4332962693635
50045000	-2.37969770721447	22.7867113644996
50240000	-2.38557581137425	22.1680649508273
50435000	-2.36263177997279	21.3948488104662
50630000	-2.36024138872113	20.8741158940567
50825000	-2.35336799158986	20.2002213062449
51020000	-2.34030942609294	19.5563839072865
51215000	-2.36046435739846	19.0331733919393
51410000	-2.34732033798759	18.3203113902647
51605000	-2.35304395014699	17.9992014360938
51800000	-2.33508652235119	17.2829679304578
51995000	-2.35665601882456	16.8207652900518
52190000	-2.34045892509138	16.2601879350228
52385000	-2.33400066763292	15.7731938781563
52580000	-2.33654738428366	15.2213176336781
52775000	-2.36067707380248	14.6123258159013
52970000	-2.31394301242161	14.3140687422778
53165000	-2.34627664085413	13.713753039462
53360000	-2.34825164443871	13.2058650365789
53555000	-2.34207269846575	12.6736266392957
53750000	-2.32322119318019	12.1377976409373
53945000	-2.32665683341175	11.7222065697491
54140000	-2.34414342573771	11.2584249107513
54335000	-2.34844543909438	10.7622621341963
54530000	-2.32753083046557	10.31840645779
54725000	-2.33751175335854	9.7451124807958
54920000	-2.32429154819553	9.32528392288461
55115000	-2.31896103574098	8.91517403986128
55310000	-2.29377056673817	8.47100178323561
55505000	-2.30172768165255	8.04474273361236
55700000	-2.34597130127858	7.44129028163397
55895000	-2.31221957755836	7.06213229047458
56090000	-2.33550770909766	6.75616889900389
56285000	-2.34840271058027	6.30483679776671
56480000	-2.34120385961012	5.81169683308169
56675000	-2.33321672762061	5.47751776854169
56870000	-2.34596453295923	4.96931626560551
57065000	-2.36194555500249	4.58983763645358
57260000	-2.35153211307569	4.28811558594974
57455000	-2.36744829145438	4.04460656953131
57650000	-2.35413946826866	3.40648801375645
57845000	-2.40050892045137	2.91281028936287
58040000	-2.37179399327546	2.6684175999286
58235000	-2.37269844916063	2.38587496591611
58430000	-2.38029844276163	2.05772546789354
58625000	-2.37925448164093	1.60759299107417
58820000	-2.38036125138304	1.23296141887228
59015000	-2.38524492301015	0.986786129774761
59210000	-2.40237614369616	0.588529872080601
59405000	-2.39097094288055	0.172926188000681
59600000	-2.40371791930437	-0.0996420477748486
59795000	-2.4129496737479	-0.468720616775819
59990000	-2.41106404667219	-1.08066867904288
60185000	-2.39606542423336	-1.19554521480012
60380000	-2.41933638920594	-1.65636029899945
60575000	-2.40855663125801	-2.07631099042829
60770000	-2.42200799337866	-2.31975942385209
60965000	-2.44007833288339	-2.90372074693699
61160000	-2.4339915332257	-2.93403564934492
61355000	-2.44637388195351	-3.35611654214632
61550000	-2.43473932865002	-3.80994525315959
61745000	-2.43826293058265	-4.02716479226918
61940000	-2.45641116920537	-4.40344251241341
62135000	-2.4673173140066	-4.94686463244317
62330000	-2.44653423270325	-5.09711370773122
62525000	-2.4375745285366	-5.54482004322476
62720000	-2.45808758377106	-5.96831153883746
62915000	-2.46097610494551	-6.28507529354456
63110000	-2.45577500436898	-6.73400533378434
63305000	-2.48657834183459	-6.81004707365296
63500000	-2.49640213833712	-7.27998565927891
63695000	-2.468207620624	-7.52889638310174
63890000	-2.52293105693403	-8.16343329330564
64085000	-2.49677266379429	-8.39747229978843
64280000	-2.50513870032816	-8.48768781471195
64475000	-2.53131894802136	-9.02049681917096
64670000	-2.52992283889006	-9.31611724420707
64865000	-2.56644959366825	-9.62710691442994
65060000	-2.57855883116546	-10.1453542314304
65255000	-2.56032970682191	-10.3060404607789
65450000	-2.5812703116249	-10.6257720790539
65645000	-2.58997502550156	-10.9663877256541
65840000	-2.61452306972585	-11.2552933525696
66035000	-2.613895651437	-11.4733979216139
66230000	-2.62990868509646	-11.8381725806277
66425000	-2.64962078260613	-12.2237811212301
66620000	-2.65158331220333	-12.5039693886582
66815000	-2.66817592606911	-12.5900465654784
67010000	-2.6875454414387	-12.9827640017963
67205000	-2.69997753141778	-13.2759417375337
67400000	-2.71503428880367	-13.5100078590546
67595000	-2.71693318816599	-13.8764446306721
67790000	-2.72781247720524	-14.2233443363862
67985000	-2.73634545292754	-14.489533348833
68180000	-2.73580037653307	-14.7425103833342
68375000	-2.7559759577324	-14.9740125933022
68570000	-2.76602404125472	-15.3863856299912
68765000	-2.75097120270249	-15.6641238609097
68960000	-2.79558482825685	-15.7800554940932
69155000	-2.79544736779637	-16.244542502197
69350000	-2.80918010919644	-16.4928791753831
69545000	-2.81649672679316	-16.7052992494902
69740000	-2.816586364796	-16.9797077616095
69935000	-2.80939864290331	-17.3961817014082
70130000	-2.85285561165327	-17.5040267465409
70325000	-2.87111789646156	-17.9393437170739
70520000	-2.88066746616762	-18.252776252737
70715000	-2.88039601788728	-18.4648306195021
70910000	-2.9020051188632	-18.8795566316655
71105000	-2.9475738293118	-18.9204625131246
71300000	-2.94742402053257	-19.3672072449374
71495000	-2.94694930392612	-19.4791770743066
71690000	-2.96864803610203	-19.9286845762204
71885000	-2.97115648220046	-20.1029241648057
72080000	-2.99674685644485	-20.6055286091144
72275000	-3.02890625034638	-20.6845170414486
72470000	-3.00116749259178	-21.0440468853203
72665000	-3.05527525188949	-21.3388592819553
72860000	-3.05192383738369	-21.6479223171793
73055000	-3.08490913883769	-21.9284436306354
73250000	-3.10037678629295	-22.1427097095989
73445000	-3.09506603253671	-22.3525309429021
73640000	-3.10909134359768	-22.8868522475795
73835000	-3.14344324364401	-23.029613806316
74030000	-3.15380345137492	-23.2329831446871
74225000	-3.18802323988565	-23.5189223394629
74420000	-3.19448267209183	-23.9106190955797
74615000	-3.20251300802339	-24.0830766703807
74810000	-3.24080083757335	-24.4145656583197
75005000	-3.25574211761728	-24.60673330388
75200000	-3.25211561086147	-24.8202123460189
75395000	-3.27880016777092	-25.1699432182984
75590000	-3.30897594492651	-25.586120798154
75785000	-3.32155665808864	-25.7513746253312
75980000	-3.34637899817681	-26.0650554991919
76175000	-3.35154369197631	-26.3094298869354
76370000	-3.40552912536668	-26.4671844503953
76565000	-3.40373140722944	-26.7892700132512
76760000	-3.4249753302943	-27.1101314470402
76955000	-3.45307077961126	-27.2839856863004
77150000	-3.4615258519695	-27.8190053424006
77345000	-3.51035104205509	-28.0923753451469
77540000	-3.52881941279898	-28.3109143995555
77735000	-3.55978343417089	-28.4796991488966
77930000	-3.5632966184419	-28.8307397532034
78125000	-3.59909137117541	-28.9605760343088
78320000	-3.62489352461236	-29.3270900375603
78515000	-3.64428001740405	-29.6733772028018
78710000	-3.67517553805534	-29.9554688560837
78905000	-3.71489128170745	-30.204271778803
79100000	-3.75476256487324	-30.3439274842231
79295000	-3.77445340610062	-30.6654032604324
79490000	-3.82273079715313	-30.7655783931482
79685000	-3.82381845777828	-30.8508990158767
79880000	-3.86567470674969	-31.2865163049498
80075000	-3.86576260218594	-31.6486273059916
80270000	-3.90283948211307	-31.7034367637829
80465000	-3.93674361402761	-32.1270306947499
80660000	-3.93127291350349	-32.2687643494648
80855000	-3.99080180388837	-32.4718599251879
81050000	-4.0198840268609	-32.7704141901102
81245000	-4.06215309849898	-32.7203866652315
81440000	-4.08235307411115	-33.0906828866434
81635000	-4.10387671980634	-33.2560947238739
81830000	-4.17216002317934	-33.5775799619368
82025000	-4.14580672205966	-33.7961526550425
82220000	-4.18419463732081	-34.2012497739937
82415000	-4.24370032691241	-34.4671947698469
82610000	-4.24052098939406	-34.6957336963502
82805000	-4.30040964349157	-34.7818960378366
83000000	-4.32053186403332	-35.1873578996709
83195000	-4.37841463400002	-35.2849310001073
83390000	-4.40429624929816	-35.4722834571659
83585000	-4.44060385819856	-35.5931312294371
83780000	-4.50208664438469	-35.9412986866206
83975000	-4.53319445886588	-36.1226186803182
84170000	-4.53963640544239	-36.4498103001727
84365000	-4.62086283511131	-36.5940191837802
84560000	-4.63211973523129	-36.855505678899
84755000	-4.63977817136019	-36.8485422613766
84950000	-4.67883637212017	-36.9906813842603
85145000	-4.72502427198494	-37.1907671897484
85340000	-4.7500131873706	-37.4843270129104
85535000	-4.78503385612086	-38.0004278427988
85730000	-4.82253341481668	-37.9243691948237
85925000	-4.88356401914146	-38.1306649203512
86120000	-4.88163506185368	-38.6094043920226
86315000	-4.93503050005998	-38.5545728308064
86510000	-4.99293229175468	-38.8393982128729
86705000	-5.02515663051055	-39.1182516672131
86900000	-5.06506449528814	-39.2078823015468
87095000	-5.1289598991727	-39.2929561861809
87290000	-5.1350333394018	-39.3356549685858
87485000	-5.20483855084878	-39.5035902292431
87680000	-5.14593325579139	-40.3367877611452
87875000	-5.30436625262826	-40.1600465717235
88070000	-5.34333889063093	-40.2764065360347
88265000	-5.41007940876941	-40.277883078571
