!Keysight Technologies N9917A: A.12.46
!Date: Friday, 11 November 2022 18:32:42
!Timezone: (UTC) Coordinated Universal Time
!Model: N9917A
!Serial: MY56071016
!GPS Latitude: 
!GPS Longitude: 
!GPS TimeStamp: 0001-01-01 00:00:00Z
!GPS Seconds Since Last Read: 0
!CHECKSUM:0207497798
!Correction: S11(ON U)S21(ON U)S12(ON U)S22(ON U)
!S2P File: Measurements:S11,S21,S12,S22:
# Hz S DB R 50
5000000	-0.40020062763141	-9.02715954980133	-67.6954238975363	72.7048703400742	-66.1069492057096	93.859113055179	-0.145603482870485	-9.31540696671789	
5195000	-0.407012132190946	-9.52881127047052	-68.066337869567	90.7449392501557	-76.7654676303725	65.6738112962551	-0.158240857265583	-9.75438619446312	
5390000	-0.417746511042725	-10.013271884665	-67.272728619262	65.0968998646585	-66.9771667351004	89.2888712728066	-0.162032459319791	-10.2256082277653	
5585000	-0.422635228015024	-10.5091938381331	-74.9680417007822	68.4488572414858	-69.2254400853337	101.105370194241	-0.166491222667951	-10.6534192990012	
5780000	-0.418699274666504	-11.0184528251169	-65.2683428984127	89.859078259113	-65.3525326858643	100.348284047583	-0.16828807692075	-11.1073164350231	
5975000	-0.412128523181347	-11.4862016884048	-63.3141932600277	76.5317769383145	-69.492668040107	97.6599641831488	-0.169094494690042	-11.5491536535673	
6170000	-0.407146812501629	-12.0078671784944	-66.934954260074	101.648696344355	-64.3091314879155	104.118405140627	-0.164254613183137	-12.0185533412722	
6365000	-0.398865500692997	-12.5062378471766	-64.8892111444369	82.8096288989058	-67.6162375711675	69.7470074032905	-0.162090496452388	-12.4365308293949	
6560000	-0.386962601233393	-12.9886247609317	-63.0408444788311	56.2357554038272	-69.3088524245285	64.0541218584066	-0.156176940067498	-12.9432368620397	
6755000	-0.367661146548367	-13.4763425809651	-65.9702575536012	85.8112287889444	-69.8718702253461	60.928812485472	-0.159002864372751	-13.3715787268622	
6950000	-0.349651808007533	-13.9401447446212	-64.9321824198152	90.0967617591544	-65.3252494601407	84.7561875908497	-0.154255027030554	-13.8350912824542	
7145000	-0.331092095217718	-14.4067582711745	-66.4784114047206	77.795369593993	-67.3918940943341	57.9331818102302	-0.146941147978144	-14.278603325618	
7340000	-0.307677227359953	-14.8880499732155	-70.1443400009496	56.0236802505834	-66.9723956284467	56.4073972706811	-0.133183570122335	-14.717045605493	
7535000	-0.283053447340072	-15.3420290410141	-66.5494907605434	70.2285298850945	-69.3024750887144	104.702249758273	-0.126407560386451	-15.1701285078697	
7730000	-0.261209358762325	-15.8154325659943	-67.863361664678	76.3737880161372	-65.2185302993494	75.3207036547909	-0.117386981701187	-15.6149458241242	
7925000	-0.234524305882581	-16.2572367601529	-66.6825334688174	83.7483142228867	-66.1079110319404	61.7641658785204	-0.107456186041836	-16.0560202552101	
8120000	-0.212233549133174	-16.6730363019287	-64.8626660143276	68.7927698372992	-68.0363185169348	70.6494453090964	-0.10150022744544	-16.5022633647851	
8315000	-0.192352521635304	-17.1246975873769	-67.2392588901585	72.365894825889	-66.5862803084442	69.813759651407	-0.091855247190043	-16.9567144347729	
8510000	-0.16871721662733	-17.5362992807347	-64.4172101448486	89.7790067191281	-65.4275317833224	74.2220365829098	-0.0837804377674878	-17.4037944577066	
8705000	-0.143190988195981	-17.9748697555421	-62.7009988067428	70.6809901418403	-66.3394320848637	56.9225285087654	-0.0783043511578135	-17.8420671894265	
8900000	-0.124468366850723	-18.375817962284	-65.9999413799022	66.4727612291197	-63.7416218907461	62.0593971342863	-0.0702057324841939	-18.3007607846096	
9095000	-0.103921967916847	-18.7870593331979	-65.4129931475239	67.7454723865195	-64.6335432199072	80.2564085344522	-0.0576189843568251	-18.7666195868445	
9290000	-0.0867632434609525	-19.1945681202495	-65.3566699577108	74.9739802061305	-65.1965812125674	63.570414773578	-0.052963260965393	-19.2008840858743	
9485000	-0.0654884304891392	-19.6245641554799	-63.423701465506	72.8161411657919	-63.8260644701945	68.8241981515848	-0.0443799230916196	-19.6644388055329	
9680000	-0.0548030427202393	-20.0178723928335	-63.8921828654926	58.5012986711549	-62.6057717572625	47.2648010245072	-0.0395572365090116	-20.1087279476831	
9875000	-0.0440296877634123	-20.3767191938755	-64.6628578026801	70.0554797584766	-63.4626963712929	59.5066806286793	-0.0337318421836057	-20.5220265517527	
10070000	-0.0365313268016346	-20.7608504551253	-63.4804352436556	54.6702116064962	-64.3107992846447	66.3122590021442	-0.0263226689704537	-20.9630140965894	
10265000	-0.0307407769379047	-21.1596999741909	-62.7380696370117	58.5343277519282	-63.65686377251	77.2261433757909	-0.0240885335751346	-21.3825977608305	
10460000	-0.0277688845209294	-21.5288632566408	-64.267769313622	56.6222489104017	-63.4923940901481	79.5986037076791	-0.0228051406273198	-21.8306444165156	
10655000	-0.0334469664411377	-21.9324525117627	-64.1343956812409	61.676398428635	-64.0700473470542	66.0738448568698	-0.0229241511082487	-22.2581347522763	
10850000	-0.0360256533634159	-22.3372003327573	-64.0887693270758	66.8723316556325	-62.3226515609535	65.3517850541105	-0.0243444779198692	-22.7113136022547	
11045000	-0.0477947863217288	-22.717843623021	-63.5002895663565	56.5564081949589	-64.2861995227496	61.4060749017128	-0.0286490179587976	-23.1641577853253	
11240000	-0.0589697954820856	-23.1251275210923	-64.2925747679229	81.1979573798317	-62.2415046814177	60.1949807048103	-0.0327764766294743	-23.5925594479775	
11435000	-0.0688115939201587	-23.5200779511812	-62.7205900577238	76.1311327754493	-62.4473780961892	52.614448229132	-0.035529727461239	-24.0548234711431	
11630000	-0.0873221156657256	-23.9463035296905	-61.6182431968617	66.0721409190323	-63.6340434064491	60.5629591104061	-0.0443466386872399	-24.5110946103812	
11825000	-0.103364203622665	-24.3687313278985	-61.4485188575014	74.593677741311	-61.279000596832	51.5266601321423	-0.052320961046853	-24.9431049826948	
12020000	-0.126866859626132	-24.7964310171251	-62.6908500193194	76.6722347689564	-61.3728117464361	63.2050764292165	-0.0613347648943014	-25.3720311318592	
12215000	-0.143490613958516	-25.2452290265367	-63.7250009970945	58.2550753502447	-61.0565087105944	60.3907592639772	-0.0688225400688835	-25.8785230664408	
12410000	-0.156694575218287	-25.709798532344	-64.5091184778881	75.2974934310824	-61.4108131135026	69.086808861532	-0.0736742290536116	-26.3663049837745	
12605000	-0.177070322814127	-26.1623814731691	-59.7820000258904	51.6993564321973	-61.5227981154121	61.6588239705757	-0.0786924778017922	-26.8471599584008	
12800000	-0.194831545471608	-26.671864723661	-61.7313220469209	60.0566538364276	-62.7053827733852	61.2587623921384	-0.0820976885726639	-27.3685800603489	
12995000	-0.211190561057178	-27.200143168205	-59.306734282885	61.8103596003456	-60.625854999503	56.930842067656	-0.0812522875351343	-27.8641280478218	
13190000	-0.220432268383875	-27.720902827428	-61.2162005898932	64.9113397824208	-61.0205534013389	55.9904166991595	-0.0818472974932225	-28.3593592434991	
13385000	-0.237216855224779	-28.2337430785918	-58.7704869313631	59.1540038351757	-61.0132618344011	51.5708194776493	-0.0821990704168468	-28.8840301743469	
13580000	-0.253706933557111	-28.785729951282	-59.5344939027485	51.156931213273	-59.7721275099524	47.5331610895385	-0.0788953343027085	-29.4004445404205	
13775000	-0.263825229933469	-29.3365411938703	-58.6225516315538	68.9008006327292	-58.7273567962583	41.5496145448773	-0.0829071424258302	-29.9290161409102	
13970000	-0.278434371818502	-29.919539977689	-62.3333857702497	67.4691107962847	-61.7537704507097	61.9635354405238	-0.0846161137332636	-30.464758940191	
14165000	-0.294690352435143	-30.5140256868533	-60.4153436524488	62.305692546337	-60.6435407594164	54.613427167613	-0.0863792500888629	-31.039523174073	
14360000	-0.304035968353183	-31.0941848557893	-59.5126011495632	59.6728359862607	-60.2356336785728	53.1659086501333	-0.0934465936667727	-31.634379107772	
14555000	-0.321996582260832	-31.7317756116474	-61.8677135757435	62.5785726416718	-59.392426604955	55.8170082827225	-0.103252457651093	-32.1620216304606	
14750000	-0.336522407291634	-32.3677081079694	-58.0799150531985	73.5641779481159	-60.6189850018675	42.3135579333635	-0.112440180851649	-32.750783011624	
14945000	-0.34363564507288	-32.9837584930311	-58.2057090890741	58.9988893183036	-58.1716239737035	52.4080757978427	-0.12344942349543	-33.3308587511509	
15140000	-0.358682396805134	-33.6290473636028	-59.5634873609736	67.6189605883904	-60.4953519114727	56.6902190879417	-0.130670150672371	-33.9264340734025	
15335000	-0.364833457915419	-34.2710920146911	-57.6021603213119	60.054596642142	-60.8013410718517	58.3467659700595	-0.14342608855072	-34.5474147683876	
15530000	-0.36758447782861	-34.9186159360516	-58.3320104738524	61.608033259136	-59.4519576719866	63.6447823943345	-0.155127178276161	-35.1171112368582	
15725000	-0.375310437553919	-35.6065054465021	-57.9177088303505	58.4238314498764	-61.2433880011201	62.5262702499898	-0.157231036570014	-35.7331818241111	
15920000	-0.372850118260705	-36.281394775085	-58.3711383532619	56.3878959161321	-58.5394968553715	56.1963914221218	-0.160897808774572	-36.4013540014197	
16115000	-0.369236751384152	-36.9466221770128	-57.9834422932026	60.5081394199311	-57.0591332757583	53.0944487621689	-0.166630267442832	-37.023180893211	
16310000	-0.371315630548683	-37.6368918943597	-58.6030818283201	58.6401769868937	-57.9788766233429	55.5247306573736	-0.174796676404885	-37.6875584559863	
16505000	-0.368243710099758	-38.3535357306428	-59.0812870960945	49.6382949644208	-58.7643450930299	52.3813848377171	-0.175676568972212	-38.3760762163988	
16700000	-0.366749352832351	-39.0642234271314	-57.0463623071898	50.840239098129	-58.7842087766988	53.2829996850567	-0.172967427706904	-39.0418702243188	
16895000	-0.358239827471028	-39.780264877285	-56.5771911211513	45.8552284914099	-56.2838444444224	50.6317776472104	-0.17889781522861	-39.7500339156829	
17090000	-0.345490760810795	-40.4985576519932	-57.7125879661676	59.8677797377488	-57.3275007260394	50.1519437273499	-0.176538563080201	-40.4355299335978	
17285000	-0.333641610963231	-41.2613269909448	-56.5655276309407	54.4987254143332	-56.5861922979689	51.2305197181555	-0.180474207266343	-41.151014709016	
17480000	-0.316465284530591	-41.9912597272485	-55.9517100093736	52.7976103536356	-57.7276048628124	56.1574654270461	-0.18382718519317	-41.8551652215885	
17675000	-0.304311809184868	-42.7179305222301	-56.3560995420087	47.3626500275547	-57.9507826388052	55.798841745839	-0.19256738302004	-42.5799804803422	
17870000	-0.28564721043705	-43.4591817670419	-55.2542551432111	51.4216661923525	-57.2022531340669	51.2536856482648	-0.189119210680991	-43.2849631543549	
18065000	-0.273218121323921	-44.2091872492654	-55.4772381776604	51.8984200852614	-55.9410751188367	53.8988454754612	-0.194843244902225	-44.0318889143104	
18260000	-0.255772141072846	-44.945923615283	-54.8896089467471	41.6236491828482	-55.0176691969132	49.516459155939	-0.193829242203654	-44.753675766404	
18455000	-0.234356532262414	-45.7421299434988	-54.9323695199141	43.9520487534405	-55.7579330427101	45.6658309216923	-0.19061559967407	-45.5362031455179	
18650000	-0.214964449197458	-46.45594488867	-54.9476299061214	47.1049682130136	-54.2494083928902	47.0272104809502	-0.185389801291615	-46.3033683935746	
18845000	-0.192385500431468	-47.2446003530349	-53.8079665637827	45.6947639070561	-53.643377388993	44.4229914033879	-0.181706162585463	-47.0899035419337	
19040000	-0.179392845348402	-48.005805892883	-53.4454161553523	40.522426182056	-53.5969644600418	38.1698301576206	-0.176986337167334	-47.8922127905768	
19235000	-0.161119223802826	-48.7962330810448	-52.9490832331024	39.7648260082368	-52.7729885712377	43.0661916737661	-0.171078562339892	-48.7415643418261	
19430000	-0.144347839320383	-49.5994073975716	-51.7521870610302	36.1604247545536	-51.3902873209494	37.159661433044	-0.164825712683443	-49.5271142466244	
19625000	-0.136155251289902	-50.3555076515516	-50.3118192407988	31.9365542074165	-50.1318358087795	32.5242746565666	-0.162586044662214	-50.3675127466367	
19820000	-0.136171836019592	-51.2338332700115	-48.1327940835762	24.9003754234103	-47.8851226239737	23.6461832239659	-0.16355113019357	-51.2602610038767	
20015000	-0.164418396492092	-52.047235851347	-44.7605366646502	-10.9472751450401	-44.7446081953429	-12.1563987238393	-0.189472290557563	-52.0657773265126	
20210000	-0.148132280852357	-52.5363560599118	-49.7043175860495	-69.8502454269607	-50.2072000796145	-68.5576192661322	-0.173571802195727	-52.6961820504402	
20405000	-0.134146315731932	-53.4146243712473	-59.1803801050535	-63.0251826487824	-60.2828715437689	-67.6429555219575	-0.162385161579162	-53.5920078740109	
20600000	-0.135680819720465	-54.2861676399494	-64.5580806513935	-16.1390075871134	-64.4303720737421	-18.678142487558	-0.163006993423781	-54.4952877617548	
20795000	-0.145369188889906	-55.1726088477815	-62.4350492577817	4.55502695473869	-62.012849631636	6.36171843899649	-0.168237965429766	-55.3888094408705	
20990000	-0.159303913871813	-56.0511770816813	-60.0713974634443	17.5892031201728	-60.2310948707074	17.0229498329904	-0.177868035539672	-56.3318581822696	
21185000	-0.177455755720344	-56.9672649832666	-58.9020889822684	22.6738102276931	-58.9214921000851	25.6678454458968	-0.187047644044199	-57.2659050826226	
21380000	-0.1943810519349	-57.8689610964082	-57.5971170849255	24.4622427959164	-57.9534651374102	24.0948149080083	-0.198504922253113	-58.1918642958184	
21575000	-0.213819854699956	-58.863901503576	-57.2463589731775	25.5510012808892	-57.171974554905	24.0229042418259	-0.216015708414338	-59.1774186770976	
21770000	-0.2350314915556	-59.8482308416475	-56.5258963871321	17.4186008436359	-56.2747086379351	23.8164321981201	-0.233754330518588	-60.1887047376981	
21965000	-0.253786807116249	-60.8251390310123	-55.6310537743756	19.2562928838108	-56.0429740151291	20.9175830879785	-0.247415265168673	-61.1729060261905	
22160000	-0.263834339087319	-61.8213579667992	-56.4851493553732	25.8738743950563	-55.8658348452061	15.7793109900046	-0.261783109402554	-62.2050785113254	
22355000	-0.287678992159631	-62.8898925376971	-55.0144547079216	15.5379973284113	-55.8771994879071	15.2363760011577	-0.274067088803757	-63.2981737740794	
22550000	-0.302492500611887	-63.9366383747917	-55.2019206536458	19.5566552464719	-54.6127356015319	21.4050978236387	-0.282946145775794	-64.3831667987909	
22745000	-0.324034732873264	-65.0528201314245	-54.126480332901	11.0117479812614	-54.8243893959813	17.4705836812352	-0.290656157509265	-65.4803311363199	
22940000	-0.344063912457428	-66.1870499126099	-53.56441449766	9.80638289050067	-55.2262081945039	11.2806697623493	-0.296620870909781	-66.6134267831011	
23135000	-0.362104264682064	-67.3346459087554	-53.4313181648645	10.3854850250663	-54.1003370781865	17.2612371322124	-0.294386173936336	-67.736533776291	
23330000	-0.376057431555079	-68.5686701585986	-54.2049920930817	13.3607493593928	-54.0533042139004	12.0252510975861	-0.30384041866532	-68.8951596505062	
23525000	-0.40252029320487	-69.7485146255617	-52.9709950074141	9.36187297569365	-52.6394646302232	12.6770653277181	-0.315274512814908	-70.0738362382708	
23720000	-0.4259733034598	-71.0454398923863	-54.0921512783228	6.34254250928865	-52.6660583093324	10.7921920491714	-0.326456372482859	-71.2771933932123	
23915000	-0.442608245502226	-72.3478486472027	-53.2630630697779	11.830165257423	-53.6492775534812	7.03605971048378	-0.33683219144113	-72.5633273671503	
24110000	-0.471142539380526	-73.6743854335351	-52.0263812056484	7.40327121221316	-53.1925142603258	-0.098744316133149	-0.358503797321418	-73.8368758832698	
24305000	-0.494031479674725	-75.0620961957714	-52.3714184203418	-4.53768344573435	-51.9057561201084	9.16867216854457	-0.37518773329615	-75.1721591407472	
24500000	-0.509628804217448	-76.4630070920678	-52.1031965312043	0.432558458645068	-52.0352200916193	2.4607136616393	-0.391500037226722	-76.5095267405902	
24695000	-0.523955745196092	-77.8926903332738	-51.1158765700777	0.62055974122269	-50.8123700168091	1.36492887750951	-0.408707535777348	-77.8590293560849	
24890000	-0.549875601127582	-79.3701988889981	-51.6042566273536	-8.47394625123777	-52.4072066749639	1.22141750793354	-0.43152479365865	-79.3161337386217	
25085000	-0.569143832579864	-80.9210836425121	-51.0775498137956	-6.94677074457005	-50.7657456501745	-2.35288737331717	-0.455945291348804	-80.7106798495237	
25280000	-0.592967500715587	-82.5221953454028	-51.070568573783	-6.48505536129302	-50.5591695242222	0.0807678626260418	-0.479712811674291	-82.2011853301971	
25475000	-0.609690006687757	-84.1007345910064	-49.8272790090428	-10.40647615939	-49.975775405918	-9.54589808225046	-0.5076229469151	-83.7331151393643	
25670000	-0.636816553043617	-85.7255226696706	-50.3581502391169	-5.75645231643906	-49.8303532871844	-11.3315554980407	-0.533552775449041	-85.3346725648749	
25865000	-0.654083867040038	-87.4379841683441	-49.8575157138584	-13.297544569255	-49.9736460837136	-12.8145556517906	-0.563096460236527	-86.9407799997837	
26060000	-0.674302140291832	-89.1419194405495	-49.324900534642	-14.2624602652341	-49.7297498280788	-14.8927813002849	-0.589964955293957	-88.6122991587984	
26255000	-0.703308573637281	-90.8963397695342	-49.2504250078344	-21.7088097956805	-49.3968577091139	-17.3673399250602	-0.61824639093112	-90.2665346457489	
26450000	-0.715780847409209	-92.7043308287349	-48.7541178408043	-18.5941924698857	-49.1350019647798	-16.8105144398118	-0.649057206006762	-92.0052169297031	
26645000	-0.744159304461034	-94.5722831134665	-48.2078303217879	-24.4116996795263	-48.4558414978975	-25.1436188216368	-0.683941209314419	-93.8268686409501	
26840000	-0.765807099628326	-96.4543862361579	-48.0933769484343	-24.1842363529348	-48.2809837341816	-24.2615007025356	-0.722842026061606	-95.6343198939321	
27035000	-0.791867494095459	-98.4127812872771	-47.4212404829111	-25.7469353632274	-48.8100298454005	-29.5655294522111	-0.760438876629441	-97.5174223199485	
27230000	-0.814797164735912	-100.375996720517	-47.3666943310257	-28.1533494342456	-47.46289941545	-29.307440330867	-0.799116188058288	-99.4460989778974	
27425000	-0.841970975450327	-102.396144184872	-46.9280453287892	-29.9736670570182	-46.6681187778358	-28.6258270610825	-0.840700951286401	-101.405387922558	
27620000	-0.86758518750194	-104.475761612679	-46.5139011878307	-32.2755768535174	-46.9086541242631	-32.7052914689724	-0.879409459986096	-103.431285853789	
27815000	-0.895420063123116	-106.56638076465	-46.4952979210959	-38.0402613686312	-46.5450385714783	-35.8283173013571	-0.926076593279082	-105.52251225877	
28010000	-0.923067692859466	-108.728114634667	-46.1702689465769	-38.3534496988589	-46.0910178185318	-39.064556913077	-0.970247021722088	-107.615210296695	
28205000	-0.958929723664852	-110.993290042755	-45.610317047995	-40.2817176161277	-45.7200372167672	-41.1892463666937	-1.0148567829402	-109.796107756569	
28400000	-1.00110415665769	-113.239714114184	-45.202602089767	-43.2086012639631	-45.4196833845601	-42.7307240522435	-1.05848197170359	-112.014459451401	
28595000	-1.04031547160209	-115.521863797349	-44.6295275816042	-45.8487707511154	-44.9069568597211	-46.2531744823621	-1.10772149916032	-114.305339927078	
28790000	-1.09286218014177	-117.892747511283	-44.1552957439854	-49.5188199432868	-44.1969099229383	-49.0234144063488	-1.15861374480925	-116.628542286213	
28985000	-1.15019942195323	-120.331881124717	-43.6646688574867	-51.7715271009539	-43.7483356982953	-52.0208261583127	-1.21439349468996	-119.00091205973	
29180000	-1.21906561647227	-122.807844134509	-43.0486909884817	-54.7649641946539	-43.264275921725	-54.8520960483751	-1.27169511537127	-121.460193482743	
29375000	-1.29002307737871	-125.359309784702	-42.2570351554638	-56.7777014716358	-42.3513199953933	-57.2432996205518	-1.33159537716131	-124.009078435001	
