!Keysight Technologies N9917A: A.12.46
!Date: Friday, 11 November 2022 19:20:49
!Timezone: (UTC) Coordinated Universal Time
!Model: N9917A
!Serial: MY56071016
!GPS Latitude: 
!GPS Longitude: 
!GPS TimeStamp: 0001-01-01 00:00:00Z
!GPS Seconds Since Last Read: 0
!CHECKSUM:0092925626
!Correction: S11(ON U)S21(ON U)S12(ON U)S22(ON U)
!S2P File: Measurements:S11,S21,S12,S22:
# Hz S DB R 50
5000000	-0.339059858184831	-8.91180374915974	-67.1129312893266	82.1730747784592	-72.9445979775679	96.9219808124998	-0.164984226670417	-8.8968719730852	
5195000	-0.351750161468212	-9.40772378345563	-67.7175156007297	57.4147519266621	-82.4017155371487	132.983216688527	-0.17599114181726	-9.36818959506169	
5390000	-0.356000457444409	-9.88522200220493	-66.7690620806159	79.4633194583302	-68.6208203670579	85.5773421678276	-0.184253635419097	-9.83201499712066	
5585000	-0.36169338666224	-10.3532703203989	-69.8219153552772	107.807194750224	-66.3189379905735	35.3989858761095	-0.183426970421711	-10.2999363010153	
5780000	-0.358470336193999	-10.8221360889146	-72.8327550845645	82.7627167650381	-71.623430065371	42.840069047862	-0.18418026229363	-10.7499383398632	
5975000	-0.361606294669597	-11.3172278598887	-69.2373150282212	75.679284789554	-71.6831282433637	118.260276447103	-0.189409570198372	-11.2286893299439	
6170000	-0.352696107837302	-11.8355153450616	-74.3978443199113	110.228086488486	-68.4354653162545	113.405652841698	-0.177327388854778	-11.6820076711126	
6365000	-0.346732914271747	-12.2950124899718	-82.0714695523026	18.1743305712214	-72.1761872932889	94.85796375129	-0.176747175973287	-12.1535723911302	
6560000	-0.336778706200953	-12.7979253453241	-76.0656569439783	118.315464264777	-63.7921772271355	82.2691044859908	-0.173495987110012	-12.6331446537748	
6755000	-0.31905013592574	-13.2579999521886	-65.6454779030676	39.0551600253187	-69.5338417034184	61.4560015479103	-0.169492070156426	-13.1011411572525	
6950000	-0.305747698918255	-13.7417587856399	-68.3954026633153	90.3575954464349	-72.1337536675161	88.2751427645497	-0.164034805106103	-13.5577277837479	
7145000	-0.283159801049762	-14.2040559188067	-74.6535382345389	56.6260242973897	-65.8386798383052	160.383048446767	-0.153888450389751	-14.0142659043575	
7340000	-0.263199549311717	-14.6567742572569	-71.0822312410379	22.5960409986787	-64.7761331929051	104.309509356542	-0.142073566032646	-14.4529155603915	
7535000	-0.243745394208545	-15.1228863881343	-69.3667813735621	66.351235081939	-70.5684543082827	65.2614435398965	-0.126433176590873	-14.9151286000348	
7730000	-0.226472500369605	-15.5764771773698	-69.2126187471403	103.440114474941	-67.6562296888038	52.9073538874825	-0.11775903450479	-15.3622621717873	
7925000	-0.201051219490852	-16.0242884460523	-66.3214958126395	91.4466802078754	-67.2011854726628	89.4989810210175	-0.107938691738608	-15.8305364487536	
8120000	-0.183603777049071	-16.4475393262924	-67.9443103976903	87.2893251778251	-66.8992590121207	55.0957581726497	-0.0949840143050314	-16.2774481370103	
8315000	-0.167906634506903	-16.8974746399172	-64.9283505917776	83.6601162447448	-64.9569131880049	73.0021140574167	-0.0886801231598996	-16.7328437272662	
8510000	-0.147474603840417	-17.3345502322104	-66.0165063738175	83.0435781306081	-66.0557679535007	94.7620877759721	-0.0764665646269793	-17.1747727153017	
8705000	-0.129958847271778	-17.761736240516	-63.5683367925311	78.8011000867559	-64.7462067780422	76.8307937575663	-0.066088651865106	-17.6319480828609	
8900000	-0.116469212689747	-18.1613426247217	-72.6087651600721	81.4464248879826	-71.2778322598364	96.5710915001075	-0.0538245286602272	-18.0883711774776	
9095000	-0.101277713099045	-18.5915247686118	-64.489312383502	101.112309157538	-69.6941361289281	72.5972420512547	-0.0453962789972282	-18.5611943508653	
9290000	-0.0838015051915795	-19.0046388848248	-66.5075938341438	77.8266809469701	-64.5457534210559	63.478546888636	-0.0383643350589834	-18.9813163583248	
9485000	-0.0732923237645589	-19.4174973437794	-65.7539162584142	77.8940336406405	-69.266019002705	75.4848001822849	-0.0263662340067639	-19.4450983682772	
9680000	-0.0654930775989121	-19.8091578289085	-68.3786802209206	70.8326686407444	-68.8420000007036	62.3366530033649	-0.0233743975796602	-19.876044259904	
9875000	-0.0574387755536071	-20.2091388306271	-68.0958045807116	81.2056557984863	-67.7659702292848	87.9033670076594	-0.0139006498836507	-20.3107736677424	
10070000	-0.0496592452328046	-20.6267125613138	-69.2172808674972	72.5985951546364	-64.434626666442	75.6878768543378	-0.00939467289067419	-20.7495679147331	
10265000	-0.0514956137978176	-21.0369646851959	-66.6007582910389	77.0447261727904	-66.9335930519331	86.759009424169	-0.00694315408903886	-21.1871042357085	
10460000	-0.0478288326761007	-21.4297147388061	-65.2893604409858	84.2529416168954	-67.6622649302043	81.191349606329	-0.00235130718323995	-21.6258516507733	
10655000	-0.0525402862429936	-21.8389157816112	-67.3116136045601	67.5188826658834	-65.7628040637479	75.3541015503959	-0.00443009086617369	-22.0547742297387	
10850000	-0.0639703385314139	-22.2579413444941	-68.0697505403221	63.116267203066	-66.4820056309118	72.7425056572228	-0.00662445365142168	-22.5115492777767	
11045000	-0.072473606722897	-22.6522440473798	-64.3488763015492	78.3662383614518	-64.4780015655196	78.245034009947	-0.0129934755469456	-22.9555995083247	
11240000	-0.0835794055980951	-23.0787306487574	-66.587970769742	83.4795029406526	-68.1057898756481	71.4436072293339	-0.019306639082145	-23.3672569724116	
11435000	-0.0935966689304903	-23.4782358322931	-64.6973109309131	95.4221923426246	-64.5999389909234	80.4469760389781	-0.0272675985544172	-23.8125241056443	
11630000	-0.11178335856232	-23.9052094606103	-65.5372578606755	75.801090520304	-63.6995763319664	72.7585266140454	-0.0328533111151591	-24.2796927424818	
11825000	-0.130279749271259	-24.3372372676574	-63.592830046197	60.0542930349509	-64.9057530561643	69.7174354053915	-0.0449619460461262	-24.7422098080389	
12020000	-0.146393251325949	-24.7555795724403	-65.3152207344095	62.1779227266083	-64.6542047569268	59.3777838729285	-0.051392682495402	-25.1996312667085	
12215000	-0.162450075651668	-25.2189341083814	-65.928835277932	67.6041951750042	-65.0997531442566	72.5694623983391	-0.0641217138743213	-25.672149171975	
12410000	-0.174629314084142	-25.6878331219118	-63.659636850638	88.4100755461108	-63.4058128305293	66.6863441562407	-0.0748061794563243	-26.1589148704774	
12605000	-0.188056957291323	-26.1849788616384	-63.913906702645	58.2992479526153	-66.3738534111593	72.6225564063344	-0.0766049069439265	-26.6410693255553	
12800000	-0.203831933617557	-26.6911179499906	-62.5221613375753	76.4831721267458	-61.9709285455546	69.810808784899	-0.0781671959618951	-27.1717539885348	
12995000	-0.219625124720588	-27.1979960844435	-60.5610646957329	67.8521592255735	-62.2748086813888	88.2033145822335	-0.0815709492205759	-27.6691809655202	
13190000	-0.229970797195192	-27.7323149557733	-61.0154153947148	55.2339177870662	-63.5812223695796	79.6066941744966	-0.0852750896868388	-28.1612857427814	
13385000	-0.236378311483032	-28.2494999408852	-63.5937328473697	79.6742807956803	-63.8117031436867	64.8233327597471	-0.0817800756429304	-28.6949840787208	
13580000	-0.249976243203429	-28.8393396406479	-65.3221350378918	67.7646826707243	-63.8192984332258	67.1036070956733	-0.0789400074517138	-29.2293497348148	
13775000	-0.262066946710031	-29.3795198846444	-61.8053383687218	71.0269615974963	-61.9284841003919	61.9220761972484	-0.0867243430551825	-29.7508533283588	
13970000	-0.273071805632261	-29.9526321106461	-61.4904832851655	69.9992747027955	-61.6677990565231	65.6901244826819	-0.0871394155647901	-30.3223783552342	
14165000	-0.283224380110422	-30.5460560153599	-61.7030949263206	39.5605449882132	-60.546093179757	86.2545210154182	-0.0883644604758181	-30.8621952590598	
14360000	-0.294861583976853	-31.1212975056633	-61.4133419511606	46.238773111977	-62.7992185967672	68.7553367008771	-0.100643163387622	-31.4504705031251	
14555000	-0.307108001194438	-31.7313036965084	-62.4690100069909	52.9087665560127	-62.183985502712	72.4721038813365	-0.107611152248334	-32.0241676174105	
14750000	-0.318398710447551	-32.3376439891518	-60.4262245121254	65.0750258503094	-62.2454153555846	56.4576339030926	-0.11688541591905	-32.6125618886204	
14945000	-0.33186240464695	-32.9598034885385	-60.9412340397855	57.2324372774141	-60.0022154774236	49.7277805716437	-0.128296869284643	-33.1806427099716	
15140000	-0.341421738324757	-33.6020893762786	-59.8272492213012	42.3050289112554	-62.9012564587438	65.1002133253946	-0.14032054662142	-33.8051286163147	
15335000	-0.347426134467828	-34.2806952777851	-60.8246569727563	59.0398466132633	-61.1607222858231	56.88801431433	-0.152651484448172	-34.4021228275468	
15530000	-0.356695009060992	-34.9205615847771	-62.2085812350237	35.5768155098683	-61.2398763273891	64.0445313804267	-0.153342658498045	-35.0031690025104	
15725000	-0.36195850181783	-35.6000571461781	-59.4582848832082	55.5970359469693	-60.018188606475	45.6506413395162	-0.163516553544474	-35.617385815408	
15920000	-0.362691730344972	-36.2630115741861	-59.9460312614912	55.4115255574807	-61.8292340894596	54.2671191127541	-0.174356401721153	-36.2683584491542	
16115000	-0.364892751952327	-36.8986638504102	-61.8617395482214	48.8399017023961	-61.2258456798161	47.3860026724944	-0.174756218363273	-36.884441520492	
16310000	-0.368704783669242	-37.5965919306736	-57.8017158007081	45.9736299473839	-62.7729211351303	66.9932568502164	-0.183968960399753	-37.5598439697346	
16505000	-0.365658196705306	-38.2668686786776	-59.9283937168962	43.1162561640869	-60.1507923934156	49.1654001457026	-0.184898906512315	-38.2144501471725	
16700000	-0.36046217513829	-38.9788471458805	-60.7384721351912	50.9452451630804	-62.2271688242799	57.1281960765449	-0.185476327093124	-38.8973482545339	
16895000	-0.361619929843139	-39.691615276617	-60.6418957006547	32.2957880959139	-58.9870820358174	35.6129058236197	-0.184189389271649	-39.6052134522955	
17090000	-0.35103029761724	-40.3875430783236	-59.732290874305	54.0564581290103	-62.0820837819854	56.0766040529292	-0.187170443042621	-40.2917824130545	
17285000	-0.340676025662545	-41.0905579970656	-60.5548165189982	47.6128811919026	-62.5703965809047	31.9766467449945	-0.183650876031367	-41.0055695706365	
17480000	-0.331745359854132	-41.8478945378131	-61.3874171640998	41.7968340231885	-61.2575641187628	52.5362414200334	-0.188079867150695	-41.6989155970032	
17675000	-0.314080368413116	-42.5815092185141	-60.1299608267571	48.4711576960595	-61.0324540783905	53.6113122285769	-0.189449300899397	-42.3931412826949	
17870000	-0.305431767773338	-43.3146983387261	-61.3059166280537	38.0895460376766	-58.9007138987306	40.1870299143506	-0.190013852523109	-43.1155875366011	
18065000	-0.294486955393706	-44.0469438218743	-60.1096599905298	37.4352471798021	-59.7068147367827	45.4238257345074	-0.184197101273826	-43.8523643344612	
18260000	-0.283506356588514	-44.7628094934206	-61.3724178137023	36.7717770371718	-60.0695596179691	41.745883773634	-0.180625715287017	-44.5693224446176	
18455000	-0.268990768260905	-45.5121130779762	-60.2894897176747	37.9527071549786	-60.0454404023754	40.8292902070707	-0.179107073001247	-45.321025285477	
18650000	-0.25119313842446	-46.2544780706819	-60.9726655581176	41.0740597012241	-58.7599827111699	44.1551689979968	-0.166310301267751	-46.1145165051175	
18845000	-0.241232748952203	-46.9955862208216	-60.955406611489	35.4039329969845	-59.4516944184351	35.3596949554891	-0.161606611927366	-46.8741448862565	
19040000	-0.230504096429519	-47.7641595209437	-59.662884547354	34.3472552294199	-59.3907549154979	35.3088087552748	-0.160475594923757	-47.6752823916169	
19235000	-0.221947330699486	-48.5292887861004	-60.1651748970815	29.4394524267824	-60.7677332978076	34.8454000149887	-0.151576463391978	-48.4883042950713	
19430000	-0.211862664466687	-49.2897275190234	-59.1618214541151	36.3396669532597	-59.0507086551273	25.97820857745	-0.14534871899567	-49.2701561450538	
19625000	-0.206411356266336	-50.0607210042447	-57.7663464492009	32.5393659527524	-58.3841862305664	32.662993844206	-0.136199623427574	-50.1212130616872	
19820000	-0.20665516963356	-50.8480405140659	-59.1200419193735	25.8621574061216	-58.4887662766737	34.2532153248976	-0.127910018095654	-50.9100641694423	
20015000	-0.208042212444027	-51.686091369291	-58.4841928380189	25.4507930154126	-57.8485445353321	26.1130044807293	-0.127077161858022	-51.7373363072801	
20210000	-0.212950367701334	-52.485129997691	-57.3343495593333	28.1413678082736	-57.0665158111867	24.1207985641396	-0.127913272891283	-52.6152811793386	
20405000	-0.228784540881272	-53.3389912068145	-55.3867842872938	28.5224483482178	-55.5021856141397	27.9144959111325	-0.132929276782203	-53.4822768814454	
20600000	-0.249063298058106	-54.2130198257429	-52.6039693571104	17.715992727155	-52.4520495504996	17.7943038806323	-0.14083397077636	-54.4074580078779	
20795000	-0.286367134455364	-55.126521255984	-48.5161487702433	-13.2046767176053	-48.324443161626	-16.1655880875759	-0.166920590469796	-55.2734695129637	
20990000	-0.301496953549468	-55.823702105585	-54.1165952096836	-76.8897196055227	-54.5214676596603	-80.3074512510265	-0.172109217195569	-56.0094728123193	
21185000	-0.312821997699616	-56.7432704275777	-62.1315192077551	-78.2685865440492	-62.1165520763362	-79.2455029682078	-0.176069341470002	-56.9455515489148	
21380000	-0.342142505032408	-57.6989759988823	-63.4189296324518	-53.273450537011	-65.5341051739213	-40.6217287268979	-0.186219856917456	-57.909749587945	
21575000	-0.364901132435562	-58.7077170301282	-65.7251064442384	-36.351511719286	-69.322721761442	-13.2029145230585	-0.201792506675275	-58.8875763017406	
21770000	-0.390550675196444	-59.6744508965717	-66.5642491235438	-11.6468018352979	-64.0998633472386	-28.7259365796219	-0.223804385604565	-59.8626685564128	
21965000	-0.410991478297174	-60.650647065242	-66.396528951182	5.00846323707272	-65.8907110139777	-20.5175441770608	-0.242539612327994	-60.9017556893971	
22160000	-0.436797536663201	-61.726622877623	-64.1642530063053	-7.93435183756478	-63.5565693407082	-11.8476666609833	-0.261040409269217	-61.9333595777279	
22355000	-0.456012129982638	-62.8108605903638	-62.2183473731411	-12.4706484334141	-61.6383676002375	-9.17252370428175	-0.276298890293048	-63.0057234095237	
22550000	-0.477470373328362	-63.8811724140162	-63.0547437148622	-1.78802734517214	-63.7035254076327	-14.7640757478149	-0.291160809678539	-64.1073325925182	
22745000	-0.502734708962901	-64.9846174751075	-65.2053523080298	3.60460509889563	-62.3246073322659	-17.3951181163234	-0.297262325192074	-65.2412684144102	
22940000	-0.519192785368469	-66.1157641199232	-61.1976205326364	-13.8771362958088	-62.5127209459411	-5.87135723264357	-0.301214570666315	-66.3261791843872	
23135000	-0.544695101161105	-67.309386547689	-60.857537647789	-10.2037225959751	-63.5252482353393	-15.8294796260463	-0.315459611287376	-67.4965255715625	
23330000	-0.574703668003011	-68.5374117063703	-60.6187750918316	-16.2143002118255	-61.6554550885543	-25.2600123867215	-0.321255640351717	-68.6637351991896	
23525000	-0.595686889296634	-69.7553759902689	-61.445038862624	-17.904940234503	-59.7677574066115	-13.5125468174886	-0.33298682386498	-69.8416086621279	
23720000	-0.622477111965786	-71.0727378825792	-61.8968089431432	-21.0930414679433	-61.8421335084931	-10.4144629504534	-0.34160584482153	-71.0542943614432	
23915000	-0.645643460717752	-72.3937616922524	-62.071325823395	-21.0027947469066	-64.2805873338779	-36.411333152562	-0.348758910021289	-72.3217196780032	
24110000	-0.675993652953748	-73.7012936248106	-61.2791047007477	-24.934837109423	-62.6809356155337	0.322682228265174	-0.372761948566227	-73.5786547812633	
24305000	-0.69911303736708	-75.0613096070701	-59.9488702053214	-21.5546937139976	-60.3196921368466	-46.1837039274164	-0.389600496739729	-74.930597163444	
24500000	-0.729384363532646	-76.5147197312529	-63.2299143729121	-25.4263887240596	-59.1438792641858	-24.9510510994058	-0.418346499647309	-76.3156836559077	
24695000	-0.753066521873248	-77.9246057516308	-61.3096475165283	-40.3701177364897	-64.3063486395229	-28.4492942528391	-0.436731083316555	-77.6601649325009	
24890000	-0.782876260058237	-79.4318542261507	-59.3752614135944	-32.8585497843326	-58.7869289355295	-43.8440990862092	-0.457693856805462	-79.0468464857568	
25085000	-0.813498160348804	-80.9501033184545	-58.9654704780709	-32.2851345269638	-59.7742001695435	-30.4726607281531	-0.488367995898376	-80.5198075002322	
25280000	-0.835538182734997	-82.5134206654465	-63.468574670436	-44.6877900661205	-60.3774476406408	-33.8945164123559	-0.511095809196265	-81.9846284129878	
25475000	-0.861168431591116	-84.1065728478251	-61.0909755919318	-21.4393620712841	-59.9360211308523	-43.0847513436282	-0.541990940537355	-83.5089075835968	
25670000	-0.894281259835742	-85.7583519209574	-59.1797031264626	-44.6300653896688	-59.3113337900469	-35.0052980173927	-0.567032369376427	-85.0708182804763	
25865000	-0.930067659313044	-87.4453288946009	-59.9044995806498	-40.0257014615301	-58.2858944318478	-57.0121894064722	-0.593742958316711	-86.7172383820717	
26060000	-0.95806492067076	-89.1047150071466	-60.0465838638221	-59.2396410534374	-59.2475621106369	-54.6958256946189	-0.6265334715879	-88.361436824839	
26255000	-0.985483574515986	-90.868229802864	-59.2308203857221	-52.3202912684956	-58.2885791451093	-50.031606899238	-0.659878500018821	-90.0378738164545	
26450000	-1.0204196471842	-92.6615542193849	-59.3101642800905	-52.4382549263744	-60.2238462765342	-54.0209491367031	-0.684249027182482	-91.7776303794437	
26645000	-1.05366031101133	-94.4976061176758	-60.4810386963008	-72.3936217800272	-60.7662495422562	-59.8513635871171	-0.724656093432508	-93.5418515863094	
26840000	-1.08079278408149	-96.3482687116734	-58.973961154229	-69.8022003404774	-60.281536023994	-69.6446826147653	-0.757460265345603	-95.3582102871353	
27035000	-1.11842635567889	-98.2252833584024	-59.2378177057536	-61.348704394157	-58.8799067870295	-59.482816251583	-0.795703435471587	-97.2231679664704	
27230000	-1.15363876942058	-100.157931040509	-59.3224787930066	-70.9963269517479	-60.7544827142469	-79.6089210633804	-0.832208648132617	-99.1083178383507	
27425000	-1.18733534602428	-102.136826876472	-58.1763098429151	-77.3527975549718	-57.8729345243522	-74.5860652209325	-0.878875663604844	-101.066252940516	
27620000	-1.22314219580253	-104.187497927784	-58.7088914587034	-72.5452613148433	-59.2304444810245	-79.2111543474208	-0.912251440136833	-103.057419430428	
27815000	-1.26569616903349	-106.239488149129	-59.4531281772179	-79.9951640679188	-58.1972854108718	-74.9075378677925	-0.956752083770293	-105.093683272299	
28010000	-1.30806639585142	-108.391416214074	-58.3318353280627	-77.0431002302337	-57.83705449109	-67.5578954320118	-1.00522561838973	-107.189961069033	
28205000	-1.34954388438775	-110.574574289225	-57.9227173791329	-72.6223107940238	-58.5473291548608	-64.9035945975479	-1.05335142733929	-109.31160297644	
28400000	-1.39987461508721	-112.769812836313	-57.4004848778601	-71.6242196527403	-57.0737397654587	-71.4236775080313	-1.09240936765341	-111.502474666177	
28595000	-1.45781967399749	-115.037691126328	-56.2417081108971	-62.8110377724996	-56.7230103578475	-64.846468104037	-1.14573572351869	-113.756289925864	
28790000	-1.52692018126084	-117.370264360839	-54.9376690180232	-64.3701309380239	-55.8989609363648	-67.6530944870589	-1.19896282738853	-116.050740233434	
28985000	-1.59923914628881	-119.750717997766	-53.5614226074514	-62.7844934330849	-53.5835258152688	-59.8069922700126	-1.25276783326931	-118.400980197313	
29180000	-1.67953167460738	-122.189864706958	-52.0631013846329	-58.0193206144329	-51.888144513507	-55.0516889581727	-1.31491284249042	-120.833846375821	
29375000	-1.76661826078874	-124.720281419035	-49.6455627849125	-57.9660945937417	-49.9583179461083	-57.7275029190238	-1.37876886788845	-123.312641209502	
