!Keysight Technologies N9917A: A.12.46
!Date: Friday, 11 November 2022 20:04:13
!Timezone: (UTC) Coordinated Universal Time
!Model: N9917A
!Serial: MY56071016
!GPS Latitude: 
!GPS Longitude: 
!GPS TimeStamp: 0001-01-01 00:00:00Z
!GPS Seconds Since Last Read: 0
!CHECKSUM:0101649263
!Correction: S11(ON U)S21(ON U)S12(ON U)S22(ON U)
!S2P File: Measurements:S11,S21,S12,S22:
# Hz S DB R 50
5000000	-0.262695490084652	-8.82693188500166	-76.9051802248354	37.3761406716124	-73.2588900579883	11.362486360892	-0.292870789181727	-7.72204257241437	
5195000	-0.274269723726218	-9.27034702698137	-73.4113940626688	-128.156481225075	-71.6468217292392	110.972219449626	-0.297598369835396	-8.25190123853955	
5390000	-0.288599933280726	-9.74690557641599	-77.7116619581641	-93.5373097620748	-79.8236784074563	-90.1492302577291	-0.306514587099461	-8.7243282948855	
5585000	-0.2894486515601	-10.2347874870146	-78.551328036812	-107.771512968294	-76.876804341048	-108.690281732427	-0.305426268676453	-9.21075467854933	
5780000	-0.288458836816848	-10.7017225402542	-70.1763798253437	149.700808894757	-70.094155768661	-101.338557923687	-0.298872900857361	-9.67053762985561	
5975000	-0.285763427332777	-11.1879984775052	-69.9372505423171	-11.9501135499917	-70.5400286838822	-99.7609338625045	-0.298737526404199	-10.1396477503255	
6170000	-0.276942776827178	-11.6801440393815	-89.73632663367	-36.3265301893992	-79.9777090761268	-56.2143385141922	-0.288995423049537	-10.6284762735727	
6365000	-0.273643254124553	-12.1302672944774	-74.9739267957107	-48.9587061925811	-65.5901202548457	-144.117019615555	-0.284412054893655	-11.1130486818879	
6560000	-0.260141353304338	-12.5610724693008	-73.4654115663578	-97.2087536742437	-77.9571925786958	-142.666557435417	-0.273593512871766	-11.5943338643329	
6755000	-0.253740605532298	-13.0709443092409	-80.1228751568129	-103.936592709299	-83.2478115830894	-37.9481818508178	-0.269595424119341	-12.0679179764256	
6950000	-0.239109978742714	-13.5288415253898	-71.7912402913348	-101.501284922392	-78.1838414953882	174.840146373961	-0.2599072344371	-12.5288190092854	
7145000	-0.223114161123463	-14.0027913654642	-75.8671097024107	-170.190250664284	-79.3483753214094	-15.8139044408327	-0.246456193070079	-12.9834676053787	
7340000	-0.206060037343085	-14.4559346423572	-82.1950060313619	-50.7995485035459	-76.5138726375053	-64.1750443121676	-0.234232552577354	-13.4675999695765	
7535000	-0.185985458441376	-14.8968978216707	-77.4105954993367	-4.79413079558018	-96.0058642776482	48.2148682860231	-0.212471982496742	-13.9170834420274	
7730000	-0.174784229049732	-15.3718974143454	-75.5588103686814	-16.592140114659	-78.4500754162256	114.767229410981	-0.205012186883172	-14.3933566572708	
7925000	-0.158109498867403	-15.7979555622656	-74.5465590408672	-65.2612289620659	-74.9417642028838	-103.114707835717	-0.189902232419825	-14.8441265427028	
8120000	-0.144335242625607	-16.2483603205487	-72.9951388288341	-137.558904040655	-74.7369451233025	-61.380628551986	-0.181591486860176	-15.3012951829474	
8315000	-0.129297562863613	-16.67515031673	-71.9813144989772	-85.3624378602972	-75.8411614039711	-133.069970783494	-0.169540354350141	-15.758441947863	
8510000	-0.11281702017404	-17.1227488953156	-77.3466459670234	-99.6626047172517	-78.0998286194678	-33.7654298932239	-0.158989986821404	-16.2035029332342	
8705000	-0.101084379288876	-17.5525907926435	-75.2490648978605	-72.1882878848748	-83.2707473567333	160.557564303058	-0.146285562929252	-16.6736583854074	
8900000	-0.0908769679337387	-17.9839663400699	-84.4229413342417	157.079355620604	-71.36126212439	-116.847798091881	-0.134090760821713	-17.1134255574652	
9095000	-0.0807575750326588	-18.420848645579	-82.6197973474041	-46.2291024886287	-74.3823393695659	-157.309713606078	-0.124748652579416	-17.6168898503413	
9290000	-0.0692572212508907	-18.8585837884272	-77.495200119367	-116.783722927717	-77.3104371178606	-56.8986055845404	-0.112929077469259	-18.0483646428445	
9485000	-0.0576216845522021	-19.2726281547747	-81.1233838270044	-82.4651479204656	-79.3955447216316	-130.67622581197	-0.104352184149923	-18.5141342219788	
9680000	-0.0529608143788755	-19.679549549894	-68.9248621007269	-102.091387240499	-75.3733391638808	-123.632486727725	-0.0937975915099077	-18.9305538954839	
9875000	-0.046272250274517	-20.0742418047661	-73.8190135871954	-74.3030624766567	-71.4089867904783	-121.805888161149	-0.0906188371665346	-19.3745387257997	
10070000	-0.0398340918156492	-20.5360147199523	-83.9910552774092	-91.6138979528534	-76.6301729036331	-123.213253733322	-0.0853722244108237	-19.8394504191807	
10265000	-0.0430987040738253	-20.9212753726325	-72.6738774310572	-132.204951271984	-71.1747100895946	-70.0346063368099	-0.0835825677383454	-20.2710679020976	
10460000	-0.0454830804494802	-21.352330160729	-74.3154749905977	-71.4287685564714	-74.7367007207592	-86.8261134680285	-0.0818619940319151	-20.7018925776173	
10655000	-0.0499201030596445	-21.794687965027	-70.2464103403683	-141.257287845733	-74.9452942988709	-98.2739558763067	-0.0819645972459409	-21.1608635962264	
10850000	-0.0571157588749889	-22.2374057959558	-79.9719342545346	-72.1936520744146	-70.3785219552641	-91.9076436531658	-0.0854519032357321	-21.6020967158718	
11045000	-0.064713394315993	-22.6581047831372	-69.0749063377413	-137.56727726789	-71.0989610783963	-100.960001931625	-0.0877079887016141	-22.052270142836	
11240000	-0.0722885662450216	-23.102601334555	-88.9092595182933	-149.63378308703	-73.7752777610027	-106.676990789526	-0.0929802528891816	-22.483516622859	
11435000	-0.0863435668751983	-23.500893734555	-73.3157909580415	-75.7512083225002	-80.6346600183739	-132.205055602355	-0.10185602575747	-22.9458086695885	
11630000	-0.0966132931133545	-23.9645487124795	-73.7940220383515	-140.119606069075	-70.9906200590559	-101.58948315345	-0.108700054773904	-23.4123973183102	
11825000	-0.109938809801032	-24.4053362351454	-83.2620875355354	-67.4474174867259	-74.1296407296784	-148.420658692488	-0.118930298434671	-23.8643977708697	
12020000	-0.122536210353163	-24.8561559453067	-72.3096943017175	-67.4019227485218	-75.770484868622	-74.5647439165757	-0.129982476468553	-24.3538851980601	
12215000	-0.136760273628679	-25.3607698143537	-70.8043893257969	-125.420753816607	-70.3393220403839	-67.8524936487302	-0.137984517960017	-24.8452933229597	
12410000	-0.146998886738735	-25.8487560779784	-71.6449436442187	-81.4245485062619	-69.5188034977181	-131.072494893155	-0.142912357453079	-25.3444186897978	
12605000	-0.160565349524035	-26.3587565325642	-69.6764911131399	-160.972219150394	-70.7192504065816	-145.694592850014	-0.141716017248426	-25.8447196042849	
12800000	-0.164660636282601	-26.8678860083598	-71.1436696648461	-86.8662109989098	-66.845493144842	-82.2953281607709	-0.141923819213462	-26.3568578110005	
12995000	-0.175523392345142	-27.3944150518613	-67.7932565148442	-121.713144708332	-69.9683034217006	-110.236377493922	-0.143752915186464	-26.8784938658653	
13190000	-0.181173220722338	-27.9028925620532	-69.2595138271141	-102.241992365796	-72.4832636690998	-118.721612588478	-0.146687717604819	-27.3846796203382	
13385000	-0.189224716650503	-28.4645248822378	-74.3882503598273	-69.8315832025881	-68.8707567300994	-96.1916934973296	-0.146688446634404	-27.9154988285521	
13580000	-0.196646894611654	-29.0219832899029	-65.6742276628865	-91.2698570855841	-65.4876740954211	-57.7383512745203	-0.146573676594846	-28.4514676770482	
13775000	-0.204283626620865	-29.5674876176643	-69.3028984259779	-120.902941638786	-70.7737290906175	-76.5068056811962	-0.144727971116442	-29.0209012859199	
13970000	-0.211578931804676	-30.1550180853008	-68.4364834002733	-87.7208491441589	-69.5835669695014	-86.3827567069167	-0.146456347635555	-29.5691405178028	
14165000	-0.212862537036013	-30.754688659406	-82.1861157180178	-138.144236385571	-77.1414154324123	-72.1593217751902	-0.150734582344756	-30.1428787653875	
14360000	-0.225963067490192	-31.3213331137671	-65.2114432390021	-113.97579793742	-66.1197781268982	-137.980176058898	-0.157946313336613	-30.7178217608773	
14555000	-0.236854073589625	-31.9590833389844	-67.4527693618423	-138.824225916044	-66.2366862583504	-143.519068943896	-0.167753602685635	-31.2950984622727	
14750000	-0.248441663194651	-32.531969951583	-65.0709580569678	-78.5718718069322	-64.5499025121884	-129.3010759783	-0.179115562620393	-31.9037778193387	
14945000	-0.260942273422852	-33.1395459332833	-69.9195926082599	-101.393354000102	-66.4468122857353	-94.4754546616678	-0.191686942629783	-32.5062608484133	
15140000	-0.270457603667946	-33.7600827459782	-68.1432463437117	-114.52774016248	-73.6370561208588	-172.979655234828	-0.199519219776389	-33.0890165967867	
15335000	-0.277779668623515	-34.4214267234602	-70.9938758696085	-86.9802407332543	-67.3102670976433	-126.662724299827	-0.205747337678778	-33.6886301508672	
15530000	-0.281736589011311	-35.0529120257671	-72.4101049735421	-84.7410319601662	-63.6657201926167	-117.524354598576	-0.214229541549653	-34.3034553070728	
15725000	-0.28802043991478	-35.6930070331076	-71.4086895404871	-146.585401956255	-72.707118294516	-175.809001007567	-0.220303706167312	-34.9134821366845	
15920000	-0.293484839434667	-36.2934318839426	-88.3082927012323	-169.431551439734	-77.384129688599	-131.634678805032	-0.226882352801161	-35.5479940367564	
16115000	-0.301232908618373	-36.9682402750041	-66.9680855606138	-116.856244570197	-70.5380749806641	-129.459337167721	-0.23153252106588	-36.2204164690684	
16310000	-0.305342678488284	-37.6441936149488	-71.4266056771549	-147.045234997963	-76.8196063837354	-146.447808790486	-0.231464648032882	-36.8827857663307	
16505000	-0.304529670141173	-38.3322946056042	-66.351583033987	-150.581549462441	-71.6803473896873	166.012051440985	-0.233456073967277	-37.5805424421844	
16700000	-0.306744388816986	-39.0178417092884	-78.2070130254281	-99.911425236961	-75.9276679206164	-166.5409589906	-0.23039322859486	-38.2554425585772	
16895000	-0.299795632335905	-39.7336846777434	-71.9634892923451	-77.777048444117	-70.1508585240211	-113.448454187046	-0.230175491974985	-38.9751856562888	
17090000	-0.293619259679776	-40.4160032663996	-73.9475897938057	-147.447263116433	-71.8273747006078	-114.582296580145	-0.23222143457691	-39.6606788952225	
17285000	-0.283368174052211	-41.1291119309707	-67.3920691629454	-122.407734094232	-70.9256989885062	-147.889097096156	-0.22809440330945	-40.3292665935543	
17480000	-0.272589106705441	-41.8457566193425	-64.5972151646393	-158.009305088724	-69.5090656448077	-156.168790309234	-0.227886651129432	-41.0738112498573	
17675000	-0.266607358355683	-42.5544764200799	-68.2155625262915	-142.98794518313	-67.1906207221516	-116.487585839516	-0.230479501083575	-41.7640769057958	
17870000	-0.255655967241482	-43.2973329140982	-69.4168067759217	-110.083301470896	-71.5800522396513	-114.190642155831	-0.221173519525584	-42.495762859423	
18065000	-0.245645450651019	-44.0344532105151	-69.0829559904039	-139.939340580075	-66.227586941316	-134.219133053655	-0.216364296947372	-43.2148155126875	
18260000	-0.235592040131333	-44.756871973934	-65.3005876324056	-111.900301720327	-69.2750072336829	-107.320308322091	-0.211704214254522	-43.9335367429612	
18455000	-0.2253141496165	-45.5033593101208	-68.0507862688111	-114.107774065303	-65.928645057758	-134.613674792104	-0.205173965469403	-44.6695882222186	
18650000	-0.216284068464641	-46.2269022963858	-65.7927347716434	-129.566194886059	-69.3887097771932	-127.717424471361	-0.194012210771535	-45.4813455599954	
18845000	-0.19999836566983	-46.9781050147151	-67.7374975288991	-124.027851804056	-66.1393564094209	-123.702973838673	-0.188097346530578	-46.2409828014415	
19040000	-0.191973061870936	-47.7231923237882	-70.1446074877738	-118.636840321163	-65.7679503770275	-127.93995004926	-0.181428894404379	-47.0176763757738	
19235000	-0.1917714778307	-48.5011458071213	-66.2277797993306	-113.42036786763	-67.4480935335145	-105.068961571024	-0.165818169600933	-47.8056398293452	
19430000	-0.180380366491985	-49.2592995719339	-66.1885753277948	-122.68627120517	-65.4371169279432	-128.536790324515	-0.160759579271671	-48.627131009268	
19625000	-0.180537823017505	-49.9991947836523	-68.0735125308701	-140.111916578935	-64.8557023453091	-116.014225331091	-0.152461687500504	-49.4130793273934	
19820000	-0.177650887657666	-50.8108602806368	-65.6238032993603	-123.286819296999	-65.2199189678271	-110.634438582083	-0.148904838590404	-50.1937447184461	
20015000	-0.178835506897295	-51.6148687121995	-67.2166385278134	-122.671410014568	-64.4335212718705	-123.206707515429	-0.144670956995904	-51.0128535563833	
20210000	-0.188844180843758	-52.4258714834207	-64.9301304395007	-120.829355351498	-65.3136282960708	-123.728730108359	-0.144601216591808	-51.8712139403605	
20405000	-0.203822242131244	-53.2808216188532	-65.6604824469103	-121.953962055307	-66.1236915669659	-113.500721492904	-0.156835010863337	-52.710362079326	
20600000	-0.218833692559368	-54.1514683033178	-62.6391468673149	-120.369691407915	-64.0260034608929	-125.655535830277	-0.161007554927675	-53.5632603962834	
20795000	-0.241101666084297	-55.0222380263865	-63.3568518106454	-127.16057593919	-63.5013718072605	-113.577271022558	-0.172517803396311	-54.4597711399841	
20990000	-0.258444924538027	-55.936336374536	-64.0850335591177	-115.549592452211	-63.4468283978636	-109.409176246437	-0.181509888145613	-55.3555913497343	
21185000	-0.287095375496347	-56.8760456880614	-61.7872850539397	-126.387852638144	-63.6816245651482	-131.863947085725	-0.192850889358933	-56.2990305754124	
21380000	-0.311915246530405	-57.8120278638745	-62.8065880330544	-141.455013650442	-63.5469446692017	-115.444883980516	-0.212296173615787	-57.207290670384	
21575000	-0.338627269511924	-58.7947333920074	-63.801585238927	-128.601722041681	-60.2985970179114	-128.662578339856	-0.232305475786237	-58.1512234679788	
21770000	-0.355934990003455	-59.7285678697269	-61.6243614148331	-124.96158858718	-63.0452866168168	-116.0261983711	-0.249901495991844	-59.1416430792943	
21965000	-0.380987127390511	-60.7757879885253	-62.7893028293194	-109.890907581283	-64.3002727889866	-104.444729024045	-0.269764879717849	-60.1746803029281	
22160000	-0.395756344525628	-61.8147560689248	-61.7047262535666	-117.405413392258	-63.2149023342294	-114.181354155321	-0.279338790870125	-61.2377035039997	
22355000	-0.410972434546893	-62.8583050142946	-60.2961684328408	-115.923358065853	-60.7869156540005	-117.183796537344	-0.291146915317702	-62.2976503143453	
22550000	-0.430040950961	-63.9310593819099	-61.874962663192	-114.129768582517	-62.4005279724385	-113.587429275769	-0.300393040878	-63.3815722890542	
22745000	-0.447870280822278	-65.06715607122	-60.3521225298715	-118.705061691373	-60.307769637238	-127.183353405065	-0.298746988376372	-64.4965651032556	
22940000	-0.465886733875073	-66.2295777230744	-60.3342753827152	-109.078303188716	-59.757028274838	-110.00093208046	-0.309131728076342	-65.6085851092651	
23135000	-0.491088497010111	-67.3696756198096	-59.9643385695485	-103.073107444987	-61.5935404024846	-104.466795272757	-0.31070811158265	-66.7511601427406	
23330000	-0.514369933451092	-68.5780878512237	-57.7576418081277	-117.111645452008	-59.4931954806329	-117.122140235222	-0.318216644425576	-67.9145369714522	
23525000	-0.533934821748092	-69.7903029458636	-56.7177583340947	-110.930924324784	-56.8667827718377	-106.92203687292	-0.323184835288232	-69.1084103495196	
23720000	-0.553439683116392	-71.0820373162102	-56.0070687824425	-111.16775830794	-57.2822927491207	-120.254565048749	-0.332991517249234	-70.336419179152	
23915000	-0.585029503393956	-72.3520780965437	-55.4066929493217	-113.765365115848	-56.6077412606152	-109.048781050975	-0.348596162334676	-71.6111146555523	
24110000	-0.604767238752373	-73.6652637444138	-55.8732083185106	-108.934024461484	-55.8452397578026	-117.745586303936	-0.373073283637299	-72.9113745119141	
24305000	-0.638347897934848	-75.0458380045466	-55.3248299092258	-111.827976559135	-54.1411500009296	-109.759117465778	-0.393941558917633	-74.2347627874777	
24500000	-0.668502542746011	-76.4679439338607	-54.3474006632752	-111.846796032754	-54.7976448290877	-113.567603531112	-0.41091622838302	-75.6079441687536	
24695000	-0.684798337965453	-77.8398447861436	-53.9264570158306	-124.021888192518	-53.685970976138	-114.344007643767	-0.43507120331452	-76.945944944389	
24890000	-0.717642630399042	-79.3216263922102	-53.0319093628554	-124.826405408304	-52.4744571266741	-116.900520536386	-0.455041989388294	-78.3693995581831	
25085000	-0.744112070479135	-80.8633116583929	-52.2580588258599	-130.070060150023	-51.9877429317028	-123.01620290023	-0.478602875930981	-79.8461245227258	
25280000	-0.773191933079913	-82.40543616205	-51.7852815530686	-122.857747825718	-51.9342050205721	-123.946426970866	-0.501781887933048	-81.3176724272846	
25475000	-0.79935701100254	-83.9919543654143	-51.4958070361342	-131.471744414398	-51.481520363771	-131.798078694494	-0.531847366904824	-82.8578952524328	
25670000	-0.836563929199837	-85.6157699370959	-51.2179089197569	-130.946129857217	-51.0009748930015	-131.17938614247	-0.556322457448971	-84.4452664509811	
25865000	-0.864971098188812	-87.2451713826942	-49.5438953449798	-135.327916459748	-50.6587016672499	-130.095668629872	-0.582337927243729	-86.0836781500346	
26060000	-0.905921735545879	-88.9367131981734	-49.6769189126347	-137.190726097939	-49.9838070413766	-135.067349685924	-0.607143237019862	-87.7245358780693	
26255000	-0.937539709583343	-90.6867646173645	-48.4765327810258	-139.053695567459	-49.3049559244847	-133.779079978512	-0.638411208084922	-89.3884846405271	
26450000	-0.968773450771515	-92.421959583567	-48.7254550667707	-140.908904017207	-48.6501803437065	-141.944831176017	-0.670475382283723	-91.1496641358779	
26645000	-1.00829873109776	-94.2276543675575	-48.6217249648819	-141.200659643949	-48.2232248833631	-144.100599093051	-0.697611290404066	-92.9408221854935	
26840000	-1.04364889062904	-96.0917927295899	-47.6879887376818	-147.573375609325	-47.2978616521683	-148.323314770885	-0.737422366975799	-94.7678725415192	
27035000	-1.07854599587267	-97.9705363950372	-47.9661459779567	-149.281376978965	-47.2815799165928	-149.561268815911	-0.772373758387888	-96.6194412718816	
27230000	-1.11534571087231	-99.9105208448296	-46.8600969725998	-152.595739025964	-46.6355385215117	-149.981827155878	-0.804342946031	-98.4952801155241	
27425000	-1.15426675875397	-101.906291133432	-46.1447245219154	-155.042790211895	-45.9565779092817	-155.866510140512	-0.840177590664342	-100.4304273629	
27620000	-1.19486527290183	-103.930844645934	-45.6931084041329	-158.989596386862	-45.8047494956596	-158.088611546186	-0.885669191673653	-102.437359243604	
27815000	-1.23419255884543	-106.016316106529	-45.1947881850251	-163.079872904312	-45.2485655562422	-163.100594547209	-0.916334764188435	-104.453828076654	
28010000	-1.28237332367663	-108.158997097837	-44.9161248875318	-164.629701068557	-45.1451350980884	-166.415177049636	-0.95791481257377	-106.579452796776	
28205000	-1.32502361269568	-110.339042219828	-44.5119475021139	-168.932779317385	-44.4923868085381	-169.136057995212	-0.999121231010974	-108.691488462289	
28400000	-1.37641688239562	-112.555210942672	-43.9451702050153	-173.345985335785	-44.1330250452415	-173.808336980214	-1.04703567495005	-110.859065678557	
28595000	-1.43875712758132	-114.806604583911	-43.7773581313288	-176.171289563397	-43.7726095911083	-176.642045955806	-1.0918462315825	-113.094059363635	
28790000	-1.50208239946757	-117.140220265775	-43.3234822461564	179.311093674191	-43.3300576058927	-179.537832808987	-1.14079062619265	-115.350282319205	
28985000	-1.58026910257142	-119.533829483527	-43.0241000465911	176.396378415151	-43.1416490320559	176.07829261162	-1.19118353931928	-117.684842143082	
29180000	-1.66251749587681	-121.944394342651	-42.7373042378992	172.824858148297	-42.5496846179232	172.292978959195	-1.24884662392689	-120.041069889363	
