!Keysight Technologies N9917A: A.12.46
!Date: Thursday, 10 November 2022 22:38:57
!Timezone: (UTC) Coordinated Universal Time
!Model: N9917A
!Serial: MY56071016
!GPS Latitude: 
!GPS Longitude: 
!GPS TimeStamp: 0001-01-01 00:00:00Z
!GPS Seconds Since Last Read: 0
!CHECKSUM:0976826269
!Correction: S11(ON U)S21(ON U)S12(ON U)S22(ON U)
!S2P File: Measurements:S11,S21,S12,S22:
# Hz S DB R 50
5000000	-0.136159397950611	-8.91014676696289	-68.9268305842114	-49.4725655033733	-65.4479955103971	24.2110959807223	-0.228966019136769	-5.25513914878644	
5195000	-0.146986162257115	-9.38581114789185	-72.8613419367177	99.804893414536	-67.6208030078293	137.75957004499	-0.23802133299988	-5.62499527866869	
5390000	-0.154587471722144	-9.80971765693033	-90.1982758438444	-24.558331096172	-64.6743156541859	100.579748131075	-0.249108090947936	-6.00402006927344	
5585000	-0.164413220529736	-10.2745449327778	-65.5340813209845	27.4549136201371	-72.4483515520815	-25.7046817674372	-0.256864239747646	-6.32910962981557	
5780000	-0.166004720221868	-10.701884097978	-76.5757637883868	143.373110681441	-74.525279619957	119.984286588234	-0.251054120168466	-6.69209606125127	
5975000	-0.157859465464909	-11.1722161216177	-74.8928650186842	-72.7965620471108	-73.6938850829794	131.583191168817	-0.262186667496796	-6.97847947752491	
6170000	-0.154912182106616	-11.6331938069745	-71.425084324378	91.4142039428668	-69.3557102787081	99.0746841698164	-0.260000359413188	-7.32682909118503	
6365000	-0.149988679492621	-12.043220722477	-65.4541449453342	110.334735588086	-69.4894396991174	77.9960708518886	-0.261435187324218	-7.67261789498489	
6560000	-0.147784278944179	-12.5203535943291	-76.0652829098539	7.91890062355932	-83.6912616768081	36.4359499700156	-0.259684437437798	-7.99346841945301	
6755000	-0.137465135005566	-12.9756052959037	-68.1930628214517	11.1489217628504	-74.0977471127907	6.24685208198933	-0.257788682773049	-8.30515897051538	
6950000	-0.126169895295354	-13.4157631844345	-75.1794165189191	5.72214712653771	-66.8885903268299	27.6401651927678	-0.255658709454792	-8.60476220228419	
7145000	-0.117191413670875	-13.8711442204249	-63.4867470032619	62.4790087171023	-71.5653547862637	-22.0248139203942	-0.2478701513128	-8.92856138460052	
7340000	-0.113923807526736	-14.3368941564014	-69.2962719488054	135.423851559838	-68.1595719366687	7.06946832196692	-0.248299764377972	-9.24511205463582	
7535000	-0.0990994232399126	-14.7957313338596	-67.9214395764127	64.3292522947884	-73.8939499441348	-40.3159228459405	-0.243985355467326	-9.56259927804054	
7730000	-0.0919880117445573	-15.2148041768364	-69.6522672578687	72.4790872116148	-70.071446264136	51.4419429330806	-0.240453617385403	-9.87974618181731	
7925000	-0.0847884652948504	-15.6540292879003	-71.9829458858233	20.991725774814	-72.2185198354171	61.4889054403291	-0.239804608102109	-10.1931292139633	
8120000	-0.0749649872532437	-16.1006464853878	-70.4259844139067	-29.9568603726036	-71.4301477847873	62.6459836886608	-0.240514148971793	-10.5190142690134	
8315000	-0.0692744698318034	-16.5803928566141	-71.5188436284465	110.413459418759	-83.3627846795534	28.2798713476138	-0.235190131641109	-10.8284038542047	
8510000	-0.0618062848548711	-17.0041083691547	-70.906779131746	44.7051912490332	-76.059338855113	56.3757198664286	-0.236527111234004	-11.1790726972358	
8705000	-0.0554306824667219	-17.4374321101035	-78.7210326670738	-98.0641765488959	-81.7205561511862	28.2773035731558	-0.234319315711116	-11.4801032347397	
8900000	-0.049107036467296	-17.9082547129531	-77.082703417581	172.399943068055	-90.2002971035469	-29.9306522662745	-0.228748044126397	-11.7859315986437	
9095000	-0.0443089941884414	-18.3758493988295	-74.6346296865788	62.7446422506277	-76.6830928585298	93.3312021591462	-0.229065846641597	-12.1696784464719	
9290000	-0.0386134618143713	-18.7936730148941	-83.0159243313867	87.4065642942287	-72.1708098050417	121.678487844659	-0.226243396214925	-12.4845952385746	
9485000	-0.0295583587402533	-19.2626778294368	-79.3373002590352	170.251093316785	-75.8220133752546	63.9085369033835	-0.22959509910792	-12.8372975926055	
9680000	-0.0224199710719941	-19.7119126281541	-71.4302713805622	127.458575176076	-69.7364524854088	119.759181215245	-0.229126398792094	-13.148423503633	
9875000	-0.0219094572876442	-20.1726899292385	-71.0232723320786	112.712419591107	-74.6021105846335	141.562241952244	-0.230599497350189	-13.5099757536681	
10070000	-0.0232662767880037	-20.5925386321591	-66.7274241064772	135.487318899956	-67.1679216973084	115.051695692306	-0.234916324455831	-13.854048212613	
10265000	-0.0221054167389048	-21.0607946721736	-69.5985746165032	83.3576135009183	-66.0512961365891	102.99968068013	-0.245156217267943	-14.1811752320281	
10460000	-0.0243851558124272	-21.5213928985723	-69.6086094758061	88.129090344034	-66.5862054674015	79.706419856801	-0.252292078007294	-14.5239311437137	
10655000	-0.028477030358288	-21.9967480567048	-65.7357115628147	106.751298557078	-66.2570932576792	90.6158089714447	-0.262760790231774	-14.8388701428889	
10850000	-0.0308601134921171	-22.4550262185881	-67.5512098988036	73.5411458363085	-64.7333598008741	93.7337668134299	-0.27241585426325	-15.190736598285	
11045000	-0.0374835934899331	-22.9067762658596	-65.6880424965778	92.9037265608485	-64.9848429247587	87.7831798071068	-0.285491118237574	-15.5004773030774	
11240000	-0.0429083514187739	-23.3821152154893	-66.1110154796741	79.7225183095471	-65.5694743111974	71.3762643280324	-0.294899251599233	-15.8340329822834	
11435000	-0.0495602424323837	-23.7912318795761	-64.4822551396935	86.8162043998086	-63.1424040554964	65.1413814691317	-0.30594887504857	-16.1552027102996	
11630000	-0.0539855465809314	-24.2993102597605	-63.5451151125289	52.078637417667	-64.5243044886082	58.30468179293	-0.317728802829099	-16.4932099189518	
11825000	-0.0637067088374	-24.743786180106	-63.1168210004659	45.9469691661192	-63.9256120944814	72.0867590944402	-0.330829985504631	-16.8368625082005	
12020000	-0.0692796784576232	-25.2562306197723	-62.6294039285287	54.3941489470684	-62.808603285029	62.1546212249899	-0.340487407697958	-17.166993642842	
12215000	-0.0725128535719224	-25.7420900486178	-64.0237420083692	48.0990450226964	-63.8822988057962	55.5540408738804	-0.357638839418192	-17.5244125164854	
12410000	-0.0761755411545667	-26.2595682547329	-65.2283988105035	39.2782772579246	-65.805716587307	55.5920057925827	-0.370492757133688	-17.9007168410958	
12605000	-0.0776317102828671	-26.7772797351139	-62.1150928458629	34.8114861896719	-65.0810440195668	34.3087890041712	-0.3819264726247	-18.2292690831029	
12800000	-0.0759841655905066	-27.2872728503119	-63.6033395249096	41.7124625298433	-68.2874114022826	28.3303221270729	-0.396306615187961	-18.5525663825871	
12995000	-0.0780251397751252	-27.8281082663622	-64.123353213165	34.6596821207006	-63.1108037151445	41.462890964746	-0.411002455899231	-18.9074221557967	
13190000	-0.0713367154394179	-28.3689352283643	-61.5628927602883	23.3035570071111	-61.9681351239558	21.3389456886444	-0.423529048549022	-19.2856475155912	
13385000	-0.0710058692244281	-28.9243129427003	-63.4301563560457	29.1441308256234	-62.9504562034398	33.1238882790722	-0.431325648744827	-19.6427612338126	
13580000	-0.0732581206836156	-29.4367052073257	-63.1291772054295	6.75833640155963	-63.5477512731095	23.9796382515158	-0.442048574987736	-19.9988273861279	
13775000	-0.0716069119885377	-30.0091703947972	-62.1080432739189	8.56566378569243	-61.6676869853927	16.4734264990258	-0.44999416933308	-20.3516533848674	
13970000	-0.0714065871258201	-30.6076578615566	-61.3701435686092	-9.04613454968515	-61.7346893099724	15.66744612223	-0.457367119527902	-20.7120458548277	
14165000	-0.0765221924264083	-31.1480872685325	-65.9811923531257	-5.232813347757	-61.4458024591415	28.5869163077289	-0.470213520976174	-21.0504281954034	
14360000	-0.0786827169413406	-31.7188747386398	-64.8996645192592	-11.367249043434	-62.0966482697113	28.8602145479227	-0.487192966800908	-21.4302664506983	
14555000	-0.0830199698671827	-32.3131004446676	-66.6569345510122	-11.5401594816767	-71.2755172788342	-28.3493813698937	-0.509048500143542	-21.8017235917299	
14750000	-0.0957739832595281	-32.9408975310171	-67.1758283625809	-5.6368080388027	-64.8636071301275	-24.1600828980367	-0.531130564102532	-22.146217324665	
14945000	-0.10466996329882	-33.5319539867551	-69.7887254646607	-17.9491150649699	-64.8623467470563	-28.5515168931804	-0.559052176179646	-22.4868553331917	
15140000	-0.109006078687733	-34.1175233887776	-77.7001137113838	-32.6302028661581	-70.4436106099543	-9.52170481225481	-0.592179823162157	-22.8073024821647	
15335000	-0.119230192121362	-34.726610772057	-79.3861837255031	-130.370232796899	-70.2591387126345	-152.515752298182	-0.623990453440027	-23.179616122888	
15530000	-0.121354433225128	-35.376798429324	-67.5418385665763	113.676357319301	-69.1908352079279	-119.889898819632	-0.6543552938511	-23.4686168828803	
15725000	-0.127765645314153	-35.9646836177891	-65.683368032631	109.950459964266	-66.5404101540461	92.9213832881896	-0.688889166728776	-23.7568974367584	
15920000	-0.14370566913609	-36.6255837154827	-63.4885922132536	57.1487983245195	-62.2000706644513	105.824913460761	-0.716020977789503	-23.9999392625174	
16115000	-0.14381091067283	-37.277759735625	-58.8391644207635	93.0803438358457	-60.2689095353511	76.6180234479662	-0.740161967748644	-24.2335927877867	
16310000	-0.146015791188875	-37.9130308167141	-59.9222638025678	61.4776057871616	-62.1379848546652	41.9297742130066	-0.759678458917308	-24.4931650748227	
16505000	-0.155123079103104	-38.6355733564819	-59.3232463416757	51.9636129098121	-59.4600595230644	39.944612807735	-0.770791627286985	-24.8225905554553	
16700000	-0.156676910458447	-39.3022882155465	-59.1706549138569	24.0635605104076	-57.7815098460507	38.0974674147222	-0.784216083739928	-25.1730436635149	
16895000	-0.152263394714911	-39.9933769128152	-62.4418215221856	19.2557967465297	-59.2077387899616	8.11560619119912	-0.80387810908389	-25.5041536392794	
17090000	-0.149831481482939	-40.7340003263834	-60.5534782698426	23.9223707230614	-60.333024013487	23.8260628132079	-0.821384961053654	-25.8413550267888	
17285000	-0.149656093001664	-41.4483997312493	-60.9375497427006	1.23713905323218	-61.9851264743545	18.8011635381904	-0.837056224489367	-26.1036010220571	
17480000	-0.143233407133552	-42.1488827358631	-59.8621379319163	-9.30877530012364	-61.1441569137611	-1.21975002152305	-0.844290244444746	-26.4372615245945	
17675000	-0.13793050883428	-42.9056581356991	-60.088332635149	1.98705975125873	-62.2696602269313	-15.6282885210721	-0.853753478636974	-26.7019826624887	
17870000	-0.131390766078267	-43.6648487053588	-61.1935648172465	1.98118699754435	-62.3761662183899	-3.86097956717195	-0.865393051320294	-27.028559990132	
18065000	-0.128109490344599	-44.3910933205595	-62.4853829606372	0.901762632614668	-62.448473395951	-1.73755263503044	-0.873847456269226	-27.3318140680345	
18260000	-0.120615514531733	-45.1705356945295	-64.0908413138991	-37.6768504224368	-62.9674683997643	-0.3194685881403	-0.880040248534427	-27.6703406304572	
18455000	-0.118085608530592	-45.9440854663068	-61.8818726289162	-18.5397626979102	-63.3040986134685	-17.1374826946684	-0.891556361706521	-27.9465447283534	
18650000	-0.111487819022099	-46.6880868647402	-64.6953128404104	-12.5460428373371	-65.0546735744857	-11.9710937692327	-0.901397381351246	-28.3139669352561	
18845000	-0.102182617466604	-47.4813922178415	-65.6162522492676	-24.1667649529387	-63.7194837249958	-30.0228348140216	-0.908741989364354	-28.6952646605486	
19040000	-0.0959279103877051	-48.2775596816361	-63.0729664202669	-22.9886513786229	-66.3770291836473	-24.5717864062196	-0.916425876086313	-29.0483975764308	
19235000	-0.094745730489525	-49.0899590780513	-63.3947397715202	-37.9783134103837	-64.5984802096822	-17.4113480478245	-0.925744286723525	-29.4063970885708	
19430000	-0.0865783658082751	-49.8827185972711	-69.253745335032	-7.23425715319628	-64.3367605835583	-24.3875914399154	-0.935676370417735	-29.780428465596	
19625000	-0.0837299570220862	-50.7271302200113	-65.0209947982672	-25.721593801307	-65.8149671734433	-1.61525667023586	-0.940271541293561	-30.1073550348318	
19820000	-0.0873081229720238	-51.5877628034824	-66.4157174798018	-8.98794729533725	-68.1120894019975	-36.8589149795849	-0.947989960885751	-30.46956730093	
20015000	-0.0909956697882612	-52.3945011021695	-66.0684905395743	-5.94464055835826	-65.5107087344037	-19.5377418481622	-0.960181789262964	-30.8031179406669	
20210000	-0.0963932390950705	-53.315089869791	-68.218787758705	-10.937550393209	-67.8180444548476	-23.2218415504466	-0.974143167931238	-31.1552709038702	
20405000	-0.104824501652244	-54.2180276874419	-67.1662216905879	-13.824610964172	-64.8152654096897	-16.5184399679267	-0.989670065985507	-31.5186547016783	
20600000	-0.118224203708881	-55.1267452561475	-66.8477311033065	-2.58799370530099	-66.7631608620315	-9.39238528805896	-1.00482474725248	-31.8396332293291	
20795000	-0.13461647226099	-56.0517197885128	-65.6991079071118	-11.3457173430145	-68.3738807218661	-3.34328651772354	-1.0209884396121	-32.1539899338525	
20990000	-0.149900928173951	-57.0682158864494	-65.297608206905	-3.76585789737071	-65.6715310075597	-29.1273385856646	-1.0364430148091	-32.5260729245196	
21185000	-0.165857257279072	-58.0220725061128	-65.9339744814793	-25.7828449345073	-65.1866603016242	-17.481502439576	-1.0508985348921	-32.8614558234833	
21380000	-0.178218373750581	-59.0461933922636	-64.7963072599457	-19.3411114179673	-65.1676883316282	-16.1704883585278	-1.06865866824894	-33.2331409036208	
21575000	-0.196318658062539	-60.0890023098814	-69.1564571860912	-25.0941717019781	-65.0044241092984	-36.1786153878559	-1.08807674650684	-33.602881639298	
21770000	-0.210583793404349	-61.1634034495178	-69.5738368973137	-54.9974713272228	-65.2196353881639	-35.2963670131867	-1.1032082828317	-34.0054492226588	
21965000	-0.221312312933677	-62.2169311684844	-64.3261302267351	-52.5786577310094	-63.8296023053105	-36.8994465953594	-1.11832469895018	-34.4077087536941	
22160000	-0.227402869298394	-63.274203443711	-66.1364986211991	-48.0302970573293	-64.2575013056479	-49.6255320388719	-1.14085384279898	-34.8619645121052	
22355000	-0.227669984295768	-64.4195218616954	-65.9581942003984	-68.5934707237627	-62.4361972401184	-58.573956096903	-1.15258205103679	-35.3089360201235	
22550000	-0.23056047495469	-65.5232652670467	-65.4657994610523	-79.6336191592036	-65.5599098307616	-67.8522746574293	-1.1645777083215	-35.7980028009734	
22745000	-0.236826424662871	-66.6798163520814	-65.3178784523968	-77.1355684867359	-66.3696952784073	-89.7764860673286	-1.18272659207759	-36.2656929163667	
22940000	-0.242043863675037	-67.8801521323608	-67.500494985082	-106.42898870489	-68.8445661456022	-118.654047719679	-1.19718819357821	-36.74613925955	
23135000	-0.249229733508344	-69.0985138572248	-72.5607475736519	-90.3099677648423	-65.2547332634779	-136.872374627758	-1.21361839004715	-37.2445963899479	
23330000	-0.256836481024057	-70.3295570912594	-67.4922243077406	-139.450842760656	-70.9009430437996	-74.356814411556	-1.22856631058169	-37.7424037541244	
23525000	-0.267681187143579	-71.6075827586493	-70.9304340764087	173.140765940913	-68.6197857753775	-127.4258701335	-1.23976988516067	-38.2266000844641	
23720000	-0.274566531971381	-72.9761523944916	-65.5229843769782	-157.546862391016	-68.9674099352231	179.451076751717	-1.25963312249542	-38.7033177520802	
23915000	-0.298087304813744	-74.2263893601992	-66.3783977441422	175.289217201522	-64.2641158081541	-177.570091540065	-1.27584932658068	-39.2126000758592	
24110000	-0.312544724043821	-75.5931560190731	-70.7480487900389	169.371353325181	-64.4208621493912	139.250677034143	-1.30296536811655	-39.6984304807378	
24305000	-0.337309106645016	-77.0365889505547	-63.13820851102	157.02170180156	-69.6170829123767	145.003484838003	-1.3239857503213	-40.1812812708963	
24500000	-0.352043653333246	-78.4632777648973	-66.7257721671137	139.039221521828	-63.7900559648929	165.537750365589	-1.35458350126004	-40.7035091970384	
24695000	-0.380709107619424	-79.9138764135926	-61.8083727442799	149.352360744539	-62.4980081539343	129.789119183932	-1.37996086234948	-41.2193142595468	
24890000	-0.403180232525758	-81.4476807137906	-60.6597954836756	119.828759523817	-62.3260356139934	140.933656965244	-1.40790105053074	-41.7749545443582	
25085000	-0.421201423379607	-82.9800143683829	-60.8213365211942	126.53667711141	-61.5470299434721	129.628117121412	-1.43374556702615	-42.3447405427392	
25280000	-0.447817388603234	-84.5715286800828	-58.9977044576402	132.672372080912	-58.7570966091441	127.890456638102	-1.46628773484173	-42.8663493246733	
25475000	-0.475419009635994	-86.2382981983913	-61.9558278271612	131.137373626324	-59.5486386791841	128.734751727863	-1.49764487300717	-43.44915439016	
25670000	-0.497865480313776	-87.9444466583841	-57.4402252836346	135.195675249756	-57.9548498462421	118.97673120961	-1.52855487425938	-44.0612909021636	
25865000	-0.540479658752155	-89.6157422354851	-56.7408365381877	123.313903850362	-58.9176589922253	128.737893194462	-1.56134088830392	-44.5886690571396	
26060000	-0.570783788071671	-91.4036786055902	-56.7396460754162	119.533896661737	-56.3211312325143	119.146761388539	-1.59746347567586	-45.2215439418374	
26255000	-0.611563581518656	-93.1859243855196	-55.0408459567798	122.271650484756	-53.7350571756248	106.521393011065	-1.63573059686482	-45.8440954866736	
26450000	-0.647787652089944	-95.0192090559095	-53.3894383569122	121.585053581433	-54.1078249454724	116.611944362566	-1.67768962156662	-46.4134706918659	
26645000	-0.683488727190317	-96.886544686062	-51.820908516471	112.527268026151	-52.9952114520218	112.728032005935	-1.72001802446086	-47.0780829346416	
26840000	-0.720907926195627	-98.8322079568594	-51.5987150740095	103.21999119511	-51.0167304106213	109.377792465102	-1.76379971434063	-47.7426866946656	
27035000	-0.76353677027791	-100.775740175362	-49.5855748778815	96.2968556510814	-51.0181249760598	100.57865097121	-1.80842395132695	-48.4278804508479	
27230000	-0.794681597181192	-102.78841371606	-49.3715931992518	88.3805610118266	-49.5526610116918	89.1832655301245	-1.85326858699845	-49.1063039988798	
27425000	-0.83272828091461	-104.864080241994	-48.9767764311306	82.5502786387983	-48.8251438649355	84.8255102780321	-1.89690760705706	-49.8365025582409	
27620000	-0.869529848415124	-106.97126949623	-48.6390023680772	76.0044417939351	-48.6321962893502	79.8167228119437	-1.94471227568933	-50.5772736896453	
27815000	-0.903727607421867	-109.157218944106	-48.3384128014356	74.3258639164003	-48.1272172242723	73.6391333952136	-1.99238522535749	-51.3028418993875	
28010000	-0.938263949812003	-111.401559558563	-47.7685864871663	66.7846558413313	-47.9015308040582	66.8427368179066	-2.04702005270491	-52.0681405609685	
28205000	-0.979517376686787	-113.664017859661	-47.7852488827941	64.4860840714782	-46.9592618832342	62.0257375278928	-2.10388178530274	-52.7869461874135	
28400000	-1.02526149700644	-116.038395674904	-47.2448719111777	60.5239689169407	-47.1346909856139	60.5383364475118	-2.15603089300888	-53.5739709831769	
28595000	-1.07669177846778	-118.402069231588	-47.0564160609381	55.5615136891403	-47.121582268409	54.9034729017804	-2.22426851730508	-54.2990471011002	
28790000	-1.14197871570594	-120.826776403649	-46.7675236529509	52.1510744015091	-46.7062638050992	53.1936709640851	-2.27177514259937	-55.1002881216848	
28985000	-1.19580371332775	-123.335960731583	-46.2029589019681	46.7422182768668	-46.35746406561	48.7905770859736	-2.33101139434549	-55.9098816871908	
29180000	-1.26703561721939	-125.889709571574	-45.8850333181256	47.9411774919264	-45.8721549429894	46.9462531412873	-2.39326362638274	-56.7325627996438	
29375000	-1.3459417595836	-128.519220161982	-45.5007323081519	43.9687192622127	-45.8562458321802	42.6916265218908	-2.46066750139909	-57.5090760804052	
