!Keysight Technologies N9917A: A.12.46
!Date: Thursday, 10 November 2022 22:49:09
!Timezone: (UTC) Coordinated Universal Time
!Model: N9917A
!Serial: MY56071016
!GPS Latitude: 
!GPS Longitude: 
!GPS TimeStamp: 0001-01-01 00:00:00Z
!GPS Seconds Since Last Read: 0
!CHECKSUM:1907033231
!Correction: S11(ON U)S21(ON U)S12(ON U)S22(ON U)
!S2P File: Measurements:S11,S21,S12,S22:
# Hz S DB R 50
5000000	-0.182967435805016	-8.0826435953645	-80.3573795232437	152.190079875034	-73.1392999570044	33.0853812417685	-0.205983594060987	-6.94005982325193	
5195000	-0.193648275063422	-8.55649757249969	-70.7239878592307	-136.74162657544	-68.0628668792094	37.4641766997379	-0.220865026110149	-7.24429236807541	
5390000	-0.199915135324221	-8.9843481109781	-74.3893449593378	124.788369748293	-67.1941650909404	91.4419487432303	-0.241535182887243	-7.54354178459672	
5585000	-0.20579944300592	-9.47460465071771	-65.6240721739133	116.941925294359	-77.2933998792812	155.725003186309	-0.257934285344306	-7.79783853252247	
5780000	-0.201693533560652	-9.93541450645342	-75.156205111933	101.183755254125	-73.6204863660919	176.45812231268	-0.264186254873292	-8.08597640715417	
5975000	-0.196259332479629	-10.4063625621327	-68.2003470869998	45.7940419840669	-78.4175142063566	19.2979122569891	-0.282991352971407	-8.33975951581844	
6170000	-0.187759550523392	-10.8476555271147	-75.0186489699877	60.3966367150372	-70.3280269826049	33.6136070083221	-0.290806405456298	-8.59630567160188	
6365000	-0.184873260886006	-11.3126493107053	-71.5988705191529	-23.5654209422071	-69.8943700644583	-1.96854072037697	-0.297200309482156	-8.86290269043475	
6560000	-0.179362194875844	-11.8007653445746	-78.7265269400865	133.838219619546	-70.1733950290075	89.6969525548447	-0.302610441278358	-9.13620636276316	
6755000	-0.168238560481862	-12.259776356207	-76.1074101564354	11.0405601078017	-74.181572498182	-42.6130903564864	-0.312529517280721	-9.38904367046391	
6950000	-0.155954427225381	-12.7120724242229	-70.0168695909669	36.2912365664217	-70.606515798352	22.5649060080866	-0.31810611851419	-9.63216963772063	
7145000	-0.146617420456843	-13.1794108310825	-73.6833425416852	74.893709022198	-70.99803701893	43.0795595580949	-0.318843945269094	-9.88218078117042	
7340000	-0.132829709198339	-13.6435115270081	-70.6805342028335	78.1791815904286	-77.3861087910118	103.682723132536	-0.324056219264655	-10.1657485351391	
7535000	-0.125059640693641	-14.1123692496055	-86.1732218462294	107.045162253411	-76.1851970901058	-18.5813691929905	-0.328220791907999	-10.4082226748429	
7730000	-0.11681627608041	-14.564648311675	-91.3837544176365	-10.6231265620751	-72.6143553999195	-12.5772003387399	-0.331248499337514	-10.6662441172435	
7925000	-0.107981785573066	-15.0128379937048	-73.174819058168	3.16211214192906	-83.6354604877294	126.542340130109	-0.343297119003869	-10.934062465402	
8120000	-0.100315436786547	-15.4692974057446	-88.3167109505266	-50.0330701974521	-83.3925612728587	-27.7803729762251	-0.346534932651889	-11.2027876549584	
8315000	-0.0917822890314764	-15.9483459215337	-79.0036456813275	15.2782860651487	-79.0696308029835	105.079836095455	-0.35481128446741	-11.4715397703465	
8510000	-0.0795985930130294	-16.385114138787	-71.9454762917235	43.0699714805238	-70.1897732623996	56.8193139234519	-0.36156800773453	-11.7470747927324	
8705000	-0.0720786741786021	-16.8213300531799	-70.1013242760526	-21.1524732301858	-68.4300084873504	16.1748121120953	-0.368062637711223	-11.9968846200069	
8900000	-0.0681556196239472	-17.3016702511987	-73.3438602610625	10.9138557013052	-66.595249694761	72.8036296109114	-0.369439051499351	-12.2760154572598	
9095000	-0.0603006920602465	-17.7850934958574	-75.48259367457	88.1368326085148	-78.6775949090174	70.072784533246	-0.380191554275025	-12.5636710494256	
9290000	-0.054135756424657	-18.2221426608238	-69.191062537795	71.8929704987883	-75.1694811192186	45.6830736597694	-0.389324816487886	-12.8378108366726	
9485000	-0.0471135741257112	-18.699366973656	-74.3042657034329	45.058409671747	-66.9623438049301	59.2620992583126	-0.402548126503673	-13.1121218967534	
9680000	-0.0389150093022045	-19.1585725948	-68.8574049094009	79.3796809063345	-70.0173841783635	45.9778573223984	-0.412042831898785	-13.3901207292783	
9875000	-0.036760345885001	-19.6103597153878	-75.4992271458195	49.7674002502525	-70.3499087745954	74.5152355515979	-0.427264139451733	-13.6512884412679	
10070000	-0.0366429303556793	-20.0587411735375	-68.7311026763637	46.8625587588944	-67.2145957464896	46.5025237112542	-0.443405300851083	-13.9238500099446	
10265000	-0.0333191039204728	-20.5175384838242	-65.7581906236356	34.724388312175	-68.184223618675	38.5093203121235	-0.460358819426951	-14.1634281530269	
10460000	-0.0346375224351894	-21.0247887893921	-65.5890834048057	40.2604980257704	-65.6787097040626	39.5706424318301	-0.476142075554034	-14.4217371032184	
10655000	-0.0399695508971485	-21.4894872150543	-66.7152796329713	36.2139455480908	-66.8804748560954	28.1906396274119	-0.497882385807647	-14.6677711245912	
10850000	-0.0427024540193233	-21.952414586316	-67.6869567816249	16.5042480886323	-65.4729356477388	24.3140634496949	-0.514538523792851	-14.9282056172483	
11045000	-0.0461511505421498	-22.4244737553245	-65.5471502776743	27.2367498614697	-64.3065616044558	14.3499635053176	-0.536244139847122	-15.168255180072	
11240000	-0.0531098797642734	-22.8792315942937	-63.9398170404401	12.7677480932071	-68.8350040563129	6.5140810056909	-0.555550153810026	-15.4136877630682	
11435000	-0.0589271261922358	-23.3402321748171	-63.1703653208323	5.68868289479838	-65.6502829001568	12.781759566931	-0.571819882569721	-15.6565888563294	
11630000	-0.0659407773185073	-23.8402860473149	-64.3475795569687	13.184501457973	-64.7309900871166	11.1496065514588	-0.595103863188571	-15.912054998446	
11825000	-0.071757573048026	-24.3031984952848	-64.0663067817926	-21.8023791376961	-63.5104844071923	-4.92318452065955	-0.615240111272782	-16.1454802280215	
12020000	-0.0805965367523059	-24.8055265515527	-65.1280853039494	6.41745955636083	-63.0047422977756	-5.86092810266413	-0.634742583018173	-16.4018423530061	
12215000	-0.0822281613461896	-25.2870218623948	-61.031579683322	-21.7582149713965	-64.3020660527247	-8.41117768290607	-0.659033328828253	-16.6727519603552	
12410000	-0.0861151179202875	-25.8124979479019	-63.424124629677	-16.378925618856	-63.1128602680491	-38.9740044763834	-0.676283876903061	-16.9403184086393	
12605000	-0.0869299534967388	-26.3542906478991	-66.3357076616753	-37.533172895591	-63.7451895671401	-31.3104072001989	-0.699076497126091	-17.1824895959383	
12800000	-0.0858671628477593	-26.8667953099175	-61.5813946616626	-25.158884064863	-64.481415894293	-41.4721215486728	-0.717156598135206	-17.3953863348606	
12995000	-0.0872695316648108	-27.3970581968107	-62.8169164653042	-48.2630025657715	-62.2976899718861	-30.8797336648819	-0.741296418768095	-17.6619566730945	
13190000	-0.0797234638971697	-27.9443748775246	-62.6399397962479	-34.526336151987	-64.0121568850921	-32.7036411808008	-0.762559427067331	-17.8975351490509	
13385000	-0.0786961790723096	-28.4986741623886	-63.2394256769605	-20.6519806000344	-64.4314278859352	-49.9652983262896	-0.786102631899553	-18.1607174684529	
13580000	-0.0813559008747103	-29.042026492711	-66.9775705949901	-37.7669298289593	-65.7529306669595	-31.5564733688341	-0.807860856212524	-18.3947558821222	
13775000	-0.0745065259527049	-29.612619197642	-62.125564285734	-73.3407309945782	-64.5470875023329	-70.0099461852139	-0.823092654168107	-18.5991159171451	
13970000	-0.0785480277731439	-30.1909426821522	-62.7973408249948	-25.7586492003404	-64.4203820712076	-47.0638545375432	-0.841957814305559	-18.8455753576543	
14165000	-0.0824637336299781	-30.7641965663801	-61.4468372051718	-36.8769146808928	-63.9086493091006	-29.0300174573343	-0.85968240381647	-19.067075278509	
14360000	-0.083839325903073	-31.3289708424339	-67.9129419892652	-27.8368120890598	-66.9398628178621	-68.0038373050393	-0.879152715532568	-19.3130654123354	
14555000	-0.0879979440232585	-31.9424480341129	-67.7122766767203	-84.4991219099707	-64.4250251025849	-45.2290774881392	-0.903013237840263	-19.53013453624	
14750000	-0.0990446625739032	-32.534051702881	-66.5626533998711	-72.133414969618	-64.7870826574824	-39.8357359230074	-0.928508337708873	-19.7403707704718	
14945000	-0.112263607125636	-33.1195366406757	-61.3541783677596	-29.3043646378917	-65.5048093359132	-31.5991527925655	-0.955556329542711	-19.9576291351726	
15140000	-0.114771269980748	-33.7082544323169	-67.2379581080947	-24.2462084535831	-64.117455580938	-32.9398170732384	-0.993561669277161	-20.1110603327758	
15335000	-0.124268288072698	-34.34905977033	-60.8595328701188	-11.6231605732364	-60.0793154753307	-34.7935158309739	-1.02319081404302	-20.32425998869	
15530000	-0.12974215544161	-34.9421161370603	-57.4546143669912	-46.832736491469	-58.2042500631046	-43.0829353771723	-1.05094764748097	-20.4510929624479	
15725000	-0.135998531944024	-35.550220634857	-56.6246811200673	-50.4721916845329	-55.0887290266061	-49.3742168177719	-1.07746131807431	-20.5648889087616	
15920000	-0.145509567522131	-36.1884959393002	-55.0646826857659	-69.7576936804941	-56.1851418131654	-63.8646801070916	-1.0913605459038	-20.7100175053143	
16115000	-0.147725310203327	-36.8451013274576	-55.5407306702781	-89.4892339257757	-55.6433294125586	-83.6844031867326	-1.10160064242616	-20.8857255811539	
16310000	-0.154366765720488	-37.4733446621124	-55.5671379994154	-102.496509524102	-54.1908115772991	-102.511418318976	-1.12200136900354	-21.0787092073568	
16505000	-0.157136671680393	-38.1749884988759	-55.6990573771165	-118.285487348071	-57.1294700544875	-114.729163028338	-1.13245749324397	-21.3388439724212	
16700000	-0.158259436665458	-38.8321960375994	-57.861272424257	-130.804141382754	-55.0230760957482	-111.436916449761	-1.14830529824416	-21.575518253153	
16895000	-0.152286145901022	-39.536556235605	-56.4169010657125	-134.304563265463	-56.0892530424759	-133.290861145027	-1.16440585164877	-21.7917960064598	
17090000	-0.150214491180708	-40.2425153367391	-57.8948373082743	-125.91036094288	-54.894803721468	-134.930739990986	-1.17607490535342	-22.0156780678041	
17285000	-0.149360098679093	-40.9498350164306	-57.9168290743242	-143.565435699178	-59.1781965944523	-130.692179980008	-1.19096941434093	-22.1742737014092	
17480000	-0.140577554505649	-41.6413938732757	-57.5726463883527	-150.001048226769	-59.9331964016649	-140.517043703963	-1.18966961701141	-22.4068880095961	
17675000	-0.13873863706734	-42.4141517585507	-56.0024574735916	-145.525588949066	-58.4287119228299	-150.615211061419	-1.18992169056019	-22.6396730538979	
17870000	-0.132264811840999	-43.1525859868585	-57.9658881516868	-149.117817541245	-57.6518597544223	-132.118179719321	-1.19670160539584	-22.8886854694977	
18065000	-0.12718211179069	-43.8809984922835	-56.3458349195144	-154.734983461837	-56.7828871588425	-150.427731041653	-1.20231159584802	-23.1539200592656	
18260000	-0.119082753340933	-44.6551340171075	-56.8101040023435	-149.995899128876	-57.598898398828	-153.040016217905	-1.20577023754089	-23.4507919167567	
18455000	-0.114523942883643	-45.4316569930401	-56.8064874650749	-156.956114968092	-58.1087680786007	-162.167435857342	-1.21812004899226	-23.674364320738	
18650000	-0.106269774082825	-46.1846263731597	-56.5532018712714	-156.526100412306	-55.6484120925707	-164.06351703645	-1.23095006212799	-23.9787175485564	
18845000	-0.097100024843604	-46.9578782537216	-55.8177980575649	-163.991611499925	-56.5324838403701	-160.739766867269	-1.23984057147656	-24.2890775577452	
19040000	-0.0939094147740833	-47.7370947305244	-56.5251827117035	-159.465924367738	-55.5903870754281	-163.539609861545	-1.2517631611874	-24.5814259126927	
19235000	-0.0875223003700911	-48.5726727711032	-55.1798186926966	-176.749539171671	-55.5385215637446	-166.272474694611	-1.26382736956696	-24.8658619505934	
19430000	-0.0790193716851944	-49.3504038085332	-55.6288637664881	-177.339048613783	-55.1589432956912	-174.891716580448	-1.27966172842226	-25.1738800005933	
19625000	-0.0742038510849916	-50.1686354513078	-55.1381057256246	-179.761461937806	-54.8594005851756	177.693317942962	-1.28770496404812	-25.4284839262449	
19820000	-0.0811325698564305	-51.0260685692611	-54.5490966552519	175.014832926917	-53.7269405051731	172.4753567928	-1.30041210663916	-25.724607026111	
20015000	-0.0821714263535027	-51.8432576922042	-53.9202831979532	167.146455264635	-53.8691342446475	172.500517799729	-1.31365432925973	-25.9918563906752	
20210000	-0.0852874531287784	-52.7595810701825	-53.5105496361461	165.124365743717	-54.0462057818567	169.294792567721	-1.32813338480183	-26.2817464213574	
20405000	-0.0928029085555172	-53.6465231846896	-53.3067056689821	163.648428341953	-54.3156718129235	163.302741579502	-1.34740936396767	-26.5619013890678	
20600000	-0.10662812720314	-54.5436572759944	-53.2458467661676	160.2674218378	-52.6973583707591	159.98899972339	-1.36763343868529	-26.8356315603379	
20795000	-0.123867928210806	-55.4871429609109	-52.6031086246627	157.574971002527	-53.0197596690302	155.502792486012	-1.38611578365468	-27.1323938344472	
20990000	-0.137087461626381	-56.4735015186845	-52.9855289478343	150.059932399135	-52.4671284864445	150.97014281373	-1.40720180792717	-27.4257153657189	
21185000	-0.154428409619906	-57.4152305015121	-52.5094874927609	147.810009087632	-51.8110880770338	147.382064361893	-1.43064613710918	-27.7038767293332	
21380000	-0.165267110653378	-58.4322884951588	-52.6324264513628	141.424409979416	-52.3342901109021	143.997881404827	-1.45576415673354	-28.0292260445365	
21575000	-0.183371340068693	-59.4772349883992	-52.1480132470153	137.994983973267	-52.5188848082944	135.879217692868	-1.48972277202775	-28.3360629767613	
21770000	-0.19688917308738	-60.5267682055171	-52.1439514275459	135.197492640345	-52.4318497205241	132.673808487378	-1.51683445117789	-28.6486437224766	
21965000	-0.205667142059301	-61.5669614437477	-51.9871883199089	133.849110079672	-51.8267305823963	130.143678285403	-1.54611251329473	-28.98908519989	
22160000	-0.208011538617132	-62.6195142735866	-51.4986926554757	127.417098023293	-51.4638101896869	126.057848154125	-1.58383666457903	-29.3181956652238	
22355000	-0.206846768209639	-63.7541433124859	-51.6640479611788	124.342134733538	-51.6371231539755	128.186500018567	-1.61109510723883	-29.6405233816127	
22550000	-0.21063888915278	-64.8311493216082	-51.6048774969594	124.588892426114	-51.4714449026114	127.39621511365	-1.64219698102872	-29.9992149098532	
22745000	-0.214467999349433	-65.9724848472263	-51.0831468282855	123.984660976323	-50.5062825596775	122.479208892395	-1.67666294975957	-30.3165543490166	
22940000	-0.21955874259477	-67.1724792046872	-50.1845762523199	118.377223595729	-50.9514030712866	120.221928952624	-1.7111611723784	-30.6490551477296	
23135000	-0.225157771599575	-68.371231267884	-50.076615705092	116.950154715198	-51.047380950144	113.624814891794	-1.74364686160077	-30.9611083173159	
23330000	-0.230643645794709	-69.5871359234789	-50.3094997677653	116.127408309146	-50.7095280447585	115.824464427043	-1.77320805338538	-31.2874323831709	
23525000	-0.237618968135761	-70.8534379538076	-49.4830044685338	110.373806634601	-50.0535173353207	115.300691634841	-1.80172201857575	-31.6132691801019	
23720000	-0.245046008511822	-72.161835425592	-48.8711598415701	105.41849991147	-49.5154273799458	106.74428319799	-1.82769919246005	-31.9339889406982	
23915000	-0.262044905692322	-73.4142038316601	-49.0869315122884	107.241163948259	-48.6779009115669	104.806332402894	-1.86309984748014	-32.2316375475567	
24110000	-0.278000767537789	-74.7681385904507	-48.710082888232	103.085913794074	-49.5884947496431	100.663048047923	-1.89729186032774	-32.5514698314047	
24305000	-0.297264547554383	-76.1468533010302	-48.1935895928564	94.1462490324448	-48.1799696046666	100.265330788287	-1.9340527473146	-32.8514089190494	
24500000	-0.308880091998463	-77.5546347233313	-47.5858767411859	97.1274823622611	-47.7289355113355	91.7745190137772	-1.97557956405782	-33.1733582989082	
24695000	-0.332248262862836	-78.9691421810656	-47.4664587186855	90.8929466559293	-47.5043788169434	92.4502608670978	-2.01734715011473	-33.5539725392424	
24890000	-0.35063071548703	-80.4826062534962	-47.4742367691805	86.6846347061985	-47.6798087693099	88.5976309869883	-2.05326042813503	-33.9034224707807	
25085000	-0.369348438922126	-81.9852398097324	-47.1726550001964	85.2576442421524	-47.3870773249455	83.6596457926619	-2.10049058480907	-34.2819510501117	
25280000	-0.391830883532302	-83.540243442984	-47.2589095058787	81.4726749890843	-46.8825546019918	80.2191258357939	-2.1427293354243	-34.6129877634461	
25475000	-0.415667646494089	-85.1441363685475	-46.6045012522497	76.5800837247903	-46.6608316650915	74.9043848848656	-2.1901777358758	-34.9757747333627	
25670000	-0.435194016919002	-86.8076437566384	-46.3589705885778	74.5028101421154	-46.8137777427885	71.8458704607737	-2.24085499149051	-35.351205799288	
25865000	-0.471047199191576	-88.4506932660343	-46.1735589024833	70.5696789364464	-46.4438955836418	68.597568782876	-2.28930411106926	-35.6767769576084	
26060000	-0.494328486932106	-90.1671069945858	-46.1405864441815	65.6228058393907	-45.8079882902124	69.7852828374886	-2.33979453237355	-35.987884089176	
26255000	-0.52982043513323	-91.88862322293	-45.6950091702807	62.7969458372247	-46.1390157582492	67.4069113328747	-2.39949132731726	-36.3610272940219	
26450000	-0.555743600753726	-93.6888333960854	-45.2059600321883	61.82074960969	-45.6722058794765	61.565699922458	-2.45718844957454	-36.6552813388386	
26645000	-0.586303325437842	-95.533147849028	-45.4537991594576	58.9870056747591	-45.8382306621177	58.3021300860697	-2.51725910296317	-37.0380916771004	
26840000	-0.615483652836738	-97.4184913042996	-45.2318255269047	56.9372994143396	-45.1672790462968	55.7941590322661	-2.57825515870676	-37.3758403671688	
27035000	-0.65128225895771	-99.3146402442624	-44.9280217361913	54.0495047348864	-44.9968273121045	55.7434578054021	-2.64190231829844	-37.7270896857517	
27230000	-0.673186188690276	-101.332396803598	-44.8750014654495	52.5275097987992	-45.1206346692717	49.9415796461478	-2.69890240781812	-38.0522651095856	
27425000	-0.706610830073903	-103.374453326206	-44.5715390576579	49.2666823565697	-44.9925151799959	51.4579928253934	-2.76435765850918	-38.4156491264858	
27620000	-0.73688913821536	-105.455937822363	-44.6913656317182	44.7388720319729	-44.4141770625673	47.915286701529	-2.82911407663475	-38.7867662109224	
27815000	-0.764616566255181	-107.607532725229	-44.6176874340104	45.5691468154882	-44.1490017293657	45.1347663683374	-2.89126765021564	-39.1314982996984	
28010000	-0.792934719953816	-109.81552570022	-44.1067013845328	41.6335919896301	-44.0071537682226	41.8542294038363	-2.95695180291338	-39.4938592340533	
28205000	-0.828823072204512	-112.038404182141	-43.6981323599171	39.9915224545049	-43.8255531151355	39.2119839896168	-3.02534341889383	-39.8537065687739	
28400000	-0.868277300637518	-114.369874437934	-43.3363096602197	35.5452362145013	-43.5368664366979	35.3118331377886	-3.09184424462071	-40.183465380648	
28595000	-0.911612162174343	-116.724626911094	-43.4222876812369	32.8495830052192	-43.3264051995821	34.6480903331404	-3.16272446312916	-40.469149132217	
28790000	-0.967326182532264	-119.083381173579	-42.8647130980746	31.7354534831724	-43.2174378644944	31.7591798591581	-3.22769782402545	-40.7758412158763	
28985000	-1.01677668925078	-121.55843826946	-42.7048659816997	27.9105346746057	-42.7709632623222	28.6387284825907	-3.29545443679385	-41.1064099274893	
29180000	-1.07970065847774	-124.077947889107	-42.3544578968269	25.4502127945822	-42.5238332672212	24.4966008473132	-3.36728930218097	-41.3991911967987	
29375000	-1.1490879423145	-126.674491692137	-42.0969779413851	21.6887659493523	-42.2976757488709	21.672211424152	-3.43851402940857	-41.6527324292041	
29570000	-1.21577033693917	-129.284949084853	-42.0354913513866	19.1151880588528	-42.0972048871583	19.3999560302684	-3.50874093139355	-41.9314655075823	
