!Keysight Technologies N9917A: A.12.46
!Date: Thursday, 10 November 2022 22:32:19
!Timezone: (UTC) Coordinated Universal Time
!Model: N9917A
!Serial: MY56071016
!GPS Latitude: 
!GPS Longitude: 
!GPS TimeStamp: 0001-01-01 00:00:00Z
!GPS Seconds Since Last Read: 0
!CHECKSUM:2098765812
!Correction: S11(ON U)S21(ON U)S12(ON U)S22(ON U)
!S2P File: Measurements:S11,S21,S12,S22:
# Hz S DB R 50
5000000	-0.151620314892063	-9.04463648478616	-74.0703347515926	57.3374681364532	-67.2872711142928	-177.168133356239	-0.205856314878979	-7.71230889413915	
5195000	-0.164982976733008	-9.5096521541923	-76.598855881148	-87.943728347932	-65.1933936336027	155.326119790803	-0.223175789802043	-8.05251738169468	
5390000	-0.175463236882259	-9.9148568110759	-76.6599728605568	-133.634179114784	-70.2504438927487	-114.71588560215	-0.249221950697774	-8.36610403629789	
5585000	-0.182184518266981	-10.3947221022298	-85.9223681508089	-31.2509346713658	-74.9264426947165	167.461413723335	-0.263035025531067	-8.65459954701643	
5780000	-0.184890070292995	-10.8534220978405	-71.5413585633889	103.60891578279	-77.2269976803594	94.3290658259577	-0.27315169123742	-8.98642729928125	
5975000	-0.17791881947141	-11.3039845438619	-79.0281854847023	-130.234354240308	-75.5431784872032	166.337838155069	-0.289860481449324	-9.23630944974635	
6170000	-0.172867095815002	-11.7642573880476	-65.6763729869015	-164.413971769006	-75.5645271261294	-71.4421910975221	-0.297864444417672	-9.5447610253607	
6365000	-0.169492676899554	-12.2039633821891	-75.2932916569041	-74.6538166294349	-79.3190343083006	-156.142505110517	-0.303885565673549	-9.87391046563146	
6560000	-0.166304847032559	-12.6856652583091	-79.9387599086499	-79.1920850369127	-83.5631134608646	-167.56725707787	-0.310847336523315	-10.1698806794266	
6755000	-0.154576994058316	-13.1209627205472	-77.3215445413412	127.064610435996	-68.8043714351926	-174.320013033124	-0.319907838340004	-10.4414893759865	
6950000	-0.141068432711159	-13.5722460128261	-68.857560018477	137.091067246661	-87.2332548512819	57.0529714711847	-0.324773072986385	-10.7236131280901	
7145000	-0.133182791709812	-14.0216089878461	-72.0382833909373	-168.51577785984	-79.2037948352778	-109.401146787216	-0.332836154646817	-10.9987342905124	
7340000	-0.124504864994804	-14.4749636412228	-85.4734471981241	119.772090123711	-76.2794130958187	62.7267811243545	-0.338153808440328	-11.3193174585119	
7535000	-0.114043963486778	-14.9341625381103	-75.9673906611232	-131.433586186508	-76.9171418059136	115.311718932643	-0.342537989999813	-11.5797131645833	
7730000	-0.107334921578188	-15.3693347975975	-73.4733982706204	123.557968920148	-70.4586111835609	114.900553528774	-0.35089320386417	-11.8850461633701	
7925000	-0.0953453133050964	-15.8024174414178	-81.9115943098252	-173.833876782036	-80.0575110401861	-104.247707592839	-0.359833548101065	-12.1573357692382	
8120000	-0.0889409587500816	-16.2479055875461	-76.506207908282	115.243433812998	-75.323336681724	102.428768890719	-0.364160181048983	-12.4436038192956	
8315000	-0.0802331781871433	-16.7067923195272	-73.9254086231138	114.668270250138	-69.2737592444862	109.330992033781	-0.375275268468049	-12.7357252645134	
8510000	-0.0702197232703418	-17.1352210656857	-72.9905607636014	144.449543706918	-78.105206895713	127.808221951764	-0.383211272514273	-13.0469341271611	
8705000	-0.0624403406998711	-17.5724602675627	-69.6035517895171	144.349193499919	-79.8839589134194	105.347992721983	-0.388826200567252	-13.3128115226421	
8900000	-0.0588270835091209	-18.0169818710422	-74.6593544179363	171.697013902007	-77.1675281714333	77.0021483891317	-0.394735411192601	-13.6016671930971	
9095000	-0.0483471972340217	-18.4812743805943	-84.9749767349064	39.986602289655	-77.2795221576072	70.189738435821	-0.406196072995254	-13.9057428871822	
9290000	-0.0419820674169264	-18.9116553089462	-74.8061236894685	83.0358301561701	-77.4886427504652	72.0460765894713	-0.413621130584774	-14.1956523857134	
9485000	-0.0351804466742028	-19.3572493152282	-88.937471678638	-98.0885376210892	-77.1364699408972	37.6519154343458	-0.425981230454726	-14.4960728737065	
9680000	-0.0308640050463843	-19.8147042934399	-78.2485861824528	-136.495649434451	-82.1996965271014	-165.744255749799	-0.441136217489421	-14.7696569948319	
9875000	-0.0284707902883425	-20.244711052519	-80.0992464875586	116.314805073329	-75.5297576586121	-90.8626914645463	-0.452809356291414	-15.040841883971	
10070000	-0.0251101523999704	-20.6838667953569	-77.8192267402069	-74.0563181372849	-76.8162970425617	-126.109225927571	-0.469917360151246	-15.3505490758136	
10265000	-0.0248886212333125	-21.1342116739341	-75.4411125805155	-134.062599202397	-75.53675141059	-150.66723118843	-0.489645117060525	-15.6066929255398	
10460000	-0.0269769943602388	-21.5916882300174	-73.7170399736873	-172.604696568707	-77.8200035702049	-125.965228959485	-0.503871678872237	-15.8882110285452	
10655000	-0.0336822900094293	-22.0529667252167	-69.531495858585	-162.335005960578	-72.1739660440438	-127.090753607219	-0.527160891187722	-16.1429536883787	
10850000	-0.0368205413545265	-22.5108807077414	-68.6908500453205	-147.121106950562	-72.8790968507504	-156.819501494582	-0.544591984544909	-16.4299932195378	
11045000	-0.0439897294715723	-22.946382087399	-71.4756915879807	-166.746769030279	-67.4219373417078	-163.595401094253	-0.567728645798625	-16.7079051104994	
11240000	-0.048845931319431	-23.4030185746046	-66.9635715836413	-140.372854130934	-69.5670061556004	-170.087127186213	-0.587905248773651	-16.9700320850742	
11435000	-0.0554157695403642	-23.8299382137911	-65.2404520153208	-168.275295360124	-63.4873418805264	-168.2767144963	-0.607961537897863	-17.2317337774571	
11630000	-0.059280704921479	-24.3128743244878	-67.1123713272744	-151.656280628251	-68.1912512316437	176.966577028893	-0.631803006139402	-17.5097688207336	
11825000	-0.0697965746721188	-24.7463601806741	-65.8696078576101	-175.968293228817	-68.6488625039718	-166.587929803067	-0.651988208121387	-17.7834873208613	
12020000	-0.0786812050756158	-25.2769023850394	-67.3952688485492	164.645170703089	-65.5051917727357	177.49150987168	-0.674295776435654	-18.0449663249568	
12215000	-0.0844563639039134	-25.746371873019	-63.3452205762585	-179.151842406995	-66.3598919030691	171.697597926029	-0.696931731687663	-18.3563731443044	
12410000	-0.0874977892786873	-26.2699054052745	-63.3466684672422	155.528248442745	-66.8305079111387	-175.40531680288	-0.721591084828048	-18.652630605385	
12605000	-0.0880551669711706	-26.7786693567146	-67.6505574001047	166.151711613915	-63.9845385739852	167.154418617101	-0.742051756844162	-18.8945257209719	
12800000	-0.0887036165426599	-27.2932874805629	-61.9784929843445	-173.53199695282	-64.19232973463	165.050128211437	-0.763568362607183	-19.1764533316511	
12995000	-0.091643364800154	-27.8288483651453	-61.9626749135574	157.056028157519	-67.9919770509624	161.411174127979	-0.787911906216688	-19.4529358010776	
13190000	-0.0880783797128037	-28.3747384649582	-64.0745332790819	170.39445189761	-63.9078574140429	171.657242275102	-0.810725821890902	-19.741317926666	
13385000	-0.0892761067526819	-28.8988099074081	-61.4283459624687	152.388083939635	-66.0926836954885	153.561933646906	-0.832433833914896	-20.0259068401645	
13580000	-0.0911053176549594	-29.4376471305831	-60.782718176514	146.465561391081	-61.9361066521429	165.785648828602	-0.855423953659516	-20.2957319365371	
13775000	-0.0873206046757244	-30.0034069704086	-67.2644258924946	143.307535871155	-64.2679086205407	148.688176253276	-0.875350018393396	-20.5433667302264	
13970000	-0.0926820105045462	-30.5880539499335	-65.2116904078342	132.109423910022	-60.1364355477152	138.966081011862	-0.894275731103714	-20.8327819917173	
14165000	-0.0949895633870187	-31.1870250255025	-59.1863101010796	130.608021394084	-64.037143635444	109.889254997376	-0.913749540748661	-21.0735752902497	
14360000	-0.0985668356832521	-31.7484838124386	-63.1393239341679	126.069539127874	-59.9936584365797	137.982058542885	-0.937947477476294	-21.3976422097168	
14555000	-0.104400516976513	-32.3492033308231	-62.5603074348439	126.901006793848	-62.885057547395	103.20552208811	-0.96580561595771	-21.6801432787658	
14750000	-0.113494922814416	-32.9553175791826	-59.9935080286434	129.591513633874	-65.8134769290449	121.542704746078	-0.993608908844199	-21.9532381032275	
14945000	-0.126760371545472	-33.5481108361632	-62.6358526763767	117.221401972034	-63.0968490724177	102.691908497033	-1.02767840920405	-22.1784439610477	
15140000	-0.129504146554347	-34.147175023441	-65.1393139189434	120.852463882505	-66.0060574313407	132.115446427513	-1.06219326937711	-22.4170903502398	
15335000	-0.142372168676289	-34.7699094379292	-63.2121574198256	126.219964784929	-70.1305051434882	112.665557190598	-1.09276756572025	-22.6627854021164	
15530000	-0.145495771141879	-35.4198198263735	-64.5873337934335	160.261825730753	-74.3516888369899	110.811506044939	-1.12554111630838	-22.8728935630853	
15725000	-0.152610963547748	-36.0192330984781	-67.8051500289026	113.175640298202	-66.4302154131306	-133.284301023118	-1.15413189778919	-23.0797596984287	
15920000	-0.164334494242239	-36.6814928011483	-67.0231275798484	166.326274600061	-64.0890233687727	-175.313384403641	-1.16698736738455	-23.2978094079956	
16115000	-0.166467826763302	-37.3299466714003	-60.3380539758883	-175.824990017309	-61.6215052806688	163.870461890758	-1.19325274842466	-23.5846146146302	
16310000	-0.170113434784982	-37.9834039035396	-61.6706611071927	162.843408951205	-58.5348593578983	150.744229397007	-1.2200271397426	-23.8319651768884	
16505000	-0.179709955988673	-38.6802168241905	-58.8508599131529	149.793051941701	-58.9277535942429	167.501056378448	-1.23636535274295	-24.1114228567247	
16700000	-0.177213545283698	-39.3791407950961	-57.3642462880694	140.6762299983	-57.6060576944102	157.978001700347	-1.2635149602225	-24.4108642405577	
16895000	-0.170425146316714	-40.0664884449878	-56.5729245987532	133.87072039776	-56.9415970021259	139.544990347621	-1.28389904582017	-24.7036477510462	
17090000	-0.167848397085917	-40.7991965611672	-57.5394140878478	134.270216623819	-56.3503462235895	126.726213236399	-1.29665888287053	-24.9466790369812	
17285000	-0.165311337933745	-41.5152098783762	-56.7215869140269	127.668489759352	-57.5247369551248	128.217748363923	-1.31603847463848	-25.2118356902859	
17480000	-0.160275141184475	-42.2347803902461	-55.6420583633222	124.600857809567	-55.7029152698783	117.604042681946	-1.32154686378105	-25.5511734379545	
17675000	-0.153431131019277	-42.971624648026	-55.9531390338726	110.735015304954	-54.7130419738696	123.204907490323	-1.33885360773628	-25.8508269547936	
17870000	-0.147555450025154	-43.7517903799159	-55.824427467959	121.799161534511	-56.507228122706	114.471284609226	-1.35198146953568	-26.1492088225082	
18065000	-0.140959949300776	-44.4661925914271	-56.1233949290928	115.884263120028	-55.830764116132	115.580866924092	-1.37260457914515	-26.4575313978076	
18260000	-0.135890373004168	-45.2345008521485	-55.4614192806769	113.032811231337	-57.5172793704903	119.506748187897	-1.38984506112606	-26.7739763781923	
18455000	-0.128548863776777	-46.0327892849381	-56.9768873203752	106.560963574927	-56.0560066164445	117.977989746875	-1.40852388678988	-27.0694265313114	
18650000	-0.11786116226612	-46.7852625007278	-55.4433633628221	110.844629700457	-55.4598304111671	107.543835919473	-1.43033501134865	-27.3832659740296	
18845000	-0.11362307664147	-47.574773771522	-55.3908744805978	112.037135093025	-55.5935644185058	108.458367470621	-1.45128871932083	-27.7332410896364	
19040000	-0.105591711553338	-48.3501190304855	-55.0953981311025	107.434910769858	-55.4102738961358	108.139317884081	-1.47179650445071	-28.0337666994119	
19235000	-0.103360680775866	-49.1865449081354	-54.732149155099	106.5059198633	-54.6985045919869	101.768578718805	-1.48719512808293	-28.3425684702729	
19430000	-0.0933691859764658	-49.9563256513421	-54.6040162620804	104.580891509615	-54.2090617529215	103.821467268356	-1.51145969886463	-28.6679235970542	
19625000	-0.0901133446460115	-50.7914287291528	-54.2500341497438	101.917583870757	-54.4680355797065	101.929084127454	-1.52797878284339	-28.9727648883038	
19820000	-0.0934089545946263	-51.6497518428915	-55.0604466166655	100.160515406554	-54.4575970893436	101.368961474009	-1.55079250822955	-29.2641754646819	
20015000	-0.096749925458392	-52.4704503282908	-54.3700148104089	100.014343670363	-54.7953771807775	102.83157963022	-1.57299237415771	-29.5595418677474	
20210000	-0.10212397665325	-53.3710898687134	-54.0481914340423	96.2112124820022	-53.3716692411045	99.7308176114904	-1.59847655101132	-29.8628627432864	
20405000	-0.11157931209525	-54.2768197418511	-53.7610054652511	99.7496770030533	-53.2356713506408	99.3355036663054	-1.62536523872643	-30.1690345156742	
20600000	-0.123791973960814	-55.1643210101675	-52.4485527425611	97.5918994589191	-52.9311989678606	93.4009758031475	-1.65618660215129	-30.4585478392921	
20795000	-0.136583389143831	-56.097895651731	-52.2018477525067	97.2001626668102	-52.9608363522001	94.2386988948146	-1.6869346096003	-30.7661010210865	
20990000	-0.156206784159097	-57.0908823599825	-51.8440414184266	93.642309917771	-52.7472350854308	93.7345701168511	-1.71880060563011	-31.0907801565174	
21185000	-0.173836888434872	-58.0430711481108	-51.5095271255764	88.9230027221858	-52.0621179858464	92.6810899000235	-1.75450138862742	-31.3981774312082	
21380000	-0.186880428009209	-59.0749249181195	-51.20860662067	89.132960590921	-51.5096863631943	86.5153923119832	-1.79084978984718	-31.7290674818501	
21575000	-0.204211793058178	-60.124297678296	-51.0944107306929	87.5330263192356	-51.4329613373905	84.4427692645841	-1.83362353803598	-32.0421036506507	
21770000	-0.218467201114859	-61.1805069330475	-50.8590946014598	87.6382619253764	-51.1359343507985	87.1898532104359	-1.87367309303397	-32.3714713601154	
21965000	-0.23295280869003	-62.2177558028512	-49.9573868052816	83.3717401960444	-50.1501442575612	83.0761434538375	-1.91286501161576	-32.6979611328296	
22160000	-0.236308026628978	-63.2810605836308	-50.5982162358077	79.427947346694	-50.0268602919089	82.9134204037362	-1.96114382926929	-33.0714390433557	
22355000	-0.237543322151392	-64.4279265535849	-49.8407032291001	78.4921512348382	-50.1551396266629	77.3983335704569	-1.99959911651269	-33.4227479806001	
22550000	-0.243061238535322	-65.5300416213449	-48.7743644440935	76.2918373154774	-49.586843314164	75.8564391131216	-2.04110056927081	-33.7929075228061	
22745000	-0.250959713922612	-66.6816685254209	-49.3943883852911	76.5149564984113	-49.1745435901773	77.8957557586903	-2.0861359031844	-34.1370872912858	
22940000	-0.257516539263199	-67.8963566273456	-48.7474851142418	71.7789885653936	-48.7723775197495	74.4347007629527	-2.12807209530876	-34.4813422757656	
23135000	-0.265163888352023	-69.1113056513627	-48.836986381239	70.0972033173322	-49.1892976074387	67.8651892873094	-2.17351116746744	-34.8320954905426	
23330000	-0.276487106908702	-70.3415553507707	-48.2033612204245	66.5164141505999	-48.7537053735093	69.8736733261171	-2.21453087616608	-35.1751025510732	
23525000	-0.282177687639159	-71.6261911316503	-49.0708203950241	63.8486256213144	-48.0899552135345	67.5614723679973	-2.25309897656221	-35.5310724213156	
23720000	-0.294747522039248	-72.9830916244764	-48.1354582041956	63.5000024795925	-48.1174598092901	62.1906107859337	-2.29341772219811	-35.8491024952796	
23915000	-0.31359204539738	-74.2359426476411	-47.8672972359806	65.3316979021769	-47.8572620902355	66.1997959183762	-2.33667136958197	-36.2339598848205	
24110000	-0.331468339471724	-75.6375319018601	-47.7432884338494	62.7538263071801	-47.7899445628769	63.3901003507333	-2.38475753783658	-36.5703255250576	
24305000	-0.356353633963186	-77.0610579446142	-47.1459029945161	65.0368938438406	-47.5170495720945	57.8676245017352	-2.43428411002446	-36.8952229320793	
24500000	-0.371007729212564	-78.4678007012678	-47.0803001602238	56.7515317262132	-47.3425655833096	57.712099040172	-2.49294442323519	-37.2819888364195	
24695000	-0.400256379703262	-79.9690496805963	-46.1017048685243	59.8252062609492	-46.9245222301945	57.7645379138111	-2.54779804791113	-37.6657524152798	
24890000	-0.421158545607156	-81.476978292527	-46.6585035705347	55.4265152442771	-46.4731849199734	58.5018960410348	-2.59964386268467	-38.0556728756233	
25085000	-0.439950439553499	-83.0181764904489	-45.6437713918881	56.4274305232078	-46.1448643749202	55.6452222368618	-2.66140400501339	-38.4688249120887	
25280000	-0.468108897267845	-84.610007780861	-45.7973174679883	53.2962930401221	-45.6084459457763	56.1488570448371	-2.72150856824699	-38.850909135172	
25475000	-0.494793874610066	-86.2690603022609	-45.0190617099039	54.1221560393094	-45.1811040728486	52.8858112455551	-2.78227452613711	-39.2129781753415	
25670000	-0.517873907437257	-87.9607174092583	-45.0774381322654	47.6453008199671	-44.568676104758	51.4299941112286	-2.84755678828195	-39.5989405329273	
25865000	-0.557857240447123	-89.645868881225	-44.7040182696178	47.2654254762129	-44.4643128273079	47.8819224102066	-2.91405675028825	-39.9388392626921	
26060000	-0.588550535766138	-91.4360261601326	-44.2299486955608	45.0763417642771	-44.1638020785046	45.7585406987869	-2.97931090903818	-40.2967733105471	
26255000	-0.625858920236537	-93.2241914863392	-43.8561785193264	42.7298002677993	-43.4069972522399	40.0176508027673	-3.05204276097455	-40.6859361266677	
26450000	-0.662103850872421	-95.0775279582881	-43.2988918585641	39.2353225728868	-43.4757719619962	41.0239998369377	-3.12225153666416	-41.0278024818979	
26645000	-0.697598837183907	-96.9450392525158	-43.3482634083983	36.2662215856194	-43.3085114219305	38.2614287575189	-3.20048216042506	-41.4324537048504	
26840000	-0.731666165917675	-98.8568974952137	-43.0908418811174	36.5953379087505	-42.9660080416984	35.2064953170454	-3.2750735282882	-41.789231620007	
27035000	-0.772608973921465	-100.811062694521	-42.3519549355342	32.5841000664256	-42.7860503280936	33.4849573413211	-3.35279801472411	-42.1808618869492	
27230000	-0.803953152760551	-102.826173332364	-42.4153079753268	30.7080761262146	-42.5460006113373	31.2502130165381	-3.42834790903051	-42.5376414818298	
27425000	-0.841143775448861	-104.895588137968	-42.22975720015	29.7945744440265	-42.3296186247347	29.1625102033907	-3.50600250897541	-42.9215901206216	
27620000	-0.875708444483725	-106.987771756796	-42.0859402675613	27.3258268781171	-41.9704935424174	26.9805185396188	-3.59314664304007	-43.3006803909909	
27815000	-0.911128238953628	-109.170105486676	-41.5884172518528	25.3874320882097	-41.781771380212	25.1019335321652	-3.67188753643522	-43.7189817853797	
28010000	-0.943520359266383	-111.400107862178	-41.2894773701472	24.6623920649997	-41.2621031709884	24.1482927817954	-3.75203925569908	-44.0775240680964	
28205000	-0.982755683131508	-113.656230574789	-40.8643542763881	22.1791659397583	-40.9841439904669	22.0806586790202	-3.83890812161224	-44.4419199855721	
28400000	-1.02898760657635	-116.019109203525	-40.3573214670175	18.8141505932547	-40.537704357891	19.9740270178519	-3.92312217938241	-44.7999103761382	
28595000	-1.08010577176187	-118.391986904749	-39.9868163517758	16.9769595753546	-40.3121383341497	17.4486663153919	-4.01499913720542	-45.1072977521707	
28790000	-1.14283726799094	-120.796709039152	-39.835941057512	15.1281769752913	-39.6532288654089	15.2164504024552	-4.092370089311	-45.4556020756546	
28985000	-1.19935710968137	-123.295210328943	-39.466903951679	10.9610941238349	-39.4470770279892	11.9379427101457	-4.18477133588863	-45.7749853830474	
29180000	-1.26944516159559	-125.845763587699	-39.0509036575168	10.1073351601279	-38.8752002542551	8.32001797824837	-4.26580378197511	-46.0807118277904	
29375000	-1.34899317211231	-128.472767770889	-38.7301959595389	6.40001962586691	-38.6612118850478	6.25382279650157	-4.36743156405693	-46.3620908044358	
29570000	-1.42375236131137	-131.110697118495	-38.4549541613863	3.2837102762405	-38.4879403133164	2.63052261273646	-4.460403324276	-46.612268914949	
