!Keysight Technologies N9917A: A.12.46
!Date: Thursday, 10 November 2022 22:44:44
!Timezone: (UTC) Coordinated Universal Time
!Model: N9917A
!Serial: MY56071016
!GPS Latitude: 
!GPS Longitude: 
!GPS TimeStamp: 0001-01-01 00:00:00Z
!GPS Seconds Since Last Read: 0
!CHECKSUM:1100358865
!Correction: S11(ON U)S21(ON U)S12(ON U)S22(ON U)
!S2P File: Measurements:S11,S21,S12,S22:
# Hz S DB R 50
5000000	-0.185105984452182	-8.19891787616857	-78.475204542131	-138.200106058898	-71.5987001808281	-2.13219476482434	-0.229443320942956	-5.22636901829484	
5195000	-0.19474184777918	-8.66682065909054	-68.5542920776231	-114.83996313164	-67.5797559142351	-84.237088834209	-0.23752236086045	-5.61163000559796	
5390000	-0.20253001537383	-9.12342946081039	-64.7445102939968	-84.5958012712147	-92.5368278928048	-65.7291141953708	-0.248942950704684	-5.96492408714438	
5585000	-0.209185754845735	-9.60903033910403	-64.1355617850437	-93.3579278056325	-71.9611939516679	-125.587372159766	-0.256621396965434	-6.2982822026281	
5780000	-0.20618755377581	-10.0511867379142	-71.0345190712899	-135.856434938613	-70.6494847527077	-101.893863890458	-0.251513828798361	-6.66659695800478	
5975000	-0.199335270178506	-10.5287696137223	-63.2073199205742	-109.080332159217	-68.2556046279836	-104.104675017053	-0.258709689632113	-6.95410182532081	
6170000	-0.193766614649921	-10.9779836148034	-68.6606954414243	-151.951781808832	-70.4773523406821	-149.188219490789	-0.260528272219688	-7.28726109544088	
6365000	-0.191045174703346	-11.4257954817227	-73.3175868149066	-115.296480173118	-70.2766760697443	-134.135228847598	-0.257292888513743	-7.62598651228162	
6560000	-0.182589212828649	-11.9229317133021	-72.7059985445387	-102.590357645007	-72.2300958615761	-69.9037256539759	-0.256074105457572	-7.9695549048467	
6755000	-0.171403641142076	-12.377271734726	-71.8174309929248	-154.540823566824	-70.956504813924	-149.840802081002	-0.257495450640425	-8.26711831875005	
6950000	-0.158508508621397	-12.8306885318991	-76.7090538143214	-179.707371959304	-67.1091056078663	-133.408514937267	-0.253647828294258	-8.57294533343628	
7145000	-0.150386864855405	-13.3007158734522	-66.5466318605195	-154.092060277314	-67.2499541990054	-119.348316108076	-0.24704918826684	-8.89688208300091	
7340000	-0.140766296726831	-13.7727251127132	-78.547379128353	-69.061523176362	-70.0166901120643	-83.618483956682	-0.246798013611196	-9.25882107391376	
7535000	-0.131016188615481	-14.2312203775465	-67.4144804006445	-143.4068102082	-65.2149975160594	-115.912523834703	-0.24085086569058	-9.53348197164654	
7730000	-0.124225552302254	-14.6885197878149	-68.5538343420582	-135.080485810484	-78.7960381533639	159.602173389929	-0.236664281600167	-9.84784042869792	
7925000	-0.112739998342055	-15.1358044208357	-69.9690826406738	-150.188971754527	-71.1399368224956	-132.74105795231	-0.240783061431682	-10.1715289550075	
8120000	-0.106355932393314	-15.5920644182567	-64.7280428620469	-134.769897279844	-68.4966676050652	-118.093705534373	-0.234581734301306	-10.4798141696064	
8315000	-0.0962440201663878	-16.0621765402545	-68.8840463087447	-140.718482021189	-74.0070026464341	-127.223769923346	-0.237309542083963	-10.8134902499171	
8510000	-0.0883351727152322	-16.505464436908	-75.1064535450167	-111.71081505512	-67.1905423611057	-143.626830334677	-0.233672213284071	-11.1581699543393	
8705000	-0.0801736587699168	-16.9560689829539	-70.1562628872722	-122.693509393837	-69.1983130050143	-150.196428832823	-0.235077996218182	-11.4550943376541	
8900000	-0.0747979768700021	-17.4094835530509	-70.5415309567649	-127.285506941983	-63.6985605989817	-130.820930203889	-0.227701543227632	-11.7714068044764	
9095000	-0.0656944860760948	-17.8988329664238	-71.2014933575071	-135.537634259931	-68.9840319847871	-145.584387051625	-0.228371011839047	-12.1401987560652	
9290000	-0.0597154310155287	-18.3364042170606	-67.4080168864074	-130.390761270696	-68.7803201046177	-125.586293956622	-0.224515678366968	-12.4480322636264	
9485000	-0.0510979532516076	-18.7944041999078	-66.9624613163825	-133.414052751113	-67.0944590036283	-123.983787380983	-0.227130102529833	-12.7891950143994	
9680000	-0.0435385566747773	-19.261104713186	-65.7037265428287	-138.563067243538	-66.0967552467632	-120.878183960179	-0.226425272979652	-13.1298672559699	
9875000	-0.0420937722969484	-19.7032885841635	-66.1517318574559	-133.976771890494	-64.3321754504656	-125.809133849212	-0.228309331062625	-13.4729463744087	
10070000	-0.039479727475505	-20.1594893998156	-61.8353723423921	-130.477831147685	-62.2078109699569	-143.607468481547	-0.233800318733325	-13.8247294594338	
10265000	-0.0382390743993941	-20.6205878212647	-64.4640549617693	-140.607161110197	-62.3558082019996	-142.60619172299	-0.245381614097094	-14.1409468127847	
10460000	-0.0435454213846775	-21.1092962873325	-65.6150729481945	-137.135427434979	-62.7005948371289	-136.392300815306	-0.25033956080367	-14.4944395106913	
10655000	-0.046757420066607	-21.5638959179575	-62.1861012805255	-139.190273297932	-61.3856158664832	-143.97664066546	-0.26522555192507	-14.8146022199437	
10850000	-0.0485461225192722	-22.0312601822097	-61.738870590347	-145.020259683544	-62.3309123423787	-153.778737987804	-0.271259773223237	-15.157348977827	
11045000	-0.0512923305985424	-22.4840729991292	-60.4775130474914	-161.251238687592	-62.3002950811058	-145.55629980275	-0.284572588805133	-15.4885792159263	
11240000	-0.0603100441962637	-22.9554489557286	-60.3726715201824	-152.355247433482	-60.7930823833383	-153.26875359285	-0.29430832004637	-15.8062091525593	
11435000	-0.0648756347909881	-23.3880857252109	-60.9657430748095	-151.149624804352	-60.5307066261704	-156.396650395418	-0.304444113134284	-16.161061621752	
11630000	-0.069877381429589	-23.8856354834339	-63.2885016771799	-161.123367483518	-60.9052922693472	-171.718680700582	-0.315681617311921	-16.4559910129058	
11825000	-0.0769185787571679	-24.3531115185649	-59.4568935773289	-158.975227299534	-59.6897413447672	-165.9569760832	-0.327186662083815	-16.8066252632555	
12020000	-0.0869863322385971	-24.8577557275062	-60.0736155728336	-172.022852595204	-61.0544921563538	174.307927416303	-0.340116741558939	-17.147400740279	
12215000	-0.086891927760868	-25.3436655806867	-59.8424946753883	-175.939014027537	-59.8334825053023	-174.302538037033	-0.353852066909719	-17.5057682801572	
12410000	-0.0903783284475529	-25.8539191010445	-58.6173085485014	-175.384953503984	-58.8907080671324	178.595838970416	-0.368799733185339	-17.8654945792726	
12605000	-0.0922554836928609	-26.3728666643424	-59.3179599363618	177.984949650239	-57.7572451571896	-179.524427517493	-0.38203367439675	-18.203609339331	
12800000	-0.0909051431108651	-26.910448752454	-58.6114852123796	173.173039995195	-59.3886495062004	172.397919958388	-0.393568551831631	-18.5356648358859	
12995000	-0.0926532180385228	-27.4338478727321	-59.2531436596452	178.469506522578	-59.6950922899093	177.751913919043	-0.410043998183666	-18.8693281214028	
13190000	-0.0859362215811569	-27.9938520281438	-60.7865628208008	172.201913896801	-60.4208306525398	-176.176302250823	-0.417730214067273	-19.2610252234209	
13385000	-0.0853152916675631	-28.5315930681597	-56.5043079184375	163.47939653925	-58.8772478471088	164.449492359062	-0.429857050826878	-19.6185525650361	
13580000	-0.082108908739905	-29.0764925115175	-58.7404492688883	175.847519709508	-61.3039952202508	171.849055620524	-0.441322659537307	-19.9623113455634	
13775000	-0.0846917538431232	-29.6290846421194	-60.7703337710195	164.566856104614	-58.0757573218302	163.046544532402	-0.448047254381118	-20.3240048861741	
13970000	-0.0862434160100665	-30.2108495707538	-57.1830465213006	-177.328112644256	-59.8379954162438	148.99505394285	-0.456700768800975	-20.6990846045335	
14165000	-0.0853035655283123	-30.7906425506593	-61.2217229671461	169.753296751419	-57.8845117581345	148.760403680185	-0.465040925237619	-21.023816369401	
14360000	-0.0906595788738716	-31.3517467720403	-57.8572742491261	170.135749980895	-57.8134176789607	168.397143037725	-0.483045007770133	-21.4272666446514	
14555000	-0.0930232008077133	-31.9624439986966	-58.3188609484116	162.75399426185	-59.2830993667881	172.325935944946	-0.505195377247301	-21.761264470625	
14750000	-0.106584235861868	-32.5527462139496	-58.0743062968441	156.489630282171	-56.8160291003396	169.547627033066	-0.531201608658504	-22.1136704946344	
14945000	-0.113257432535225	-33.1530145677012	-57.1579591693621	162.707863172861	-56.7368711281484	157.105846258045	-0.556202008706454	-22.4749944773864	
15140000	-0.121667482119268	-33.7489535806382	-56.4100881318611	163.98309252107	-56.3297354021373	163.106206071113	-0.58692443738497	-22.7953043891082	
15335000	-0.130147544304705	-34.3517504694601	-54.2882291168042	163.389393942442	-55.1310944167571	163.613853195832	-0.619233779468034	-23.1281074261741	
15530000	-0.134232611062919	-34.9917903402877	-53.1036493663807	156.527030784979	-53.8565776614734	164.013858371649	-0.65454889725074	-23.4457571709506	
15725000	-0.142970336223908	-35.5834169954461	-54.2191014244225	144.066166539383	-53.0203815620544	149.073015012071	-0.68780480791891	-23.7481188268147	
15920000	-0.151575610117253	-36.2420468165064	-53.1032990951391	135.531245910668	-51.6287617319704	142.366287769989	-0.710790729046844	-23.9854425797506	
16115000	-0.157202767414179	-36.877184468746	-51.5003816465367	131.9141486564	-52.2676790516624	128.493280507542	-0.735650925808835	-24.258985665934	
16310000	-0.162089184138965	-37.5231344012729	-52.0910031159238	129.801268180605	-52.3015481115581	121.85016358519	-0.757411799432302	-24.4870509204519	
16505000	-0.167673595434481	-38.2120061489485	-53.2197659274349	115.073549838964	-52.3041763559642	113.643616571289	-0.770854371776463	-24.7903051986998	
16700000	-0.166437924331165	-38.8976207035158	-53.2467759308169	109.023206467667	-52.5951752733489	114.746938922593	-0.78253291937082	-25.1315589560953	
16895000	-0.158335936237192	-39.5810347747315	-54.2234225828169	107.997230911819	-53.8642049467564	99.1499407889684	-0.801523808822976	-25.4913566550018	
17090000	-0.155199142336927	-40.2882132855006	-54.4204093774477	108.101160710801	-53.8454121514707	106.470599001172	-0.810384041606202	-25.7993110313987	
17285000	-0.157706378273984	-40.9865669994406	-54.1138972776682	114.285648517103	-53.8064445396656	107.420346373342	-0.833713194148176	-26.0566563704165	
17480000	-0.149294184640283	-41.707448890045	-54.0464847691356	96.2270824184229	-54.0864627954131	102.445021604254	-0.840088336417304	-26.4114197331461	
17675000	-0.146949285260495	-42.4677167408252	-54.5836394948084	97.9233559548938	-53.6693013121384	103.690305690961	-0.850470557637453	-26.6991562462196	
17870000	-0.137300559456591	-43.2201652792564	-53.8941925598741	97.3221531667558	-54.4059868343775	103.164948883893	-0.862084007016405	-26.9892014914915	
18065000	-0.135173907681419	-43.9295051344867	-53.4366293605791	98.5087240952327	-54.0773564680021	103.562726746758	-0.870425074360712	-27.283265718698	
18260000	-0.12773009118951	-44.7104842165177	-54.0180413727792	96.8624698157735	-53.2440165977711	100.851006549941	-0.878608248501763	-27.649084822383	
18455000	-0.120624548090087	-45.4858845731344	-53.988628107518	95.3275719435768	-53.3690881600343	102.574217462017	-0.886578075130735	-27.9369255376865	
18650000	-0.113189101441766	-46.2347691497276	-52.6604160534887	92.8082011920841	-53.3601302064627	97.3047925127982	-0.896466868798765	-28.2856663500821	
18845000	-0.106128316863641	-47.0172203698375	-53.4866543222066	92.1793345981165	-53.2314185315366	86.78308538858	-0.906905005057975	-28.6752775818556	
19040000	-0.0996463686220058	-47.7922057195377	-53.4990777962728	90.3255719443093	-53.5922155162755	88.7287937374735	-0.912702823537033	-29.0169015636826	
19235000	-0.0965544109785714	-48.6227406273156	-53.1843667079185	82.9759436593269	-52.759441162252	88.6870784657568	-0.923819597238511	-29.3658601442172	
19430000	-0.0841427994021628	-49.3968711321073	-52.5316947174637	81.5654996528204	-53.2912832397567	83.7963767916523	-0.931576887672908	-29.7350808088677	
19625000	-0.0819610694309237	-50.2121350365715	-53.2367283024223	80.5761915656464	-53.382218656298	85.4839016243599	-0.937018835928061	-30.0699139941401	
19820000	-0.0850409793499154	-51.083329002722	-52.4605665078259	75.0277749283886	-52.6979985489973	78.2131555446457	-0.947079383233118	-30.4370340282745	
20015000	-0.0909583258125757	-51.8974091699239	-53.203845282995	72.7456872059105	-53.0390662361392	72.6906049874018	-0.959011383016755	-30.7912181421883	
20210000	-0.0926467706243347	-52.8003949234153	-53.1145707157281	75.0850426375234	-52.6680689802459	67.4703036430984	-0.973145781040953	-31.1163068388759	
20405000	-0.100335880982136	-53.6971044393019	-53.0457834331618	69.6475897854807	-52.4287966613046	65.6547189263344	-0.985571966337589	-31.4788269292065	
20600000	-0.112930215218537	-54.5818164457618	-53.4892657687362	60.7121017289157	-52.7030859323311	62.0608169955365	-1.00214520231836	-31.8036761418695	
20795000	-0.127403159194554	-55.5107273058919	-53.1198628149188	61.222398943178	-52.7956264540581	61.4324177754232	-1.01837234931873	-32.1256558154678	
20990000	-0.144011217165293	-56.5139255665362	-53.2015383435267	59.2207924705813	-53.170396329872	57.7305989250501	-1.03080548595397	-32.4786302702399	
21185000	-0.159366027252027	-57.4429979117269	-53.9297701890138	52.1827108470533	-53.1492093155482	56.3938557648432	-1.04836160778976	-32.8358856981197	
21380000	-0.171025513355252	-58.4693503333479	-53.5686214168651	55.501444882942	-53.7301773732079	55.1892048954515	-1.06554440109764	-33.2060613092963	
21575000	-0.187776266849328	-59.5044626728308	-54.0895356599785	52.6301352366386	-54.2658518334068	52.6005922232421	-1.08582689802862	-33.575578655633	
21770000	-0.199244535159095	-60.5514523087952	-53.9780701722408	52.6588542199362	-53.7237777945412	52.2760940203453	-1.10033201348685	-33.9648884339761	
21965000	-0.210354030017016	-61.5911140624168	-53.9506520432675	54.248193950221	-54.1217732588036	53.4590278123356	-1.11563922577212	-34.3859137458547	
22160000	-0.215452589913261	-62.6490615917395	-53.6171128784625	52.641659483721	-54.2795659459874	51.6060776854182	-1.1367857536675	-34.8419625007306	
22355000	-0.214601359870409	-63.7531175709579	-53.364158813583	50.9321057781578	-53.7716189880737	51.5856442779075	-1.14715372495056	-35.286652522898	
22550000	-0.216869078951681	-64.8584394694282	-53.6542335444664	50.0437209758452	-53.5708052311812	52.4693273016849	-1.16174817073632	-35.7676022176794	
22745000	-0.218972338015675	-65.9906293037576	-53.0424308025325	49.9868669078188	-53.9663906736551	55.5112889097954	-1.17909211931505	-36.2134137863723	
22940000	-0.225857168304779	-67.1845849418721	-53.5452492034921	50.7932733893827	-53.2660282009948	50.5967545367009	-1.19609981113814	-36.7303163016279	
23135000	-0.230370588552186	-68.3836462579684	-52.3804078257147	48.8699286239789	-54.707933840036	49.4383939173285	-1.21267001931186	-37.2078971119093	
23330000	-0.237522844788976	-69.5755374840572	-52.8376660003771	45.7763125020407	-53.290214382135	55.3301214851716	-1.22662504583406	-37.6862928460162	
23525000	-0.240708588950465	-70.869601659777	-52.3963625934907	44.716192180906	-52.5186073424958	43.3445493108031	-1.23980048869544	-38.1981263296225	
23720000	-0.249592690978862	-72.1803859143216	-51.8263200351934	42.987773300653	-53.1722327525372	48.1725901452327	-1.2558096151596	-38.6998118134523	
23915000	-0.267955316232584	-73.4071349038281	-53.0575061011709	41.903829526764	-52.4823561691177	41.7668652953021	-1.27926017576707	-39.1680550284371	
24110000	-0.282645563643938	-74.7764539975576	-51.8269451453084	41.1553455352732	-51.6391172557061	41.6644467614822	-1.30111656200727	-39.655939527001	
24305000	-0.303022877710072	-76.1641809043928	-51.4305663681417	40.5422808307504	-52.4371029958637	37.2778616407187	-1.32716020863639	-40.1367794610951	
24500000	-0.316191200238763	-77.5652502224082	-51.9829604236715	31.36441782334	-51.4708063202138	41.0699738064302	-1.3538878408871	-40.6735668715268	
24695000	-0.337966830787585	-78.9940361773861	-52.2265056123376	34.0246771189204	-50.9581522523162	34.076188313316	-1.38093650809533	-41.1852509186745	
24890000	-0.356746317228653	-80.5023870302395	-50.520590848363	35.6803696051025	-51.1342382993964	39.4156698500297	-1.40610879200107	-41.7253555946208	
25085000	-0.37410043801496	-82.0113045975437	-52.3890308333218	33.1333639733542	-51.7749482810421	42.5883675120804	-1.43372812016118	-42.3094999176787	
25280000	-0.397172396751742	-83.5617494829125	-51.5027047774047	28.8779546097309	-51.0745675666533	41.7741039733036	-1.46728609489236	-42.8370129050002	
25475000	-0.422221156715185	-85.1890745361405	-50.8412621757858	40.3413201683115	-52.1713541042778	35.3168781196574	-1.49440736052188	-43.4165803494427	
25670000	-0.440608548098218	-86.8245081291198	-50.3861422012498	38.491984442136	-50.8378951777291	38.4935836884518	-1.52380652004461	-44.0320923236928	
25865000	-0.475620758674286	-88.4332214814521	-49.9702535509142	32.897744074352	-50.5497182284791	38.6646157866388	-1.55680085063804	-44.5647520891302	
26060000	-0.502910838110371	-90.2089462547846	-50.6474228579598	39.6328037324281	-49.7817001375099	34.7911421790837	-1.59300594410749	-45.180791365017	
26255000	-0.53516267256241	-91.9348674988972	-50.3581190304921	38.7502469032984	-49.5638063304315	35.9039083785478	-1.63411536708353	-45.8045299304778	
26450000	-0.563260855951807	-93.7439711182398	-49.0290392079572	35.7291307194993	-49.4064298132752	40.1272485511685	-1.67584128337168	-46.4150051141014	
26645000	-0.595174249274615	-95.565074335296	-48.5480214653835	38.1637149230426	-48.2001040091937	32.7563812276669	-1.7214399551205	-47.0572629553821	
26840000	-0.621636596660218	-97.4445621033651	-47.8467991180117	36.0576396875059	-47.8562903392786	34.7278254892853	-1.76337426041218	-47.6909029378864	
27035000	-0.655664161776068	-99.3582687361534	-47.6287996351826	32.257014838344	-47.2570117891816	32.385897527165	-1.80812783635479	-48.3952921405166	
27230000	-0.680836320469299	-101.360956019908	-46.4696232558539	27.2818608384072	-46.4066590909363	29.3195051242351	-1.85129862245024	-49.0877216289357	
27425000	-0.713865448928853	-103.409248222043	-46.3427067575624	28.5188629607893	-46.0196657898689	27.6601279547292	-1.89466309919158	-49.802985486795	
27620000	-0.742731013962811	-105.467557531837	-45.9363208309686	24.1194120318903	-45.6330768104594	21.3668077924514	-1.94448308426648	-50.5343243056802	
27815000	-0.771368408539484	-107.650504730206	-45.0741024124638	21.817953876546	-45.3656752107833	21.3543616225276	-1.98995064628548	-51.2540312792385	
28010000	-0.798135441213639	-109.845323201595	-44.860102806075	16.833425647877	-44.8444410556894	16.4895960369302	-2.04675079383313	-52.0143219621274	
28205000	-0.833476471042736	-112.069851019011	-44.2444062469875	14.6319613178878	-44.2309730708642	15.9711900517906	-2.09960794442613	-52.749839979688	
28400000	-0.873350944919176	-114.411885210455	-43.7617996007556	11.5051377437646	-43.9400041675783	11.2614724498204	-2.15630965013032	-53.555737804413	
28595000	-0.916705194490564	-116.75105031308	-43.3518547196969	8.94275761313006	-43.3883795716285	7.50013154977676	-2.22039755940962	-54.2686635017937	
28790000	-0.971271457220081	-119.122954591773	-43.0925522325687	4.89402006870603	-42.9276756282834	4.23141387743011	-2.27192988758133	-55.0701421018621	
28985000	-1.02207087508945	-121.588505625799	-42.5703131089285	1.99440927341248	-42.7134406174282	2.2077374898208	-2.33307318053479	-55.8707902798031	
29180000	-1.08300144965258	-124.108169302507	-42.2440779930506	-0.708967043163018	-42.0086316105009	-1.9267436191072	-2.39441232030882	-56.6802861941924	
29375000	-1.15339179713014	-126.703832503444	-41.8097118346355	-4.65685232159041	-41.8384669456155	-5.10421977280612	-2.46090790749697	-57.4514827280108	
