# Hz S DB R 50
! CMT, M5045, 22160017, 22.4.3/2
! Date: 1/21/2023 19:19:19
! Data: Format (Calibration Info)
! Freq	S11:dB/Ang(F1)
5.00000000000E+06	-9.67203242313E+00	-7.08013664607E+01
5.19500000000E+06	-1.00180863223E+01	-7.15949576256E+01
5.39000000000E+06	-1.03412114347E+01	-7.22964041167E+01
5.58500000000E+06	-1.07062868641E+01	-7.30683312577E+01
5.78000000000E+06	-1.10080280564E+01	-7.35190598568E+01
5.97500000000E+06	-1.13269899033E+01	-7.41377886051E+01
6.17000000000E+06	-1.16337957857E+01	-7.47741665751E+01
6.36500000000E+06	-1.19388636791E+01	-7.50728365121E+01
6.56000000000E+06	-1.22342898232E+01	-7.54427419226E+01
6.75500000000E+06	-1.25023270157E+01	-7.58799403333E+01
6.95000000000E+06	-1.28232876347E+01	-7.64631258967E+01
7.14500000000E+06	-1.30840630083E+01	-7.65861066218E+01
7.34000000000E+06	-1.33075789713E+01	-7.69737311221E+01
7.53500000000E+06	-1.36132782861E+01	-7.72191074907E+01
7.73000000000E+06	-1.38719140394E+01	-7.73941983688E+01
7.92500000000E+06	-1.41150747681E+01	-7.75579899197E+01
8.12000000000E+06	-1.43905613220E+01	-7.79367177861E+01
8.31500000000E+06	-1.46703000964E+01	-7.81250855383E+01
8.51000000000E+06	-1.48709654039E+01	-7.83612437746E+01
8.70500000000E+06	-1.51618696802E+01	-7.81906129945E+01
8.90000000000E+06	-1.53998456036E+01	-7.84333016459E+01
9.09500000000E+06	-1.56298673016E+01	-7.88293433521E+01
9.29000000000E+06	-1.58408315114E+01	-7.87453820973E+01
9.48500000000E+06	-1.61284962025E+01	-7.86827525812E+01
9.68000000000E+06	-1.63525902481E+01	-7.87761869909E+01
9.87500000000E+06	-1.65636363133E+01	-7.88885068765E+01
1.00700000000E+07	-1.67576023154E+01	-7.87981764672E+01
1.02650000000E+07	-1.70369021156E+01	-7.90228051633E+01
1.04600000000E+07	-1.72732508248E+01	-7.88228798013E+01
1.06550000000E+07	-1.74530541196E+01	-7.87686120110E+01
1.08500000000E+07	-1.76825553572E+01	-7.88549503398E+01
1.10450000000E+07	-1.79238992724E+01	-7.91102588916E+01
1.12400000000E+07	-1.81044351541E+01	-7.91716486062E+01
1.14350000000E+07	-1.82867186945E+01	-7.91173126575E+01
1.16300000000E+07	-1.85487628835E+01	-7.87813018338E+01
1.18250000000E+07	-1.87902166103E+01	-7.88969648671E+01
1.20200000000E+07	-1.89678862921E+01	-7.89164001061E+01
1.22150000000E+07	-1.92106932124E+01	-7.88537730617E+01
1.24100000000E+07	-1.94277332130E+01	-7.86668385066E+01
1.26050000000E+07	-1.96276545772E+01	-7.81458889214E+01
1.28000000000E+07	-1.98377319874E+01	-7.84163345917E+01
1.29950000000E+07	-2.00509785777E+01	-7.79919169918E+01
1.31900000000E+07	-2.02650950478E+01	-7.77569570428E+01
1.33850000000E+07	-2.04762245516E+01	-7.70488720630E+01
1.35800000000E+07	-2.07056144199E+01	-7.70768594026E+01
1.37750000000E+07	-2.08237993233E+01	-7.67835592288E+01
1.39700000000E+07	-2.10802641499E+01	-7.64354926130E+01
1.41650000000E+07	-2.13163643630E+01	-7.55562034006E+01
1.43600000000E+07	-2.14390083674E+01	-7.58750186632E+01
1.45550000000E+07	-2.16575735604E+01	-7.53178193649E+01
1.47500000000E+07	-2.18372210236E+01	-7.45330636491E+01
1.49450000000E+07	-2.20843839357E+01	-7.43145372375E+01
1.51400000000E+07	-2.22774381277E+01	-7.37010548612E+01
1.53350000000E+07	-2.25062459223E+01	-7.34026106961E+01
1.55300000000E+07	-2.25999226283E+01	-7.29706857670E+01
1.57250000000E+07	-2.28623071476E+01	-7.20873110450E+01
1.59200000000E+07	-2.30098307291E+01	-7.15049421254E+01
1.61150000000E+07	-2.32210690728E+01	-7.08043457083E+01
1.63100000000E+07	-2.34736001118E+01	-7.01785296223E+01
1.65050000000E+07	-2.35276872110E+01	-6.97575157949E+01
1.67000000000E+07	-2.38041990395E+01	-6.90087385041E+01
1.68950000000E+07	-2.39175474350E+01	-6.79792466998E+01
1.70900000000E+07	-2.40926456180E+01	-6.69579917730E+01
1.72850000000E+07	-2.42999539431E+01	-6.68531470685E+01
1.74800000000E+07	-2.44453979969E+01	-6.55396207243E+01
1.76750000000E+07	-2.47236320955E+01	-6.46018926409E+01
1.78700000000E+07	-2.47827385332E+01	-6.40147764052E+01
1.80650000000E+07	-2.49514441198E+01	-6.29039786080E+01
1.82600000000E+07	-2.50518037167E+01	-6.18733791399E+01
1.84550000000E+07	-2.52640701215E+01	-6.12178820131E+01
1.86500000000E+07	-2.53509575191E+01	-6.00435663497E+01
1.88450000000E+07	-2.54980238328E+01	-5.85555609235E+01
1.90400000000E+07	-2.55979432345E+01	-5.75273873244E+01
1.92350000000E+07	-2.57195378671E+01	-5.70584211405E+01
1.94300000000E+07	-2.58638453060E+01	-5.52010904968E+01
1.96250000000E+07	-2.60503198005E+01	-5.44299692569E+01
1.98200000000E+07	-2.61254494012E+01	-5.30195938245E+01
2.00150000000E+07	-2.61340958679E+01	-5.20459031016E+01
2.02100000000E+07	-2.63078036423E+01	-5.05707376625E+01
2.04050000000E+07	-2.64902742999E+01	-4.90021733171E+01
2.06000000000E+07	-2.64708805593E+01	-4.86182412636E+01
2.07950000000E+07	-2.65628899021E+01	-4.75161198553E+01
2.09900000000E+07	-2.65971031789E+01	-4.53989256321E+01
2.11850000000E+07	-2.66896747424E+01	-4.49948151744E+01
2.13800000000E+07	-2.67909531057E+01	-4.32145242209E+01
2.15750000000E+07	-2.68133766912E+01	-4.23005254247E+01
2.17700000000E+07	-2.68382083696E+01	-4.07965822288E+01
2.19650000000E+07	-2.67618351494E+01	-3.94409672992E+01
2.21600000000E+07	-2.67070411684E+01	-3.87419420997E+01
2.23550000000E+07	-2.68038219305E+01	-3.72233692920E+01
2.25500000000E+07	-2.67785224132E+01	-3.55932879397E+01
2.27450000000E+07	-2.69711670895E+01	-3.47218531782E+01
2.29400000000E+07	-2.68556001118E+01	-3.39904051727E+01
2.31350000000E+07	-2.67687005211E+01	-3.21335201381E+01
2.33300000000E+07	-2.67445456637E+01	-3.10408492575E+01
2.35250000000E+07	-2.68036256862E+01	-2.97374271796E+01
2.37200000000E+07	-2.68237512436E+01	-2.87942186656E+01
2.39150000000E+07	-2.67399436805E+01	-2.78517960686E+01
2.41100000000E+07	-2.66517550876E+01	-2.75160930795E+01
2.43050000000E+07	-2.65240951280E+01	-2.55635174089E+01
2.45000000000E+07	-2.66765268851E+01	-2.53901479738E+01
2.46950000000E+07	-2.64771628957E+01	-2.38782369012E+01
2.48900000000E+07	-2.64710290615E+01	-2.32352203540E+01
2.50850000000E+07	-2.63360161433E+01	-2.18345158019E+01
2.52800000000E+07	-2.63175003730E+01	-2.15519613773E+01
2.54750000000E+07	-2.62042883596E+01	-2.11545746931E+01
2.56700000000E+07	-2.60895486634E+01	-1.96587703198E+01
2.58650000000E+07	-2.61564893374E+01	-1.85934581225E+01
2.60600000000E+07	-2.59943781297E+01	-1.84743149247E+01
2.62550000000E+07	-2.60113045783E+01	-1.76423665963E+01
2.64500000000E+07	-2.58974440971E+01	-1.69816255457E+01
2.66450000000E+07	-2.57010787209E+01	-1.60112503648E+01
2.68400000000E+07	-2.56639577308E+01	-1.54724393561E+01
2.70350000000E+07	-2.56304988553E+01	-1.49727511023E+01
2.72300000000E+07	-2.56033973757E+01	-1.43474344732E+01
2.74250000000E+07	-2.55089634376E+01	-1.38621269430E+01
2.76200000000E+07	-2.53878392888E+01	-1.34008029384E+01
2.78150000000E+07	-2.53142775123E+01	-1.26628644844E+01
2.80100000000E+07	-2.51831527754E+01	-1.28323594751E+01
2.82050000000E+07	-2.51356436535E+01	-1.18278894898E+01
2.84000000000E+07	-2.50394700273E+01	-1.12405688367E+01
2.85950000000E+07	-2.48748257495E+01	-1.14687729490E+01
2.87900000000E+07	-2.47847284447E+01	-1.06962234538E+01
2.89850000000E+07	-2.48044053805E+01	-1.05646358201E+01
2.91800000000E+07	-2.47521549200E+01	-9.78577154051E+00
2.93750000000E+07	-2.46510392565E+01	-9.86548638958E+00
2.95700000000E+07	-2.45278902660E+01	-9.56014187574E+00
2.97650000000E+07	-2.43418221466E+01	-8.76563324714E+00
2.99600000000E+07	-2.43821318425E+01	-8.79232378701E+00
3.01550000000E+07	-2.43093953842E+01	-9.09188187857E+00
3.03500000000E+07	-2.41859737736E+01	-8.60759085240E+00
3.05450000000E+07	-2.40426885955E+01	-8.55670628231E+00
3.07400000000E+07	-2.39884254867E+01	-8.37061650071E+00
3.09350000000E+07	-2.39907991996E+01	-8.41997730404E+00
3.11300000000E+07	-2.38339601510E+01	-7.73388363074E+00
3.13250000000E+07	-2.37901099879E+01	-7.55540292936E+00
3.15200000000E+07	-2.36161574024E+01	-7.70586519218E+00
3.17150000000E+07	-2.36375707308E+01	-7.77382483491E+00
3.19100000000E+07	-2.35080487046E+01	-7.20883350810E+00
3.21050000000E+07	-2.33852801629E+01	-7.60846025409E+00
3.23000000000E+07	-2.34022577307E+01	-7.07708862858E+00
3.24950000000E+07	-2.33290195754E+01	-7.30851774583E+00
3.26900000000E+07	-2.31613276963E+01	-7.35316310801E+00
3.28850000000E+07	-2.31371467254E+01	-7.22404300324E+00
3.30800000000E+07	-2.30452163146E+01	-7.12670510609E+00
3.32750000000E+07	-2.29652033303E+01	-7.08631545924E+00
3.34700000000E+07	-2.29235038147E+01	-7.20562260319E+00
3.36650000000E+07	-2.28219890172E+01	-6.86270046405E+00
3.38600000000E+07	-2.28292199107E+01	-7.20830821335E+00
3.40550000000E+07	-2.26671093710E+01	-6.98508725228E+00
3.42500000000E+07	-2.26270584870E+01	-7.47064950957E+00
3.44450000000E+07	-2.26409024228E+01	-7.39033447965E+00
3.46400000000E+07	-2.25228693094E+01	-7.39481067189E+00
3.48350000000E+07	-2.24430154227E+01	-7.57438937501E+00
3.50300000000E+07	-2.24160121002E+01	-7.81006409162E+00
3.52250000000E+07	-2.23608029166E+01	-7.43054167054E+00
3.54200000000E+07	-2.22565738288E+01	-7.55952482986E+00
3.56150000000E+07	-2.22253542594E+01	-7.81934119493E+00
3.58100000000E+07	-2.21293543171E+01	-7.44917757546E+00
3.60050000000E+07	-2.20811056497E+01	-8.26854971069E+00
3.62000000000E+07	-2.20403755841E+01	-7.94023379718E+00
3.63950000000E+07	-2.19482527306E+01	-8.38023037945E+00
3.65900000000E+07	-2.19392009576E+01	-8.45698779293E+00
3.67850000000E+07	-2.18497380119E+01	-8.21012864357E+00
3.69800000000E+07	-2.18300921157E+01	-8.52345097268E+00
3.71750000000E+07	-2.17562510974E+01	-8.94326573408E+00
3.73700000000E+07	-2.17123235086E+01	-9.08486716319E+00
3.75650000000E+07	-2.16174763539E+01	-9.00090913648E+00
3.77600000000E+07	-2.15166043494E+01	-8.88539655496E+00
3.79550000000E+07	-2.15107751178E+01	-9.47408962332E+00
3.81500000000E+07	-2.14910925846E+01	-9.39840270239E+00
3.83450000000E+07	-2.13890163531E+01	-9.63215623532E+00
3.85400000000E+07	-2.13676704447E+01	-1.01451133110E+01
3.87350000000E+07	-2.12556481588E+01	-1.03828278630E+01
3.89300000000E+07	-2.12802532231E+01	-1.03710037701E+01
3.91250000000E+07	-2.12561957279E+01	-1.02168523426E+01
3.93200000000E+07	-2.11615092283E+01	-1.05863050810E+01
3.95150000000E+07	-2.11132020491E+01	-1.09114693424E+01
3.97100000000E+07	-2.10573730976E+01	-1.11818316497E+01
3.99050000000E+07	-2.10080088693E+01	-1.12299776434E+01
4.01000000000E+07	-2.10029064832E+01	-1.15303633137E+01
4.02950000000E+07	-2.09221451370E+01	-1.20576080089E+01
4.04900000000E+07	-2.08665071766E+01	-1.20896292285E+01
4.06850000000E+07	-2.08506153477E+01	-1.24893508611E+01
4.08800000000E+07	-2.07703657586E+01	-1.27318218929E+01
4.10750000000E+07	-2.07805867823E+01	-1.25311174843E+01
4.12700000000E+07	-2.07559668903E+01	-1.31066253266E+01
4.14650000000E+07	-2.06606073722E+01	-1.31063682296E+01
4.16600000000E+07	-2.06221685054E+01	-1.34539828159E+01
4.18550000000E+07	-2.05996229075E+01	-1.38842753943E+01
4.20500000000E+07	-2.05212352120E+01	-1.39398017587E+01
4.22450000000E+07	-2.05416225927E+01	-1.43638005330E+01
4.24400000000E+07	-2.04405579051E+01	-1.46636377397E+01
4.26350000000E+07	-2.04455046443E+01	-1.49178442976E+01
4.28300000000E+07	-2.04184196833E+01	-1.50732559291E+01
4.30250000000E+07	-2.03461836946E+01	-1.51888489209E+01
4.32200000000E+07	-2.03653003475E+01	-1.56829428143E+01
4.34150000000E+07	-2.03055543830E+01	-1.56396263584E+01
4.36100000000E+07	-2.02655931377E+01	-1.62402903550E+01
4.38050000000E+07	-2.02343816206E+01	-1.64809483016E+01
4.40000000000E+07	-2.02318930988E+01	-1.66367978295E+01
4.41950000000E+07	-2.01636877518E+01	-1.72223683888E+01
4.43900000000E+07	-2.01100402356E+01	-1.73520025329E+01
4.45850000000E+07	-2.01532900304E+01	-1.75849125882E+01
4.47800000000E+07	-2.00496449187E+01	-1.78598883705E+01
4.49750000000E+07	-2.00483926655E+01	-1.81088306951E+01
4.51700000000E+07	-1.99941404072E+01	-1.85700698137E+01
4.53650000000E+07	-2.00224889534E+01	-1.89862197725E+01
4.55600000000E+07	-1.99781381049E+01	-1.88764938760E+01
4.57550000000E+07	-1.99086035918E+01	-1.97447693343E+01
4.59500000000E+07	-1.99300529920E+01	-1.99755939545E+01
4.61450000000E+07	-1.98658495112E+01	-1.99766063148E+01
4.63400000000E+07	-1.98742267108E+01	-2.01193350834E+01
4.65350000000E+07	-1.98436537755E+01	-2.08670884544E+01
4.67300000000E+07	-1.98400645440E+01	-2.10377322958E+01
4.69250000000E+07	-1.98026125149E+01	-2.11206712507E+01
4.71200000000E+07	-1.97294111734E+01	-2.17084552269E+01
4.73150000000E+07	-1.97086878087E+01	-2.15551482554E+01
4.75100000000E+07	-1.97233552485E+01	-2.23676588611E+01
4.77050000000E+07	-1.96582430821E+01	-2.25693627472E+01
4.79000000000E+07	-1.96941179660E+01	-2.30136865007E+01
4.80950000000E+07	-1.96301161841E+01	-2.31891032780E+01
4.82900000000E+07	-1.96492218129E+01	-2.35545147791E+01
4.84850000000E+07	-1.96145640943E+01	-2.39219247797E+01
4.86800000000E+07	-1.95805191859E+01	-2.41436810967E+01
4.88750000000E+07	-1.95344244427E+01	-2.45368650590E+01
4.90700000000E+07	-1.94839457514E+01	-2.48026906990E+01
4.92650000000E+07	-1.95196501351E+01	-2.53533753213E+01
4.94600000000E+07	-1.94669738897E+01	-2.56792759106E+01
4.96550000000E+07	-1.94138361775E+01	-2.60483004678E+01
4.98500000000E+07	-1.94670809192E+01	-2.63647698334E+01
5.00450000000E+07	-1.94876276036E+01	-2.68042065371E+01
5.02400000000E+07	-1.93736102537E+01	-2.70479927405E+01
5.04350000000E+07	-1.93977519799E+01	-2.73875536305E+01
5.06300000000E+07	-1.94005952774E+01	-2.77926015856E+01
5.08250000000E+07	-1.93606694703E+01	-2.81776467229E+01
5.10200000000E+07	-1.94347381446E+01	-2.85190284367E+01
5.12150000000E+07	-1.93431954367E+01	-2.88995033970E+01
5.14100000000E+07	-1.93100266238E+01	-2.91544049359E+01
5.16050000000E+07	-1.92978970832E+01	-2.96756874171E+01
5.18000000000E+07	-1.92861370729E+01	-3.00060980537E+01
5.19950000000E+07	-1.93211950238E+01	-3.03313360282E+01
5.21900000000E+07	-1.92926935860E+01	-3.06076295652E+01
5.23850000000E+07	-1.92344108502E+01	-3.10238462367E+01
5.25800000000E+07	-1.92633548261E+01	-3.16129018631E+01
5.27750000000E+07	-1.92330362251E+01	-3.18914098620E+01
5.29700000000E+07	-1.92323059934E+01	-3.18427715874E+01
5.31650000000E+07	-1.92066908108E+01	-3.25779664893E+01
5.33600000000E+07	-1.92566474191E+01	-3.25460569068E+01
5.35550000000E+07	-1.92415229205E+01	-3.32316068895E+01
5.37500000000E+07	-1.92130034871E+01	-3.37481057026E+01
5.39450000000E+07	-1.91876610058E+01	-3.41520527916E+01
5.41400000000E+07	-1.91568189973E+01	-3.45119779267E+01
5.43350000000E+07	-1.91751155212E+01	-3.49037205166E+01
5.45300000000E+07	-1.91826444123E+01	-3.53365264245E+01
5.47250000000E+07	-1.91570479140E+01	-3.55087641402E+01
5.49200000000E+07	-1.91594659776E+01	-3.60367871853E+01
5.51150000000E+07	-1.91533129842E+01	-3.63776265146E+01
5.53100000000E+07	-1.91316589308E+01	-3.67495731820E+01
5.55050000000E+07	-1.91174486737E+01	-3.73089178633E+01
5.57000000000E+07	-1.91183119698E+01	-3.75144865918E+01
5.58950000000E+07	-1.91274577102E+01	-3.78216335907E+01
5.60900000000E+07	-1.90921079818E+01	-3.83178670333E+01
5.62850000000E+07	-1.91393298027E+01	-3.85725048261E+01
5.64800000000E+07	-1.91234733892E+01	-3.90997650125E+01
5.66750000000E+07	-1.91254475515E+01	-3.95819717661E+01
5.68700000000E+07	-1.90899179731E+01	-4.00948221748E+01
5.70650000000E+07	-1.91013943791E+01	-4.02204980063E+01
5.72600000000E+07	-1.90987565999E+01	-4.07495624532E+01
5.74550000000E+07	-1.91175432154E+01	-4.10822902773E+01
5.76500000000E+07	-1.91038040860E+01	-4.15146871870E+01
5.78450000000E+07	-1.91165956925E+01	-4.18865416101E+01
5.80400000000E+07	-1.90818174673E+01	-4.22386371271E+01
5.82350000000E+07	-1.90964750134E+01	-4.28620228298E+01
5.84300000000E+07	-1.90811349800E+01	-4.33047170323E+01
5.86250000000E+07	-1.90861474000E+01	-4.35205649645E+01
5.88200000000E+07	-1.90979650268E+01	-4.40835390768E+01
5.90150000000E+07	-1.90912535600E+01	-4.44456069435E+01
5.92100000000E+07	-1.90776407317E+01	-4.48007034505E+01
5.94050000000E+07	-1.90693935352E+01	-4.52538753971E+01
5.96000000000E+07	-1.91038552499E+01	-4.59020430432E+01
5.97950000000E+07	-1.91092989987E+01	-4.60713180433E+01
5.99900000000E+07	-1.90822185738E+01	-4.64288484164E+01
6.01850000000E+07	-1.90867677894E+01	-4.69474171244E+01
6.03800000000E+07	-1.91262922570E+01	-4.73855439926E+01
6.05750000000E+07	-1.91775132990E+01	-4.77678153094E+01
6.07700000000E+07	-1.91389036978E+01	-4.80368832164E+01
6.09650000000E+07	-1.91408377000E+01	-4.87459360771E+01
6.11600000000E+07	-1.91272706088E+01	-4.91755643549E+01
6.13550000000E+07	-1.91244915204E+01	-4.95054453065E+01
6.15500000000E+07	-1.91733446908E+01	-5.01673959707E+01
6.17450000000E+07	-1.91657235376E+01	-5.02849376326E+01
6.19400000000E+07	-1.91389620444E+01	-5.05480948769E+01
6.21350000000E+07	-1.91514906066E+01	-5.14811107780E+01
6.23300000000E+07	-1.91687564752E+01	-5.15157571514E+01
6.25250000000E+07	-1.91836958919E+01	-5.19368601672E+01
6.27200000000E+07	-1.91662850133E+01	-5.25259965682E+01
6.29150000000E+07	-1.91760514711E+01	-5.32515769126E+01
6.31100000000E+07	-1.91701126515E+01	-5.34467901818E+01
6.33050000000E+07	-1.91928653470E+01	-5.38166788999E+01
6.35000000000E+07	-1.92150234195E+01	-5.42700556844E+01
6.36950000000E+07	-1.92736833396E+01	-5.49969631436E+01
6.38900000000E+07	-1.92687198190E+01	-5.50608556578E+01
6.40850000000E+07	-1.92728191589E+01	-5.58007265716E+01
6.42800000000E+07	-1.92485976119E+01	-5.61617760245E+01
6.44750000000E+07	-1.92355983536E+01	-5.65608124831E+01
6.46700000000E+07	-1.92646692613E+01	-5.68234964425E+01
6.48650000000E+07	-1.92809095195E+01	-5.76841439309E+01
6.50600000000E+07	-1.92786687501E+01	-5.79282379772E+01
6.52550000000E+07	-1.93300236666E+01	-5.84048989647E+01
6.54500000000E+07	-1.92685660399E+01	-5.88884108404E+01
6.56450000000E+07	-1.93413338389E+01	-5.93661542078E+01
6.58400000000E+07	-1.93509210258E+01	-6.00228955971E+01
6.60350000000E+07	-1.93319372621E+01	-6.03178434979E+01
6.62300000000E+07	-1.93755415684E+01	-6.05876261842E+01
6.64250000000E+07	-1.94148412254E+01	-6.10637164437E+01
6.66200000000E+07	-1.94107648369E+01	-6.15095224857E+01
6.68150000000E+07	-1.93937766301E+01	-6.21575399068E+01
6.70100000000E+07	-1.94693489333E+01	-6.26142806972E+01
6.72050000000E+07	-1.94733621683E+01	-6.28810300629E+01
6.74000000000E+07	-1.94902296180E+01	-6.37545568483E+01
6.75950000000E+07	-1.94842080830E+01	-6.37690316671E+01
6.77900000000E+07	-1.94705893956E+01	-6.45228848477E+01
6.79850000000E+07	-1.95032249079E+01	-6.47873907542E+01
6.81800000000E+07	-1.95288655266E+01	-6.55189282358E+01
6.83750000000E+07	-1.95199316849E+01	-6.58615092779E+01
6.85700000000E+07	-1.95113517721E+01	-6.62272533403E+01
6.87650000000E+07	-1.95878336966E+01	-6.68175850533E+01
6.89600000000E+07	-1.96118212242E+01	-6.72965232023E+01
6.91550000000E+07	-1.95833898186E+01	-6.75948743239E+01
6.93500000000E+07	-1.96277656664E+01	-6.81119672706E+01
6.95450000000E+07	-1.96996447047E+01	-6.88376155468E+01
6.97400000000E+07	-1.96923719794E+01	-6.93756658393E+01
6.99350000000E+07	-1.96994607947E+01	-7.00114867480E+01
7.01300000000E+07	-1.97127093050E+01	-7.00907172526E+01
7.03250000000E+07	-1.97296168734E+01	-7.07703164946E+01
7.05200000000E+07	-1.97094131977E+01	-7.10990932284E+01
7.07150000000E+07	-1.97360511658E+01	-7.14086746807E+01
7.09100000000E+07	-1.97705543429E+01	-7.21223671698E+01
7.11050000000E+07	-1.98433337010E+01	-7.30009391020E+01
7.13000000000E+07	-1.98097383038E+01	-7.29778590138E+01
7.14950000000E+07	-1.98502260678E+01	-7.36582932003E+01
7.16900000000E+07	-1.98122871827E+01	-7.39100773007E+01
7.18850000000E+07	-1.98832890158E+01	-7.47349445070E+01
7.20800000000E+07	-1.98960418592E+01	-7.49466359022E+01
7.22750000000E+07	-1.98952878312E+01	-7.58082605577E+01
7.24700000000E+07	-1.99557585895E+01	-7.60621985261E+01
7.26650000000E+07	-1.99802897021E+01	-7.67881997228E+01
