# Hz S DB R 50
! CMT, M5045, 22160017, 22.4.3/2
! Date: 1/21/2023 20:30:15
! Data: Format (Calibration Info)
! Freq	S11:dB/Ang(F1)
5.00000000000E+06	-9.86458924151E+00	-7.67704729801E+01
5.19500000000E+06	-1.02126961400E+01	-7.77116340124E+01
5.39000000000E+06	-1.05516913189E+01	-7.86652272495E+01
5.58500000000E+06	-1.08697921635E+01	-7.94819021570E+01
5.78000000000E+06	-1.12252635907E+01	-8.01144420641E+01
5.97500000000E+06	-1.14916630989E+01	-8.08049916466E+01
6.17000000000E+06	-1.17960601947E+01	-8.15522300675E+01
6.36500000000E+06	-1.20875330475E+01	-8.22563125416E+01
6.56000000000E+06	-1.23542009336E+01	-8.26256222709E+01
6.75500000000E+06	-1.26871615183E+01	-8.33734633054E+01
6.95000000000E+06	-1.28954128627E+01	-8.38841556357E+01
7.14500000000E+06	-1.31920201864E+01	-8.43536002300E+01
7.34000000000E+06	-1.34430297068E+01	-8.48842720406E+01
7.53500000000E+06	-1.37404546063E+01	-8.52792261830E+01
7.73000000000E+06	-1.39502529745E+01	-8.59304971750E+01
7.92500000000E+06	-1.41939502126E+01	-8.63528085805E+01
8.12000000000E+06	-1.44262895953E+01	-8.67282656784E+01
8.31500000000E+06	-1.46727447064E+01	-8.69470910828E+01
8.51000000000E+06	-1.48942106491E+01	-8.75780245814E+01
8.70500000000E+06	-1.51131905616E+01	-8.78704856231E+01
8.90000000000E+06	-1.53480704044E+01	-8.83697176690E+01
9.09500000000E+06	-1.55963654929E+01	-8.85439342520E+01
9.29000000000E+06	-1.58119967779E+01	-8.91494689258E+01
9.48500000000E+06	-1.60421147550E+01	-8.94366559715E+01
9.68000000000E+06	-1.62497657574E+01	-8.98487344295E+01
9.87500000000E+06	-1.64507123535E+01	-9.00942504274E+01
1.00700000000E+07	-1.66372004899E+01	-9.05584061114E+01
1.02650000000E+07	-1.69096348440E+01	-9.10461812859E+01
1.04600000000E+07	-1.70922230871E+01	-9.14659351877E+01
1.06550000000E+07	-1.73196759315E+01	-9.14691363139E+01
1.08500000000E+07	-1.74620436173E+01	-9.18776370842E+01
1.10450000000E+07	-1.76737801875E+01	-9.22532230712E+01
1.12400000000E+07	-1.78889637516E+01	-9.24815761412E+01
1.14350000000E+07	-1.80259993854E+01	-9.24783446963E+01
1.16300000000E+07	-1.82494590042E+01	-9.30855174327E+01
1.18250000000E+07	-1.84197413576E+01	-9.35522434392E+01
1.20200000000E+07	-1.86014766083E+01	-9.35699553371E+01
1.22150000000E+07	-1.88141210683E+01	-9.40968867929E+01
1.24100000000E+07	-1.89828290041E+01	-9.43023875868E+01
1.26050000000E+07	-1.92325104874E+01	-9.47481529739E+01
1.28000000000E+07	-1.93379442870E+01	-9.49631542413E+01
1.29950000000E+07	-1.95232888480E+01	-9.52216362908E+01
1.31900000000E+07	-1.97037983985E+01	-9.56696840274E+01
1.33850000000E+07	-1.98928623707E+01	-9.59155154926E+01
1.35800000000E+07	-2.00414821230E+01	-9.64161868965E+01
1.37750000000E+07	-2.02578680738E+01	-9.62556319889E+01
1.39700000000E+07	-2.04182671121E+01	-9.64986442724E+01
1.41650000000E+07	-2.06350590914E+01	-9.67649148025E+01
1.43600000000E+07	-2.08017647115E+01	-9.72473155984E+01
1.45550000000E+07	-2.09971876130E+01	-9.73980588077E+01
1.47500000000E+07	-2.11845174709E+01	-9.76665327498E+01
1.49450000000E+07	-2.13142712445E+01	-9.80227228939E+01
1.51400000000E+07	-2.15217834026E+01	-9.77770076118E+01
1.53350000000E+07	-2.16838024483E+01	-9.80222727564E+01
1.55300000000E+07	-2.18910964137E+01	-9.81464606163E+01
1.57250000000E+07	-2.20496849522E+01	-9.86284533585E+01
1.59200000000E+07	-2.22522047066E+01	-9.83560966517E+01
1.61150000000E+07	-2.23638144245E+01	-9.89807152176E+01
1.63100000000E+07	-2.26077756115E+01	-9.87797555897E+01
1.65050000000E+07	-2.27444278248E+01	-9.92940421169E+01
1.67000000000E+07	-2.29962986943E+01	-9.98501858138E+01
1.68950000000E+07	-2.31269884595E+01	-9.94992504029E+01
1.70900000000E+07	-2.33141934305E+01	-9.92079237256E+01
1.72850000000E+07	-2.35096235727E+01	-1.00327483713E+02
1.74800000000E+07	-2.36879808556E+01	-9.99245645032E+01
1.76750000000E+07	-2.38513169923E+01	-1.00109969084E+02
1.78700000000E+07	-2.40153866698E+01	-1.00432593421E+02
1.80650000000E+07	-2.41628839929E+01	-1.00442319116E+02
1.82600000000E+07	-2.44703382357E+01	-1.00774932594E+02
1.84550000000E+07	-2.45300184471E+01	-1.00971077881E+02
1.86500000000E+07	-2.47889103121E+01	-1.00411580850E+02
1.88450000000E+07	-2.49340221143E+01	-1.00802476993E+02
1.90400000000E+07	-2.51222618053E+01	-1.01118560700E+02
1.92350000000E+07	-2.53287581380E+01	-1.01108544363E+02
1.94300000000E+07	-2.54786277964E+01	-1.00935540225E+02
1.96250000000E+07	-2.57009746420E+01	-1.01414299046E+02
1.98200000000E+07	-2.59147861935E+01	-1.01956629170E+02
2.00150000000E+07	-2.60517192879E+01	-1.01287898165E+02
2.02100000000E+07	-2.62276177352E+01	-1.01785986447E+02
2.04050000000E+07	-2.64242073364E+01	-1.01083653157E+02
2.06000000000E+07	-2.66864146878E+01	-1.01368172158E+02
2.07950000000E+07	-2.69054044986E+01	-1.01848304189E+02
2.09900000000E+07	-2.69611515844E+01	-1.01766564274E+02
2.11850000000E+07	-2.72736439970E+01	-1.01726398336E+02
2.13800000000E+07	-2.74191561589E+01	-1.01607207846E+02
2.15750000000E+07	-2.77268559828E+01	-1.01608131244E+02
2.17700000000E+07	-2.78411915114E+01	-1.01443264668E+02
2.19650000000E+07	-2.79982017442E+01	-1.01026787698E+02
2.21600000000E+07	-2.83100162828E+01	-1.01531401378E+02
2.23550000000E+07	-2.85218481305E+01	-1.01250539670E+02
2.25500000000E+07	-2.85418477356E+01	-1.01049407727E+02
2.27450000000E+07	-2.88001901643E+01	-1.01015439298E+02
2.29400000000E+07	-2.91652867853E+01	-1.00799592237E+02
2.31350000000E+07	-2.93295367736E+01	-1.02173229723E+02
2.33300000000E+07	-2.95169993213E+01	-1.01068972435E+02
2.35250000000E+07	-2.97265627606E+01	-1.01221982796E+02
2.37200000000E+07	-2.98458315811E+01	-1.00545451901E+02
2.39150000000E+07	-3.02410814241E+01	-1.00584397238E+02
2.41100000000E+07	-3.05290112582E+01	-1.00818837117E+02
2.43050000000E+07	-3.07874208191E+01	-9.95663463745E+01
2.45000000000E+07	-3.08432319707E+01	-9.94592662474E+01
2.46950000000E+07	-3.12586063847E+01	-9.98580665486E+01
2.48900000000E+07	-3.13695943660E+01	-9.94141199237E+01
2.50850000000E+07	-3.16168705227E+01	-9.97141342230E+01
2.52800000000E+07	-3.21182309128E+01	-9.88583329810E+01
2.54750000000E+07	-3.20801766905E+01	-9.82030100320E+01
2.56700000000E+07	-3.24874256771E+01	-9.82286085931E+01
2.58650000000E+07	-3.25956250441E+01	-9.57901193998E+01
2.60600000000E+07	-3.28672744189E+01	-9.62763115224E+01
2.62550000000E+07	-3.32559738379E+01	-9.69361156579E+01
2.64500000000E+07	-3.34944526986E+01	-9.48407008926E+01
2.66450000000E+07	-3.37284665327E+01	-9.45929637023E+01
2.68400000000E+07	-3.39563969911E+01	-9.32282061110E+01
2.70350000000E+07	-3.43686119363E+01	-9.26019446305E+01
2.72300000000E+07	-3.46046249671E+01	-9.20037760965E+01
2.74250000000E+07	-3.49020005279E+01	-9.03782505409E+01
2.76200000000E+07	-3.49611644373E+01	-8.89286944580E+01
2.78150000000E+07	-3.53015949108E+01	-8.91268038941E+01
2.80100000000E+07	-3.56336790535E+01	-8.80794609768E+01
2.82050000000E+07	-3.61191535684E+01	-8.77071673528E+01
2.84000000000E+07	-3.61248173128E+01	-8.39128536872E+01
2.85950000000E+07	-3.63973011479E+01	-8.50967962890E+01
2.87900000000E+07	-3.67831298744E+01	-8.21360663330E+01
2.89850000000E+07	-3.72887245959E+01	-7.95769465118E+01
2.91800000000E+07	-3.72126690208E+01	-7.91996578258E+01
2.93750000000E+07	-3.75569473754E+01	-7.68992002959E+01
2.95700000000E+07	-3.76339165733E+01	-7.48329909803E+01
2.97650000000E+07	-3.81283082291E+01	-7.17587983891E+01
2.99600000000E+07	-3.85222391365E+01	-7.15302538199E+01
3.01550000000E+07	-3.86636702792E+01	-6.87051215847E+01
3.03500000000E+07	-3.85770084638E+01	-6.62596777077E+01
3.05450000000E+07	-3.88383329207E+01	-6.44368954511E+01
3.07400000000E+07	-3.93202023540E+01	-6.12611036743E+01
3.09350000000E+07	-3.89238447090E+01	-5.71302800416E+01
3.11300000000E+07	-3.93099772981E+01	-5.62500815526E+01
3.13250000000E+07	-3.91766936585E+01	-5.13058431486E+01
3.15200000000E+07	-3.95613199776E+01	-4.84245189317E+01
3.17150000000E+07	-3.91317490415E+01	-4.84965882579E+01
3.19100000000E+07	-3.95253018739E+01	-4.34424172865E+01
3.21050000000E+07	-3.95069563774E+01	-3.96602159030E+01
3.23000000000E+07	-3.92652638396E+01	-4.07340341341E+01
3.24950000000E+07	-3.91635609792E+01	-3.80809010458E+01
3.26900000000E+07	-3.95920261233E+01	-3.89598437220E+01
3.28850000000E+07	-3.93645780867E+01	-3.04307944220E+01
3.30800000000E+07	-3.91692640711E+01	-3.05121968293E+01
3.32750000000E+07	-3.86658524114E+01	-2.82699861655E+01
3.34700000000E+07	-3.82186444123E+01	-2.67631316261E+01
3.36650000000E+07	-3.88365888405E+01	-2.41964352246E+01
3.38600000000E+07	-3.85306813941E+01	-2.31261494834E+01
3.40550000000E+07	-3.82104315918E+01	-2.18535525227E+01
3.42500000000E+07	-3.79798134033E+01	-2.12195730622E+01
3.44450000000E+07	-3.79633226469E+01	-1.53540315098E+01
3.46400000000E+07	-3.79308330301E+01	-1.79608905462E+01
3.48350000000E+07	-3.76067416047E+01	-1.50462464792E+01
3.50300000000E+07	-3.73158097040E+01	-1.17252473836E+01
3.52250000000E+07	-3.70828478748E+01	-1.34536498877E+01
3.54200000000E+07	-3.68752770560E+01	-1.07694254740E+01
3.56150000000E+07	-3.65526337436E+01	-9.13011664989E+00
3.58100000000E+07	-3.65405330977E+01	-9.16544146949E+00
3.60050000000E+07	-3.63540569632E+01	-8.41558817097E+00
3.62000000000E+07	-3.63040277296E+01	-6.84725749455E+00
3.63950000000E+07	-3.60276681474E+01	-6.67476075639E+00
3.65900000000E+07	-3.59801196564E+01	-4.57507333776E+00
3.67850000000E+07	-3.57952691052E+01	-6.05801324483E+00
3.69800000000E+07	-3.52782595928E+01	-5.61518607183E+00
3.71750000000E+07	-3.53539935697E+01	-4.64793771106E+00
3.73700000000E+07	-3.52027675839E+01	-4.98215379049E+00
3.75650000000E+07	-3.50782715850E+01	-3.65915020019E+00
3.77600000000E+07	-3.48174291700E+01	-4.38951466797E+00
3.79550000000E+07	-3.46496821551E+01	-3.31338524880E+00
3.81500000000E+07	-3.46323387708E+01	-2.08866988165E+00
3.83450000000E+07	-3.42450485211E+01	-1.31150668454E+00
3.85400000000E+07	-3.41620224093E+01	-3.73592689062E+00
3.87350000000E+07	-3.40634334881E+01	-2.97694722900E+00
3.89300000000E+07	-3.40554640663E+01	-1.17676238138E+00
3.91250000000E+07	-3.37793056148E+01	-1.44011106514E+00
3.93200000000E+07	-3.36552076515E+01	-1.01808088615E+00
3.95150000000E+07	-3.35868326112E+01	-4.31256260145E-01
3.97100000000E+07	-3.33876856761E+01	-6.40476731725E-01
3.99050000000E+07	-3.32434310035E+01	-7.54289161339E-01
4.01000000000E+07	-3.31332723524E+01	-7.46801367063E-01
4.02950000000E+07	-3.31067566120E+01	-1.71271287980E-02
4.04900000000E+07	-3.28992496275E+01	-9.34595704587E-01
4.06850000000E+07	-3.29279150582E+01	-9.40833476584E-01
4.08800000000E+07	-3.26471852700E+01	-6.70202233998E-01
4.10750000000E+07	-3.26458833479E+01	-4.37375548005E-01
4.12700000000E+07	-3.25374460036E+01	-6.30508158586E-01
4.14650000000E+07	-3.24020390838E+01	-1.30988350017E+00
4.16600000000E+07	-3.21764482703E+01	6.00396896368E-01
4.18550000000E+07	-3.21302153611E+01	-6.36420313399E-01
4.20500000000E+07	-3.21378152066E+01	-9.68027238755E-01
4.22450000000E+07	-3.20120232708E+01	-1.01844843474E+00
4.24400000000E+07	-3.19685567655E+01	-1.37193707671E+00
4.26350000000E+07	-3.18144341936E+01	-5.79023246092E-01
4.28300000000E+07	-3.18003456466E+01	-1.47391976000E+00
4.30250000000E+07	-3.15860666050E+01	-2.00432873857E+00
4.32200000000E+07	-3.15204724327E+01	-1.60737319522E+00
4.34150000000E+07	-3.14711967768E+01	-1.00040166106E+00
4.36100000000E+07	-3.13901528850E+01	-2.48199466424E+00
4.38050000000E+07	-3.13981321496E+01	-1.88709875499E+00
4.40000000000E+07	-3.11984607553E+01	-3.39406006158E+00
4.41950000000E+07	-3.11375263356E+01	-3.13577815476E+00
4.43900000000E+07	-3.12167264475E+01	-3.75452322120E+00
4.45850000000E+07	-3.12754571527E+01	-3.27583989681E+00
4.47800000000E+07	-3.11194246134E+01	-3.10884751843E+00
4.49750000000E+07	-3.10195332059E+01	-3.40592860458E+00
4.51700000000E+07	-3.08675242802E+01	-3.82255602455E+00
4.53650000000E+07	-3.08871427551E+01	-4.80908257474E+00
4.55600000000E+07	-3.09207765088E+01	-4.23311794217E+00
4.57550000000E+07	-3.07547912062E+01	-4.67115217714E+00
4.59500000000E+07	-3.06507338618E+01	-4.42032534136E+00
4.61450000000E+07	-3.07093309506E+01	-4.58270025694E+00
4.63400000000E+07	-3.07049821407E+01	-4.74986017172E+00
4.65350000000E+07	-3.05060074269E+01	-6.30632931768E+00
4.67300000000E+07	-3.04268635623E+01	-5.66150382887E+00
4.69250000000E+07	-3.06660450578E+01	-7.19083948307E+00
4.71200000000E+07	-3.03717101397E+01	-6.38636878990E+00
4.73150000000E+07	-3.03346229575E+01	-6.77318804511E+00
4.75100000000E+07	-3.02515946805E+01	-7.74586497171E+00
4.77050000000E+07	-3.01439886126E+01	-8.18523960116E+00
4.79000000000E+07	-3.01866162006E+01	-8.85070726254E+00
4.80950000000E+07	-3.01466820481E+01	-8.15511153953E+00
4.82900000000E+07	-3.01361780214E+01	-8.45303178752E+00
4.84850000000E+07	-2.99595764699E+01	-8.70356185158E+00
4.86800000000E+07	-3.02023758094E+01	-9.32732480256E+00
4.88750000000E+07	-3.02021695073E+01	-9.82218047365E+00
4.90700000000E+07	-2.99903450118E+01	-1.06745714957E+01
4.92650000000E+07	-3.00599221068E+01	-9.74728456806E+00
4.94600000000E+07	-3.01181648818E+01	-9.71653519365E+00
4.96550000000E+07	-3.00477801686E+01	-1.13463777404E+01
4.98500000000E+07	-2.99537549576E+01	-1.12288391093E+01
5.00450000000E+07	-2.99115278091E+01	-1.15656082280E+01
5.02400000000E+07	-2.99852847247E+01	-1.19403232515E+01
5.04350000000E+07	-3.00135318007E+01	-1.26672723561E+01
5.06300000000E+07	-2.98337851753E+01	-1.34842394690E+01
5.08250000000E+07	-2.97798264404E+01	-1.33494603899E+01
5.10200000000E+07	-2.98656334616E+01	-1.42085021572E+01
5.12150000000E+07	-2.99046774716E+01	-1.43481522043E+01
5.14100000000E+07	-2.98336813893E+01	-1.40635338159E+01
5.16050000000E+07	-2.99072467534E+01	-1.45561077289E+01
5.18000000000E+07	-2.98169660125E+01	-1.56193574012E+01
5.19950000000E+07	-2.97092852264E+01	-1.66083460303E+01
5.21900000000E+07	-2.97729460817E+01	-1.59158806163E+01
5.23850000000E+07	-2.96917731579E+01	-1.63534582584E+01
5.25800000000E+07	-2.98055297124E+01	-1.66503180074E+01
5.27750000000E+07	-2.97506023127E+01	-1.71844717878E+01
5.29700000000E+07	-2.98643751578E+01	-1.82060483855E+01
5.31650000000E+07	-2.97535549172E+01	-1.82986849014E+01
5.33600000000E+07	-2.98789490190E+01	-1.93035362550E+01
5.35550000000E+07	-2.98025920769E+01	-1.95876908779E+01
5.37500000000E+07	-2.98248792501E+01	-1.94486260441E+01
5.39450000000E+07	-2.97714717599E+01	-2.03221476863E+01
5.41400000000E+07	-2.98394490513E+01	-2.02555230634E+01
5.43350000000E+07	-2.98625476607E+01	-2.09846049720E+01
5.45300000000E+07	-2.98719625957E+01	-2.12577826471E+01
5.47250000000E+07	-2.98884486632E+01	-2.22395457068E+01
5.49200000000E+07	-2.99759194747E+01	-2.28485173514E+01
5.51150000000E+07	-2.99291821544E+01	-2.27787835169E+01
5.53100000000E+07	-2.99715906467E+01	-2.39637275762E+01
5.55050000000E+07	-3.00773963251E+01	-2.38984652239E+01
5.57000000000E+07	-3.00838111063E+01	-2.41892197784E+01
5.58950000000E+07	-3.00289172041E+01	-2.48905818923E+01
5.60900000000E+07	-3.00070573866E+01	-2.52792545757E+01
5.62850000000E+07	-3.00133174290E+01	-2.53086057343E+01
5.64800000000E+07	-3.00272167965E+01	-2.65946199120E+01
5.66750000000E+07	-3.02027751282E+01	-2.62016896004E+01
5.68700000000E+07	-3.00644185082E+01	-2.67500732472E+01
5.70650000000E+07	-3.02200560997E+01	-2.77681382447E+01
5.72600000000E+07	-3.02364133861E+01	-2.79852998577E+01
5.74550000000E+07	-3.01188748591E+01	-2.91326336421E+01
5.76500000000E+07	-3.02657276220E+01	-2.93055009315E+01
5.78450000000E+07	-3.03896031799E+01	-2.97891240499E+01
5.80400000000E+07	-3.04053306562E+01	-3.06292199369E+01
5.82350000000E+07	-3.04750269799E+01	-3.07949916008E+01
5.84300000000E+07	-3.05305371613E+01	-3.14822164432E+01
5.86250000000E+07	-3.05221675089E+01	-3.14818724032E+01
5.88200000000E+07	-3.05523044003E+01	-3.22315579521E+01
5.90150000000E+07	-3.05519025645E+01	-3.28094157731E+01
5.92100000000E+07	-3.06000533128E+01	-3.27851661552E+01
5.94050000000E+07	-3.07281345929E+01	-3.37678862042E+01
5.96000000000E+07	-3.07441749991E+01	-3.40154370973E+01
5.97950000000E+07	-3.07533793247E+01	-3.57585125511E+01
5.99900000000E+07	-3.07564381855E+01	-3.55778131630E+01
6.01850000000E+07	-3.08351161807E+01	-3.66303011957E+01
6.03800000000E+07	-3.08510031075E+01	-3.68693362889E+01
6.05750000000E+07	-3.09766202464E+01	-3.73414084709E+01
6.07700000000E+07	-3.09497211889E+01	-3.89576659311E+01
6.09650000000E+07	-3.09606530544E+01	-3.86308436619E+01
6.11600000000E+07	-3.10592700749E+01	-3.90330438120E+01
6.13550000000E+07	-3.12903809705E+01	-3.95786423410E+01
6.15500000000E+07	-3.12978172995E+01	-3.96563181325E+01
6.17450000000E+07	-3.13066072978E+01	-4.19892604492E+01
6.19400000000E+07	-3.12625364362E+01	-4.13545220484E+01
6.21350000000E+07	-3.15197203696E+01	-4.21758879889E+01
6.23300000000E+07	-3.16687230994E+01	-4.28101532878E+01
6.25250000000E+07	-3.16377438212E+01	-4.28938798835E+01
6.27200000000E+07	-3.16989997375E+01	-4.38115175756E+01
6.29150000000E+07	-3.16112437764E+01	-4.50699030913E+01
6.31100000000E+07	-3.17884983879E+01	-4.46693594585E+01
6.33050000000E+07	-3.18578497272E+01	-4.59055443814E+01
6.35000000000E+07	-3.18357341998E+01	-4.70823312220E+01
6.36950000000E+07	-3.20823734335E+01	-4.69688578451E+01
6.38900000000E+07	-3.21090499938E+01	-4.84132124840E+01
6.40850000000E+07	-3.22614230952E+01	-4.87239307477E+01
6.42800000000E+07	-3.22805441342E+01	-4.93092994478E+01
6.44750000000E+07	-3.22529176697E+01	-5.14300372587E+01
6.46700000000E+07	-3.26214460848E+01	-5.03188317975E+01
6.48650000000E+07	-3.25422489618E+01	-5.18341392838E+01
6.50600000000E+07	-3.27154077129E+01	-5.33155832035E+01
6.52550000000E+07	-3.27104461830E+01	-5.29881716690E+01
6.54500000000E+07	-3.28620272255E+01	-5.48079441557E+01
6.56450000000E+07	-3.29718717563E+01	-5.50116945148E+01
6.58400000000E+07	-3.30919664649E+01	-5.69959010449E+01
6.60350000000E+07	-3.31690304500E+01	-5.63948248556E+01
6.62300000000E+07	-3.31549899792E+01	-5.75517403549E+01
6.64250000000E+07	-3.34377664788E+01	-5.91018266363E+01
6.66200000000E+07	-3.35075224982E+01	-5.89658594303E+01
6.68150000000E+07	-3.35689778636E+01	-6.03686967893E+01
6.70100000000E+07	-3.37944133546E+01	-6.10679828631E+01
6.72050000000E+07	-3.39390722401E+01	-6.25435131071E+01
6.74000000000E+07	-3.41232176041E+01	-6.26672199360E+01
6.75950000000E+07	-3.40173322828E+01	-6.40312382669E+01
6.77900000000E+07	-3.42528296750E+01	-6.45608303301E+01
6.79850000000E+07	-3.44947699521E+01	-6.60818482749E+01
6.81800000000E+07	-3.44470839588E+01	-6.69708083997E+01
6.83750000000E+07	-3.45366374032E+01	-6.75004151710E+01
6.85700000000E+07	-3.45969465618E+01	-6.97718123578E+01
6.87650000000E+07	-3.46088673808E+01	-7.03207663914E+01
6.89600000000E+07	-3.50440633319E+01	-7.37350325492E+01
6.91550000000E+07	-3.50660829817E+01	-7.26563111498E+01
6.93500000000E+07	-3.52596398087E+01	-7.42795993120E+01
6.95450000000E+07	-3.53823161306E+01	-7.56776406675E+01
6.97400000000E+07	-3.55229673465E+01	-7.62832148303E+01
6.99350000000E+07	-3.53881339095E+01	-7.80996487264E+01
7.01300000000E+07	-3.59071386846E+01	-7.93814215063E+01
7.03250000000E+07	-3.59489762552E+01	-8.03360240120E+01
7.05200000000E+07	-3.61373173902E+01	-8.21560058484E+01
7.07150000000E+07	-3.64667645044E+01	-8.52574329675E+01
7.09100000000E+07	-3.63910281363E+01	-8.35967734874E+01
7.11050000000E+07	-3.64139949096E+01	-8.81370341360E+01
7.13000000000E+07	-3.66762168049E+01	-8.89543637103E+01
7.14950000000E+07	-3.68018123729E+01	-8.94229806729E+01
7.16900000000E+07	-3.69542800682E+01	-9.10711742385E+01
7.18850000000E+07	-3.73316355174E+01	-9.39424459207E+01
7.20800000000E+07	-3.72504061998E+01	-9.59511040625E+01
7.22750000000E+07	-3.71828172154E+01	-9.69248309376E+01
7.24700000000E+07	-3.74292138074E+01	-9.80419602686E+01
7.26650000000E+07	-3.76354194107E+01	-1.00872350839E+02
