# Hz S DB R 50
! CMT, M5045, 22160017, 22.4.3/2
! Date: 1/21/2023 19:42:58
! Data: Format (Calibration Info)
! Freq	S11:dB/Ang(F1)
5.00000000000E+06	-9.85550062487E+00	-7.51164403701E+01
5.19500000000E+06	-1.01938727119E+01	-7.61770493542E+01
5.39000000000E+06	-1.05145640460E+01	-7.68459256465E+01
5.58500000000E+06	-1.08546046865E+01	-7.76227314018E+01
5.78000000000E+06	-1.11614195351E+01	-7.84228324055E+01
5.97500000000E+06	-1.14561364487E+01	-7.92745981855E+01
6.17000000000E+06	-1.17543476781E+01	-7.97734182628E+01
6.36500000000E+06	-1.20389523677E+01	-8.03795358740E+01
6.56000000000E+06	-1.23407192092E+01	-8.08985379574E+01
6.75500000000E+06	-1.26319587860E+01	-8.14270838347E+01
6.95000000000E+06	-1.28610587505E+01	-8.18981653116E+01
7.14500000000E+06	-1.31596785736E+01	-8.24064139988E+01
7.34000000000E+06	-1.34149540112E+01	-8.29711365685E+01
7.53500000000E+06	-1.36782049333E+01	-8.35628545249E+01
7.73000000000E+06	-1.39327592036E+01	-8.40087114076E+01
7.92500000000E+06	-1.41583302385E+01	-8.42587716996E+01
8.12000000000E+06	-1.44054868642E+01	-8.48031053133E+01
8.31500000000E+06	-1.46344178386E+01	-8.51827944728E+01
8.51000000000E+06	-1.48660691172E+01	-8.54882386726E+01
8.70500000000E+06	-1.51253564620E+01	-8.55761119463E+01
8.90000000000E+06	-1.53061470554E+01	-8.61408726966E+01
9.09500000000E+06	-1.55601156266E+01	-8.66220069944E+01
9.29000000000E+06	-1.57843979966E+01	-8.68885603484E+01
9.48500000000E+06	-1.59709924426E+01	-8.71626088241E+01
9.68000000000E+06	-1.62094830552E+01	-8.75798691057E+01
9.87500000000E+06	-1.64406462461E+01	-8.78552826193E+01
1.00700000000E+07	-1.66674539989E+01	-8.82413660226E+01
1.02650000000E+07	-1.68352165154E+01	-8.85034586243E+01
1.04600000000E+07	-1.70656414265E+01	-8.88238535393E+01
1.06550000000E+07	-1.72225408085E+01	-8.90066614315E+01
1.08500000000E+07	-1.74415701382E+01	-8.97527559854E+01
1.10450000000E+07	-1.76239716622E+01	-8.95311371494E+01
1.12400000000E+07	-1.78664184615E+01	-8.98907495115E+01
1.14350000000E+07	-1.80187183301E+01	-9.01817770061E+01
1.16300000000E+07	-1.82127435210E+01	-9.04024576402E+01
1.18250000000E+07	-1.83958106261E+01	-9.06707650273E+01
1.20200000000E+07	-1.86276539211E+01	-9.09669482945E+01
1.22150000000E+07	-1.88220993366E+01	-9.11266201642E+01
1.24100000000E+07	-1.90240073354E+01	-9.14103084291E+01
1.26050000000E+07	-1.92049228766E+01	-9.14563648532E+01
1.28000000000E+07	-1.93570228087E+01	-9.18751562708E+01
1.29950000000E+07	-1.95667539031E+01	-9.23562824808E+01
1.31900000000E+07	-1.97571771405E+01	-9.26143821968E+01
1.33850000000E+07	-1.98699025504E+01	-9.27888591569E+01
1.35800000000E+07	-2.01401468350E+01	-9.30310850152E+01
1.37750000000E+07	-2.03561406317E+01	-9.29194480432E+01
1.39700000000E+07	-2.05182998582E+01	-9.29476356191E+01
1.41650000000E+07	-2.06386776123E+01	-9.33126935751E+01
1.43600000000E+07	-2.08832537465E+01	-9.34654359551E+01
1.45550000000E+07	-2.10957461200E+01	-9.38992030637E+01
1.47500000000E+07	-2.12225368144E+01	-9.39173807743E+01
1.49450000000E+07	-2.14478926051E+01	-9.40242192840E+01
1.51400000000E+07	-2.16042947052E+01	-9.40053209776E+01
1.53350000000E+07	-2.17731018250E+01	-9.42111309842E+01
1.55300000000E+07	-2.19401253615E+01	-9.41299217130E+01
1.57250000000E+07	-2.21211022609E+01	-9.43798603439E+01
1.59200000000E+07	-2.23957091298E+01	-9.43298850985E+01
1.61150000000E+07	-2.24980907677E+01	-9.44926495458E+01
1.63100000000E+07	-2.26978250836E+01	-9.50580469696E+01
1.65050000000E+07	-2.28480649291E+01	-9.47872073931E+01
1.67000000000E+07	-2.30272645267E+01	-9.48412826925E+01
1.68950000000E+07	-2.32614290237E+01	-9.47916079856E+01
1.70900000000E+07	-2.34646747811E+01	-9.51120006906E+01
1.72850000000E+07	-2.36105860910E+01	-9.48198666831E+01
1.74800000000E+07	-2.37470099797E+01	-9.53706473634E+01
1.76750000000E+07	-2.40187881793E+01	-9.52590271268E+01
1.78700000000E+07	-2.41559914373E+01	-9.51566648359E+01
1.80650000000E+07	-2.43613125616E+01	-9.47478712638E+01
1.82600000000E+07	-2.45909595594E+01	-9.53970763822E+01
1.84550000000E+07	-2.47883428803E+01	-9.48793312040E+01
1.86500000000E+07	-2.49581680353E+01	-9.47595927378E+01
1.88450000000E+07	-2.51260357267E+01	-9.47989671782E+01
1.90400000000E+07	-2.52883079585E+01	-9.46549993071E+01
1.92350000000E+07	-2.55585427037E+01	-9.51294746863E+01
1.94300000000E+07	-2.57023525705E+01	-9.48091360550E+01
1.96250000000E+07	-2.59249021591E+01	-9.44538578968E+01
1.98200000000E+07	-2.61043732147E+01	-9.42305800475E+01
2.00150000000E+07	-2.63526967132E+01	-9.44033400996E+01
2.02100000000E+07	-2.65054262546E+01	-9.43929734676E+01
2.04050000000E+07	-2.67005998465E+01	-9.42075736802E+01
2.06000000000E+07	-2.69273814665E+01	-9.37812520795E+01
2.07950000000E+07	-2.71290547782E+01	-9.37780007721E+01
2.09900000000E+07	-2.72479844004E+01	-9.32176141910E+01
2.11850000000E+07	-2.74874440593E+01	-9.37220431402E+01
2.13800000000E+07	-2.78222272142E+01	-9.32614303007E+01
2.15750000000E+07	-2.78383681713E+01	-9.22683113119E+01
2.17700000000E+07	-2.81381443513E+01	-9.20242103323E+01
2.19650000000E+07	-2.82370642776E+01	-9.24020251627E+01
2.21600000000E+07	-2.85246667491E+01	-9.19261665147E+01
2.23550000000E+07	-2.87309627745E+01	-9.08241133688E+01
2.25500000000E+07	-2.89471226815E+01	-9.10765375354E+01
2.27450000000E+07	-2.90396176780E+01	-9.03355915754E+01
2.29400000000E+07	-2.93145950828E+01	-9.06895360616E+01
2.31350000000E+07	-2.96151356908E+01	-8.96278853271E+01
2.33300000000E+07	-2.97436271134E+01	-8.94709919954E+01
2.35250000000E+07	-3.00708054907E+01	-8.94594290523E+01
2.37200000000E+07	-3.03042249818E+01	-8.76975592410E+01
2.39150000000E+07	-3.03946165866E+01	-8.66513719064E+01
2.41100000000E+07	-3.07043545804E+01	-8.67787785034E+01
2.43050000000E+07	-3.08835152858E+01	-8.65588744985E+01
2.45000000000E+07	-3.11042975218E+01	-8.50621620114E+01
2.46950000000E+07	-3.12752075789E+01	-8.51445089262E+01
2.48900000000E+07	-3.14577332818E+01	-8.38292384001E+01
2.50850000000E+07	-3.17575923679E+01	-8.32159711741E+01
2.52800000000E+07	-3.19070223903E+01	-8.22919004782E+01
2.54750000000E+07	-3.20665188664E+01	-8.17436461364E+01
2.56700000000E+07	-3.24378410323E+01	-8.05904703410E+01
2.58650000000E+07	-3.24738401396E+01	-7.92888407292E+01
2.60600000000E+07	-3.29017099444E+01	-7.65396355176E+01
2.62550000000E+07	-3.31834171066E+01	-7.68552003276E+01
2.64500000000E+07	-3.30143913753E+01	-7.62115543102E+01
2.66450000000E+07	-3.31912432473E+01	-7.34470774507E+01
2.68400000000E+07	-3.35149132825E+01	-7.23941460698E+01
2.70350000000E+07	-3.40430423148E+01	-7.31284493271E+01
2.72300000000E+07	-3.37326036604E+01	-6.98919746381E+01
2.74250000000E+07	-3.39516622433E+01	-6.72672370549E+01
2.76200000000E+07	-3.42700220381E+01	-6.75116253292E+01
2.78150000000E+07	-3.43977753007E+01	-6.52675438693E+01
2.80100000000E+07	-3.43118963878E+01	-6.32605751971E+01
2.82050000000E+07	-3.46205336510E+01	-6.08849301705E+01
2.84000000000E+07	-3.47256682411E+01	-5.98941052048E+01
2.85950000000E+07	-3.49557845599E+01	-5.76116038104E+01
2.87900000000E+07	-3.50821806431E+01	-5.58644894341E+01
2.89850000000E+07	-3.50360616323E+01	-5.65118307685E+01
2.91800000000E+07	-3.50653158531E+01	-5.31221314743E+01
2.93750000000E+07	-3.51708794194E+01	-5.18579769689E+01
2.95700000000E+07	-3.51669193758E+01	-4.88284719841E+01
2.97650000000E+07	-3.53612354230E+01	-4.84601924154E+01
2.99600000000E+07	-3.52723996448E+01	-4.56533483020E+01
3.01550000000E+07	-3.54985220831E+01	-4.43737452913E+01
3.03500000000E+07	-3.52709369932E+01	-4.19026616545E+01
3.05450000000E+07	-3.53387200842E+01	-3.92184446422E+01
3.07400000000E+07	-3.52255202393E+01	-3.85489563998E+01
3.09350000000E+07	-3.51828383756E+01	-3.57723619334E+01
3.11300000000E+07	-3.51768979073E+01	-3.37423325631E+01
3.13250000000E+07	-3.49911525263E+01	-3.28454490294E+01
3.15200000000E+07	-3.51658808032E+01	-3.12484460287E+01
3.17150000000E+07	-3.49437496521E+01	-2.93298914700E+01
3.19100000000E+07	-3.48042938671E+01	-2.90145456089E+01
3.21050000000E+07	-3.49869580690E+01	-2.78308796069E+01
3.23000000000E+07	-3.46131678969E+01	-2.64302529603E+01
3.24950000000E+07	-3.45476650411E+01	-2.57424337406E+01
3.26900000000E+07	-3.45531005813E+01	-2.23654171966E+01
3.28850000000E+07	-3.43486147476E+01	-2.06325477550E+01
3.30800000000E+07	-3.40637846157E+01	-2.15221420523E+01
3.32750000000E+07	-3.41522147725E+01	-2.11076094103E+01
3.34700000000E+07	-3.40356956171E+01	-1.87688346316E+01
3.36650000000E+07	-3.37913157564E+01	-1.74701294001E+01
3.38600000000E+07	-3.37546856879E+01	-1.77510852626E+01
3.40550000000E+07	-3.34612588065E+01	-1.52008413223E+01
3.42500000000E+07	-3.32987426773E+01	-1.60905646454E+01
3.44450000000E+07	-3.32555014280E+01	-1.44462597132E+01
3.46400000000E+07	-3.31214793293E+01	-1.47994796553E+01
3.48350000000E+07	-3.30155029006E+01	-1.26049884490E+01
3.50300000000E+07	-3.27332492331E+01	-1.32595710345E+01
3.52250000000E+07	-3.28250045928E+01	-1.17732326684E+01
3.54200000000E+07	-3.27124235618E+01	-1.11572165257E+01
3.56150000000E+07	-3.26336788883E+01	-1.11861726002E+01
3.58100000000E+07	-3.25274562066E+01	-1.22173427833E+01
3.60050000000E+07	-3.23896052762E+01	-1.01487373548E+01
3.62000000000E+07	-3.21670672923E+01	-9.14854924839E+00
3.63950000000E+07	-3.20895854712E+01	-9.87980945372E+00
3.65900000000E+07	-3.19279033137E+01	-8.70969662416E+00
3.67850000000E+07	-3.19482884361E+01	-9.30788160206E+00
3.69800000000E+07	-3.17943615206E+01	-9.04010642792E+00
3.71750000000E+07	-3.16217955628E+01	-7.95722632594E+00
3.73700000000E+07	-3.14058676906E+01	-8.44371926258E+00
3.75650000000E+07	-3.14978879408E+01	-8.34320363953E+00
3.77600000000E+07	-3.12796788242E+01	-8.00463820302E+00
3.79550000000E+07	-3.11792744033E+01	-7.59769312252E+00
3.81500000000E+07	-3.11057794471E+01	-6.88454204932E+00
3.83450000000E+07	-3.10572947159E+01	-7.71397634995E+00
3.85400000000E+07	-3.09082711252E+01	-6.82147501971E+00
3.87350000000E+07	-3.07627063221E+01	-6.40914969133E+00
3.89300000000E+07	-3.06161007839E+01	-7.43332922458E+00
3.91250000000E+07	-3.07008659232E+01	-6.67060350247E+00
3.93200000000E+07	-3.05401386552E+01	-6.63746643959E+00
3.95150000000E+07	-3.03750782527E+01	-6.76284043869E+00
3.97100000000E+07	-3.04139437648E+01	-7.28817992548E+00
3.99050000000E+07	-3.02856706873E+01	-6.25160167419E+00
4.01000000000E+07	-3.01098033501E+01	-7.04176685839E+00
4.02950000000E+07	-3.01746715739E+01	-6.80914055356E+00
4.04900000000E+07	-3.01076236374E+01	-6.84298697201E+00
4.06850000000E+07	-2.98667695143E+01	-7.17294040397E+00
4.08800000000E+07	-2.99924272093E+01	-7.04893698211E+00
4.10750000000E+07	-2.98805426430E+01	-7.53329866566E+00
4.12700000000E+07	-2.96288222842E+01	-8.17013582087E+00
4.14650000000E+07	-2.96981030042E+01	-7.51144147828E+00
4.16600000000E+07	-2.94677266150E+01	-6.99126544517E+00
4.18550000000E+07	-2.95049616935E+01	-7.97387770293E+00
4.20500000000E+07	-2.93753108744E+01	-7.87936197224E+00
4.22450000000E+07	-2.92764691338E+01	-7.51050455420E+00
4.24400000000E+07	-2.91542494872E+01	-8.08533243166E+00
4.26350000000E+07	-2.92494025797E+01	-7.69340006785E+00
4.28300000000E+07	-2.91998523765E+01	-8.63840692760E+00
4.30250000000E+07	-2.90357811283E+01	-7.76800250074E+00
4.32200000000E+07	-2.89180379188E+01	-8.53394321766E+00
4.34150000000E+07	-2.88058322536E+01	-8.37873816890E+00
4.36100000000E+07	-2.89303576598E+01	-9.38048010934E+00
4.38050000000E+07	-2.89467227297E+01	-8.79987373417E+00
4.40000000000E+07	-2.87583348616E+01	-9.96272758357E+00
4.41950000000E+07	-2.87273507118E+01	-9.71149805057E+00
4.43900000000E+07	-2.86194223218E+01	-9.86262938514E+00
4.45850000000E+07	-2.86243212866E+01	-9.88456961384E+00
4.47800000000E+07	-2.85908768696E+01	-1.00431629253E+01
4.49750000000E+07	-2.84912310969E+01	-1.01859962409E+01
4.51700000000E+07	-2.84519071695E+01	-1.12538071159E+01
4.53650000000E+07	-2.85040808486E+01	-1.12325220691E+01
4.55600000000E+07	-2.84372567144E+01	-1.09860851382E+01
4.57550000000E+07	-2.83801325841E+01	-1.17513796072E+01
4.59500000000E+07	-2.82575714672E+01	-1.18428270114E+01
4.61450000000E+07	-2.82987459820E+01	-1.23077807153E+01
4.63400000000E+07	-2.81918208816E+01	-1.22050176594E+01
4.65350000000E+07	-2.82811854163E+01	-1.27144896415E+01
4.67300000000E+07	-2.81818857785E+01	-1.19175151471E+01
4.69250000000E+07	-2.81047925184E+01	-1.29661012990E+01
4.71200000000E+07	-2.80959909808E+01	-1.38390440039E+01
4.73150000000E+07	-2.81678786802E+01	-1.36512469960E+01
4.75100000000E+07	-2.79604617511E+01	-1.39740547039E+01
4.77050000000E+07	-2.79099842445E+01	-1.43191526733E+01
4.79000000000E+07	-2.78851816126E+01	-1.41792529964E+01
4.80950000000E+07	-2.78812649246E+01	-1.56802877289E+01
4.82900000000E+07	-2.78977636864E+01	-1.50399725204E+01
4.84850000000E+07	-2.79794603477E+01	-1.59726747026E+01
4.86800000000E+07	-2.78400275711E+01	-1.57966328823E+01
4.88750000000E+07	-2.77483133893E+01	-1.60959124836E+01
4.90700000000E+07	-2.77174783899E+01	-1.70225440807E+01
4.92650000000E+07	-2.77669329555E+01	-1.74700084015E+01
4.94600000000E+07	-2.79109998621E+01	-1.80156031376E+01
4.96550000000E+07	-2.77333624006E+01	-1.76325358988E+01
4.98500000000E+07	-2.78478756063E+01	-1.82463472489E+01
5.00450000000E+07	-2.76373310957E+01	-1.87320904204E+01
5.02400000000E+07	-2.77374648384E+01	-1.88724330741E+01
5.04350000000E+07	-2.76597323273E+01	-1.89557766021E+01
5.06300000000E+07	-2.76080778631E+01	-1.92687027582E+01
5.08250000000E+07	-2.76434851134E+01	-1.99165654018E+01
5.10200000000E+07	-2.75508820928E+01	-2.01089371355E+01
5.12150000000E+07	-2.76049451588E+01	-2.07093300403E+01
5.14100000000E+07	-2.76434040985E+01	-2.12981289353E+01
5.16050000000E+07	-2.75524338489E+01	-2.15299925948E+01
5.18000000000E+07	-2.76008642094E+01	-2.23251303904E+01
5.19950000000E+07	-2.76671108910E+01	-2.27887158355E+01
5.21900000000E+07	-2.75387915964E+01	-2.30822174648E+01
5.23850000000E+07	-2.76152452391E+01	-2.28042759663E+01
5.25800000000E+07	-2.76350773214E+01	-2.34195317627E+01
5.27750000000E+07	-2.75250561993E+01	-2.40794079497E+01
5.29700000000E+07	-2.75408910367E+01	-2.46385447857E+01
5.31650000000E+07	-2.75572840184E+01	-2.54484681431E+01
5.33600000000E+07	-2.75855037496E+01	-2.55904930320E+01
5.35550000000E+07	-2.76749931094E+01	-2.54787149314E+01
5.37500000000E+07	-2.76051072580E+01	-2.63299347869E+01
5.39450000000E+07	-2.76004664314E+01	-2.64884412198E+01
5.41400000000E+07	-2.76242067193E+01	-2.70420736822E+01
5.43350000000E+07	-2.75740654451E+01	-2.76430594516E+01
5.45300000000E+07	-2.76747499780E+01	-2.87305732582E+01
5.47250000000E+07	-2.75937148748E+01	-2.87980345119E+01
5.49200000000E+07	-2.76638719397E+01	-2.90534547155E+01
5.51150000000E+07	-2.77024530294E+01	-2.95887406405E+01
5.53100000000E+07	-2.76639326254E+01	-3.00666378319E+01
5.55050000000E+07	-2.77320611083E+01	-2.99259816987E+01
5.57000000000E+07	-2.78054648154E+01	-3.12645786100E+01
5.58950000000E+07	-2.77609487189E+01	-3.12159252485E+01
5.60900000000E+07	-2.77417254482E+01	-3.21808869186E+01
5.62850000000E+07	-2.78397412249E+01	-3.18417287443E+01
5.64800000000E+07	-2.78199536164E+01	-3.29807926950E+01
5.66750000000E+07	-2.78330425331E+01	-3.29559071569E+01
5.68700000000E+07	-2.78355451228E+01	-3.35406677362E+01
5.70650000000E+07	-2.78068965906E+01	-3.45710293015E+01
5.72600000000E+07	-2.79440603419E+01	-3.45061085494E+01
5.74550000000E+07	-2.79106169890E+01	-3.53282477658E+01
5.76500000000E+07	-2.78776010734E+01	-3.56463273618E+01
5.78450000000E+07	-2.79465373947E+01	-3.57621974687E+01
5.80400000000E+07	-2.80297728953E+01	-3.68301973625E+01
5.82350000000E+07	-2.80656747427E+01	-3.72328634254E+01
5.84300000000E+07	-2.81349292759E+01	-3.81741433671E+01
5.86250000000E+07	-2.81692120292E+01	-3.82927023585E+01
5.88200000000E+07	-2.80855393021E+01	-3.89034833102E+01
5.90150000000E+07	-2.80765867898E+01	-3.92263961075E+01
5.92100000000E+07	-2.82700495957E+01	-3.96086029109E+01
5.94050000000E+07	-2.82391756051E+01	-4.09987500165E+01
5.96000000000E+07	-2.82445063587E+01	-4.04463107478E+01
5.97950000000E+07	-2.82741112858E+01	-4.14826755162E+01
5.99900000000E+07	-2.83774155519E+01	-4.14193514899E+01
6.01850000000E+07	-2.84154656334E+01	-4.24924795411E+01
6.03800000000E+07	-2.84201307280E+01	-4.34201112685E+01
6.05750000000E+07	-2.86228597916E+01	-4.31041052443E+01
6.07700000000E+07	-2.85080870187E+01	-4.47292773725E+01
6.09650000000E+07	-2.86237860130E+01	-4.47640727040E+01
6.11600000000E+07	-2.85625667476E+01	-4.55990739397E+01
6.13550000000E+07	-2.86834016151E+01	-4.58983450205E+01
6.15500000000E+07	-2.87520267564E+01	-4.65962331895E+01
6.17450000000E+07	-2.88269968723E+01	-4.63536206395E+01
6.19400000000E+07	-2.88881810115E+01	-4.73955256298E+01
6.21350000000E+07	-2.88741833042E+01	-4.85402348019E+01
6.23300000000E+07	-2.88489534707E+01	-4.88245878043E+01
6.25250000000E+07	-2.89787013647E+01	-4.96292238314E+01
6.27200000000E+07	-2.89989527148E+01	-4.97274065694E+01
6.29150000000E+07	-2.90698466527E+01	-5.04443814136E+01
6.31100000000E+07	-2.91086384811E+01	-5.19816380129E+01
6.33050000000E+07	-2.91849541476E+01	-5.13010421697E+01
6.35000000000E+07	-2.92992967411E+01	-5.26384757490E+01
6.36950000000E+07	-2.93264996814E+01	-5.25943558356E+01
6.38900000000E+07	-2.94259100935E+01	-5.38933963963E+01
6.40850000000E+07	-2.94828968519E+01	-5.48168677875E+01
6.42800000000E+07	-2.95885773880E+01	-5.41749822801E+01
6.44750000000E+07	-2.96454826941E+01	-5.47884810143E+01
6.46700000000E+07	-2.97413222755E+01	-5.60414146635E+01
6.48650000000E+07	-2.97759070595E+01	-5.73289967291E+01
6.50600000000E+07	-2.97670186522E+01	-5.73634206401E+01
6.52550000000E+07	-3.00068056598E+01	-5.86831635126E+01
6.54500000000E+07	-2.99531631884E+01	-5.94974434074E+01
6.56450000000E+07	-2.99638253739E+01	-5.93047399700E+01
6.58400000000E+07	-3.00613324109E+01	-6.09125378960E+01
6.60350000000E+07	-3.01778803185E+01	-6.12670350213E+01
6.62300000000E+07	-3.04160664896E+01	-6.23439815161E+01
6.64250000000E+07	-3.02466957760E+01	-6.31334579970E+01
6.66200000000E+07	-3.04247344817E+01	-6.30231530181E+01
6.68150000000E+07	-3.05995094925E+01	-6.39749609058E+01
6.70100000000E+07	-3.05806689339E+01	-6.52131663018E+01
6.72050000000E+07	-3.05808635845E+01	-6.61635554511E+01
6.74000000000E+07	-3.07891166165E+01	-6.67829861363E+01
6.75950000000E+07	-3.08380598146E+01	-6.76713076312E+01
6.77900000000E+07	-3.09893050326E+01	-6.98158496919E+01
6.79850000000E+07	-3.10324477337E+01	-6.97974590738E+01
6.81800000000E+07	-3.11330681889E+01	-6.97200586413E+01
6.83750000000E+07	-3.11741622174E+01	-7.07572399885E+01
6.85700000000E+07	-3.14217513024E+01	-7.31993889936E+01
6.87650000000E+07	-3.14694437010E+01	-7.26889612513E+01
6.89600000000E+07	-3.14094694794E+01	-7.36223400563E+01
6.91550000000E+07	-3.16189075814E+01	-7.55819414636E+01
6.93500000000E+07	-3.17223613380E+01	-7.58599891510E+01
6.95450000000E+07	-3.15891173338E+01	-7.61590171506E+01
6.97400000000E+07	-3.18421264835E+01	-7.82341454053E+01
6.99350000000E+07	-3.19845650916E+01	-7.93451392360E+01
7.01300000000E+07	-3.21183468745E+01	-7.94047042321E+01
7.03250000000E+07	-3.22622699714E+01	-8.11056645063E+01
7.05200000000E+07	-3.22014447776E+01	-8.22213395425E+01
7.07150000000E+07	-3.25084683596E+01	-8.26562043642E+01
7.09100000000E+07	-3.25289689821E+01	-8.43435794691E+01
7.11050000000E+07	-3.26131487758E+01	-8.52555786887E+01
7.13000000000E+07	-3.28631387269E+01	-8.62956008878E+01
7.14950000000E+07	-3.28982974887E+01	-8.74596107195E+01
7.16900000000E+07	-3.32256509321E+01	-8.94947609903E+01
7.18850000000E+07	-3.31982809911E+01	-9.02190861804E+01
7.20800000000E+07	-3.33107668113E+01	-9.11726223197E+01
7.22750000000E+07	-3.33877088483E+01	-9.27525301025E+01
7.24700000000E+07	-3.36150854603E+01	-9.47546431065E+01
7.26650000000E+07	-3.36409779054E+01	-9.61897469970E+01
