# Hz S DB R 50
! CMT, M5045, 22160017, 22.4.3/2
! Date: 1/21/2023 20:40:33
! Data: Format (Calibration Info)
! Freq	S11:dB/Ang(F1)
5.00000000000E+06	-9.99160335282E+00	-7.44416862828E+01
5.19500000000E+06	-1.03471570888E+01	-7.52336107714E+01
5.39000000000E+06	-1.06681895833E+01	-7.60746354270E+01
5.58500000000E+06	-1.10379068649E+01	-7.67720907390E+01
5.78000000000E+06	-1.13549672962E+01	-7.73060208259E+01
5.97500000000E+06	-1.17074112087E+01	-7.80897575194E+01
6.17000000000E+06	-1.19792208552E+01	-7.86177070432E+01
6.36500000000E+06	-1.22712616478E+01	-7.92905662607E+01
6.56000000000E+06	-1.25794159871E+01	-7.96906823064E+01
6.75500000000E+06	-1.28902125738E+01	-8.01282690947E+01
6.95000000000E+06	-1.31311582848E+01	-8.06720455075E+01
7.14500000000E+06	-1.34188953992E+01	-8.10978123218E+01
7.34000000000E+06	-1.36832085342E+01	-8.12548231422E+01
7.53500000000E+06	-1.39287269758E+01	-8.15296684056E+01
7.73000000000E+06	-1.42088326055E+01	-8.20553867612E+01
7.92500000000E+06	-1.44716874887E+01	-8.24247206150E+01
8.12000000000E+06	-1.47277189361E+01	-8.25556358391E+01
8.31500000000E+06	-1.49933073062E+01	-8.30919478141E+01
8.51000000000E+06	-1.52337775808E+01	-8.32069567293E+01
8.70500000000E+06	-1.54926008960E+01	-8.35607253637E+01
8.90000000000E+06	-1.56891697970E+01	-8.37567188634E+01
9.09500000000E+06	-1.59058792628E+01	-8.41755075105E+01
9.29000000000E+06	-1.61424571066E+01	-8.44236645158E+01
9.48500000000E+06	-1.63882514385E+01	-8.42643538090E+01
9.68000000000E+06	-1.66323720438E+01	-8.47770953650E+01
9.87500000000E+06	-1.68686197589E+01	-8.48742941556E+01
1.00700000000E+07	-1.71072276104E+01	-8.49892327313E+01
1.02650000000E+07	-1.72817063515E+01	-8.52780482288E+01
1.04600000000E+07	-1.74955050043E+01	-8.53326023631E+01
1.06550000000E+07	-1.77183244325E+01	-8.51997156355E+01
1.08500000000E+07	-1.79633209109E+01	-8.56070048457E+01
1.10450000000E+07	-1.81557102958E+01	-8.57295889948E+01
1.12400000000E+07	-1.83669098238E+01	-8.58644110532E+01
1.14350000000E+07	-1.85756281989E+01	-8.62097220410E+01
1.16300000000E+07	-1.87613301824E+01	-8.64386418695E+01
1.18250000000E+07	-1.89725347719E+01	-8.65193319175E+01
1.20200000000E+07	-1.91940534562E+01	-8.63701054041E+01
1.22150000000E+07	-1.93845782353E+01	-8.67202667040E+01
1.24100000000E+07	-1.95722179758E+01	-8.64608370652E+01
1.26050000000E+07	-1.97694156513E+01	-8.66657483687E+01
1.28000000000E+07	-2.00479693735E+01	-8.68573162379E+01
1.29950000000E+07	-2.01677125307E+01	-8.70481173287E+01
1.31900000000E+07	-2.03923251653E+01	-8.69931974636E+01
1.33850000000E+07	-2.05944592882E+01	-8.71187178018E+01
1.35800000000E+07	-2.08230115469E+01	-8.63587405646E+01
1.37750000000E+07	-2.10219628298E+01	-8.66042653075E+01
1.39700000000E+07	-2.12140032775E+01	-8.67119731869E+01
1.41650000000E+07	-2.14277504601E+01	-8.64161282484E+01
1.43600000000E+07	-2.16681771157E+01	-8.68467530625E+01
1.45550000000E+07	-2.18602162983E+01	-8.69265014597E+01
1.47500000000E+07	-2.20799823199E+01	-8.64097007619E+01
1.49450000000E+07	-2.22712887691E+01	-8.62856301709E+01
1.51400000000E+07	-2.24550154029E+01	-8.61634240894E+01
1.53350000000E+07	-2.26270029471E+01	-8.64140961604E+01
1.55300000000E+07	-2.28775253710E+01	-8.60661223994E+01
1.57250000000E+07	-2.30536051035E+01	-8.58894446424E+01
1.59200000000E+07	-2.32535931887E+01	-8.60519256597E+01
1.61150000000E+07	-2.34392590017E+01	-8.47167616700E+01
1.63100000000E+07	-2.36275256491E+01	-8.51616117612E+01
1.65050000000E+07	-2.39092909318E+01	-8.47196718341E+01
1.67000000000E+07	-2.40739646460E+01	-8.44818395784E+01
1.68950000000E+07	-2.42913063660E+01	-8.37281688781E+01
1.70900000000E+07	-2.45274953586E+01	-8.36323788574E+01
1.72850000000E+07	-2.46990369624E+01	-8.31676801382E+01
1.74800000000E+07	-2.49160251540E+01	-8.28901111385E+01
1.76750000000E+07	-2.50489073399E+01	-8.24704332699E+01
1.78700000000E+07	-2.52762023964E+01	-8.23383675850E+01
1.80650000000E+07	-2.54451084992E+01	-8.19952416842E+01
1.82600000000E+07	-2.56712680156E+01	-8.10973583177E+01
1.84550000000E+07	-2.57766098338E+01	-8.11311150853E+01
1.86500000000E+07	-2.60452349440E+01	-7.97741729267E+01
1.88450000000E+07	-2.62332951916E+01	-7.96456531968E+01
1.90400000000E+07	-2.64435550870E+01	-7.91591848877E+01
1.92350000000E+07	-2.66171181177E+01	-7.80413899857E+01
1.94300000000E+07	-2.68857509264E+01	-7.81230089159E+01
1.96250000000E+07	-2.70661051948E+01	-7.67426383452E+01
1.98200000000E+07	-2.71740027537E+01	-7.59133994462E+01
2.00150000000E+07	-2.75050588560E+01	-7.54999208434E+01
2.02100000000E+07	-2.76646134244E+01	-7.40474252097E+01
2.04050000000E+07	-2.77767271361E+01	-7.38223909668E+01
2.06000000000E+07	-2.80964361341E+01	-7.27426334094E+01
2.07950000000E+07	-2.80905167647E+01	-7.16212102817E+01
2.09900000000E+07	-2.83410618320E+01	-7.05632305428E+01
2.11850000000E+07	-2.84960400575E+01	-6.99319955969E+01
2.13800000000E+07	-2.86915409649E+01	-6.86700386183E+01
2.15750000000E+07	-2.89261411325E+01	-6.86549016757E+01
2.17700000000E+07	-2.89846768392E+01	-6.60865907089E+01
2.19650000000E+07	-2.91817534805E+01	-6.54707982160E+01
2.21600000000E+07	-2.93551744759E+01	-6.46202348562E+01
2.23550000000E+07	-2.94854196318E+01	-6.35990515330E+01
2.25500000000E+07	-2.96582632144E+01	-6.17212851894E+01
2.27450000000E+07	-2.98700168933E+01	-5.94721287080E+01
2.29400000000E+07	-2.99199519765E+01	-5.80616499384E+01
2.31350000000E+07	-2.99264949231E+01	-5.70548713776E+01
2.33300000000E+07	-3.00892769242E+01	-5.52881010201E+01
2.35250000000E+07	-3.02572705327E+01	-5.51560256238E+01
2.37200000000E+07	-3.03649946845E+01	-5.35552790156E+01
2.39150000000E+07	-3.03462963630E+01	-5.23108856095E+01
2.41100000000E+07	-3.03525208276E+01	-5.04180417726E+01
2.43050000000E+07	-3.04936995307E+01	-4.89834728406E+01
2.45000000000E+07	-3.05963258352E+01	-4.71813884837E+01
2.46950000000E+07	-3.07734932212E+01	-4.50048255699E+01
2.48900000000E+07	-3.04567083399E+01	-4.47436812638E+01
2.50850000000E+07	-3.06702464192E+01	-4.26258055725E+01
2.52800000000E+07	-3.08164577153E+01	-4.21344426781E+01
2.54750000000E+07	-3.06035269769E+01	-4.04380868307E+01
2.56700000000E+07	-3.06594598143E+01	-3.93309476105E+01
2.58650000000E+07	-3.06858647837E+01	-3.70444233380E+01
2.60600000000E+07	-3.06706726842E+01	-3.57045298988E+01
2.62550000000E+07	-3.07845208729E+01	-3.39139854580E+01
2.64500000000E+07	-3.05345383326E+01	-3.25143313003E+01
2.66450000000E+07	-3.04872018701E+01	-3.17440105628E+01
2.68400000000E+07	-3.04070832368E+01	-2.96717821031E+01
2.70350000000E+07	-3.03962501517E+01	-2.82495021505E+01
2.72300000000E+07	-3.03391790479E+01	-2.85401262882E+01
2.74250000000E+07	-3.03680951410E+01	-2.61526038389E+01
2.76200000000E+07	-3.02626528035E+01	-2.57450968277E+01
2.78150000000E+07	-3.00475313528E+01	-2.40940740193E+01
2.80100000000E+07	-2.99465455433E+01	-2.38629343716E+01
2.82050000000E+07	-2.99719646625E+01	-2.23562034579E+01
2.84000000000E+07	-2.99588597645E+01	-2.14365824592E+01
2.85950000000E+07	-2.98631238422E+01	-2.05655972207E+01
2.87900000000E+07	-2.96807962901E+01	-1.88933911656E+01
2.89850000000E+07	-2.97495991045E+01	-1.81307973871E+01
2.91800000000E+07	-2.95780380303E+01	-1.81284199055E+01
2.93750000000E+07	-2.94296180403E+01	-1.68410826986E+01
2.95700000000E+07	-2.93754113292E+01	-1.52570740733E+01
2.97650000000E+07	-2.91264648222E+01	-1.52091239141E+01
2.99600000000E+07	-2.90423874025E+01	-1.51376537447E+01
3.01550000000E+07	-2.89842932993E+01	-1.49526481293E+01
3.03500000000E+07	-2.89731914149E+01	-1.38997471212E+01
3.05450000000E+07	-2.87199300477E+01	-1.31366955835E+01
3.07400000000E+07	-2.87021510590E+01	-1.24526836107E+01
3.09350000000E+07	-2.86158006932E+01	-1.10564679223E+01
3.11300000000E+07	-2.84113764867E+01	-1.17574478614E+01
3.13250000000E+07	-2.82973051259E+01	-1.05563475321E+01
3.15200000000E+07	-2.82440113556E+01	-1.01792927497E+01
3.17150000000E+07	-2.81633633424E+01	-9.54465354701E+00
3.19100000000E+07	-2.80399919861E+01	-1.00799938076E+01
3.21050000000E+07	-2.79299742830E+01	-8.97736828403E+00
3.23000000000E+07	-2.78259274071E+01	-9.23125358152E+00
3.24950000000E+07	-2.76111558806E+01	-9.15833301381E+00
3.26900000000E+07	-2.77040949504E+01	-8.74296070312E+00
3.28850000000E+07	-2.74716223174E+01	-8.71497384790E+00
3.30800000000E+07	-2.73584028975E+01	-8.42172912867E+00
3.32750000000E+07	-2.73570953417E+01	-7.64068396556E+00
3.34700000000E+07	-2.71569582188E+01	-7.64414659156E+00
3.36650000000E+07	-2.71344253128E+01	-7.56432577051E+00
3.38600000000E+07	-2.71465497606E+01	-7.46123140001E+00
3.40550000000E+07	-2.68771257836E+01	-7.39122054884E+00
3.42500000000E+07	-2.68373475032E+01	-7.43847384261E+00
3.44450000000E+07	-2.66915953012E+01	-7.44171701653E+00
3.46400000000E+07	-2.66050539184E+01	-6.87051846351E+00
3.48350000000E+07	-2.66067009493E+01	-6.16022612906E+00
3.50300000000E+07	-2.64995139938E+01	-7.63078586171E+00
3.52250000000E+07	-2.64181310959E+01	-6.97892290949E+00
3.54200000000E+07	-2.63467359190E+01	-6.69932348587E+00
3.56150000000E+07	-2.63308685917E+01	-6.71055638197E+00
3.58100000000E+07	-2.61747995825E+01	-7.13783979132E+00
3.60050000000E+07	-2.60113405784E+01	-6.92981437635E+00
3.62000000000E+07	-2.59227341421E+01	-6.87617676281E+00
3.63950000000E+07	-2.59328936295E+01	-7.08945148627E+00
3.65900000000E+07	-2.59147856708E+01	-7.73309797942E+00
3.67850000000E+07	-2.57959634775E+01	-6.94211254481E+00
3.69800000000E+07	-2.57726335946E+01	-6.87796985431E+00
3.71750000000E+07	-2.56523919064E+01	-6.95218431667E+00
3.73700000000E+07	-2.55909634913E+01	-7.09157526338E+00
3.75650000000E+07	-2.54213906880E+01	-7.26934957443E+00
3.77600000000E+07	-2.54264763938E+01	-7.63062549719E+00
3.79550000000E+07	-2.53050780346E+01	-7.39886199286E+00
3.81500000000E+07	-2.53130077031E+01	-7.66078328991E+00
3.83450000000E+07	-2.52312608841E+01	-7.14057870917E+00
3.85400000000E+07	-2.51882991801E+01	-8.08758918368E+00
3.87350000000E+07	-2.50541143148E+01	-7.90870935699E+00
3.89300000000E+07	-2.50630219544E+01	-8.14551741149E+00
3.91250000000E+07	-2.49411387343E+01	-8.24945646303E+00
3.93200000000E+07	-2.49084747665E+01	-8.79519162962E+00
3.95150000000E+07	-2.48706877808E+01	-8.60215812141E+00
3.97100000000E+07	-2.47398816710E+01	-8.69296823766E+00
3.99050000000E+07	-2.47323620118E+01	-8.86608269816E+00
4.01000000000E+07	-2.46290124908E+01	-9.12043974108E+00
4.02950000000E+07	-2.45327218827E+01	-9.06647994705E+00
4.04900000000E+07	-2.45911207814E+01	-9.54318129252E+00
4.06850000000E+07	-2.45416024200E+01	-9.77231636937E+00
4.08800000000E+07	-2.44300056361E+01	-1.04721311603E+01
4.10750000000E+07	-2.44323354540E+01	-1.00174737529E+01
4.12700000000E+07	-2.43714929770E+01	-1.00627053296E+01
4.14650000000E+07	-2.42844331048E+01	-9.94821463801E+00
4.16600000000E+07	-2.42381438973E+01	-1.07719150396E+01
4.18550000000E+07	-2.41340309038E+01	-1.08987395577E+01
4.20500000000E+07	-2.41082295606E+01	-1.12097609152E+01
4.22450000000E+07	-2.41572396395E+01	-1.11927458671E+01
4.24400000000E+07	-2.40309868173E+01	-1.13043847087E+01
4.26350000000E+07	-2.40163421490E+01	-1.17399558352E+01
4.28300000000E+07	-2.39978792373E+01	-1.18882628186E+01
4.30250000000E+07	-2.39748551313E+01	-1.18186382464E+01
4.32200000000E+07	-2.39364955419E+01	-1.18383992134E+01
4.34150000000E+07	-2.38525126346E+01	-1.24738997771E+01
4.36100000000E+07	-2.37460691726E+01	-1.31184705258E+01
4.38050000000E+07	-2.37772172067E+01	-1.33768792343E+01
4.40000000000E+07	-2.37274253777E+01	-1.35795240839E+01
4.41950000000E+07	-2.36363377604E+01	-1.34450154126E+01
4.43900000000E+07	-2.36587063914E+01	-1.35888529782E+01
4.45850000000E+07	-2.35737166062E+01	-1.40971866055E+01
4.47800000000E+07	-2.34640076341E+01	-1.37972457933E+01
4.49750000000E+07	-2.34986947837E+01	-1.44305855740E+01
4.51700000000E+07	-2.34513490921E+01	-1.46777125730E+01
4.53650000000E+07	-2.34429794181E+01	-1.50886292016E+01
4.55600000000E+07	-2.33675987108E+01	-1.56612521777E+01
4.57550000000E+07	-2.33771839832E+01	-1.55271808185E+01
4.59500000000E+07	-2.33345642629E+01	-1.60713854033E+01
4.61450000000E+07	-2.32692614590E+01	-1.65233529022E+01
4.63400000000E+07	-2.33068653288E+01	-1.68083555405E+01
4.65350000000E+07	-2.32701625189E+01	-1.67873856846E+01
4.67300000000E+07	-2.32118552237E+01	-1.71690768939E+01
4.69250000000E+07	-2.31375564903E+01	-1.74837515507E+01
4.71200000000E+07	-2.31078728707E+01	-1.77882711084E+01
4.73150000000E+07	-2.31096926696E+01	-1.84774207782E+01
4.75100000000E+07	-2.30521210686E+01	-1.82901412970E+01
4.77050000000E+07	-2.30461928188E+01	-1.91235141212E+01
4.79000000000E+07	-2.29856077873E+01	-1.88198514720E+01
4.80950000000E+07	-2.29594652786E+01	-1.93067796229E+01
4.82900000000E+07	-2.30148743485E+01	-1.98053512999E+01
4.84850000000E+07	-2.29194773382E+01	-1.99245290392E+01
4.86800000000E+07	-2.29088384742E+01	-2.02190683686E+01
4.88750000000E+07	-2.28949691726E+01	-2.08049876378E+01
4.90700000000E+07	-2.27948753543E+01	-2.11300930972E+01
4.92650000000E+07	-2.28248501278E+01	-2.14288565430E+01
4.94600000000E+07	-2.28202455681E+01	-2.17051030833E+01
4.96550000000E+07	-2.27283221761E+01	-2.19162158723E+01
4.98500000000E+07	-2.27310821484E+01	-2.25373816369E+01
5.00450000000E+07	-2.27092567174E+01	-2.25083060110E+01
5.02400000000E+07	-2.27178532451E+01	-2.29775861091E+01
5.04350000000E+07	-2.27112353315E+01	-2.32821532566E+01
5.06300000000E+07	-2.27241437146E+01	-2.36470571096E+01
5.08250000000E+07	-2.25870293662E+01	-2.40687285945E+01
5.10200000000E+07	-2.25906934642E+01	-2.46015275623E+01
5.12150000000E+07	-2.26086431056E+01	-2.47682171319E+01
5.14100000000E+07	-2.25696768185E+01	-2.54963439114E+01
5.16050000000E+07	-2.25621661923E+01	-2.55632352041E+01
5.18000000000E+07	-2.25123999470E+01	-2.65549295495E+01
5.19950000000E+07	-2.25454825428E+01	-2.64979181920E+01
5.21900000000E+07	-2.24217078401E+01	-2.65916555104E+01
5.23850000000E+07	-2.24739032243E+01	-2.74392739843E+01
5.25800000000E+07	-2.25171669792E+01	-2.74441453324E+01
5.27750000000E+07	-2.24388286416E+01	-2.79376711829E+01
5.29700000000E+07	-2.24299076355E+01	-2.81695555625E+01
5.31650000000E+07	-2.23890883029E+01	-2.87835909761E+01
5.33600000000E+07	-2.23912671326E+01	-2.88225885595E+01
5.35550000000E+07	-2.24050197376E+01	-2.90930929254E+01
5.37500000000E+07	-2.24165753928E+01	-2.99975932462E+01
5.39450000000E+07	-2.23707340136E+01	-3.04594143599E+01
5.41400000000E+07	-2.23626386081E+01	-3.07330018608E+01
5.43350000000E+07	-2.23998340870E+01	-3.10572601145E+01
5.45300000000E+07	-2.23460291217E+01	-3.16786330682E+01
5.47250000000E+07	-2.23378784036E+01	-3.23628898098E+01
5.49200000000E+07	-2.23660345363E+01	-3.17723505077E+01
5.51150000000E+07	-2.22834908050E+01	-3.26703856862E+01
5.53100000000E+07	-2.22915827298E+01	-3.31232806603E+01
5.55050000000E+07	-2.23243753148E+01	-3.35993031799E+01
5.57000000000E+07	-2.22937601177E+01	-3.37423097059E+01
5.58950000000E+07	-2.22855359616E+01	-3.42399016353E+01
5.60900000000E+07	-2.22662431199E+01	-3.43814416813E+01
5.62850000000E+07	-2.22368899274E+01	-3.49826331383E+01
5.64800000000E+07	-2.22966100074E+01	-3.56434900311E+01
5.66750000000E+07	-2.22787615106E+01	-3.58719473430E+01
5.68700000000E+07	-2.22990156980E+01	-3.62438741079E+01
5.70650000000E+07	-2.21780178059E+01	-3.64661982327E+01
5.72600000000E+07	-2.22235363651E+01	-3.73580675284E+01
5.74550000000E+07	-2.22293529355E+01	-3.76446748913E+01
5.76500000000E+07	-2.22515136132E+01	-3.75770832787E+01
5.78450000000E+07	-2.22675670344E+01	-3.84022476637E+01
5.80400000000E+07	-2.22292022104E+01	-3.86819880313E+01
5.82350000000E+07	-2.22182617296E+01	-3.92043641195E+01
5.84300000000E+07	-2.22277316849E+01	-4.00088646252E+01
5.86250000000E+07	-2.22093069250E+01	-4.01510485840E+01
5.88200000000E+07	-2.22147059965E+01	-4.06533862746E+01
5.90150000000E+07	-2.21979172514E+01	-4.17633253536E+01
5.92100000000E+07	-2.22193761706E+01	-4.13175120131E+01
5.94050000000E+07	-2.21897294487E+01	-4.16709789842E+01
5.96000000000E+07	-2.22334379432E+01	-4.23908840615E+01
5.97950000000E+07	-2.21783276241E+01	-4.29269025552E+01
5.99900000000E+07	-2.21795572069E+01	-4.30699112396E+01
6.01850000000E+07	-2.22560952223E+01	-4.37015962534E+01
6.03800000000E+07	-2.22192292657E+01	-4.44316522198E+01
6.05750000000E+07	-2.22183231120E+01	-4.42593243680E+01
6.07700000000E+07	-2.22761239776E+01	-4.53672356337E+01
6.09650000000E+07	-2.22642047919E+01	-4.58655502679E+01
6.11600000000E+07	-2.22556075124E+01	-4.64756295518E+01
6.13550000000E+07	-2.22401051080E+01	-4.62763176832E+01
6.15500000000E+07	-2.22705074991E+01	-4.71171351195E+01
6.17450000000E+07	-2.22555960430E+01	-4.76443912604E+01
6.19400000000E+07	-2.22508219050E+01	-4.81073958655E+01
6.21350000000E+07	-2.22660412476E+01	-4.83497757711E+01
6.23300000000E+07	-2.22382025612E+01	-4.89107834733E+01
6.25250000000E+07	-2.22451083392E+01	-4.93276933028E+01
6.27200000000E+07	-2.22612728246E+01	-4.99928613042E+01
6.29150000000E+07	-2.23038247612E+01	-5.03276513508E+01
6.31100000000E+07	-2.22756425550E+01	-5.05703415814E+01
6.33050000000E+07	-2.22890005342E+01	-5.16187190763E+01
6.35000000000E+07	-2.22734238508E+01	-5.16894158742E+01
6.36950000000E+07	-2.23406840051E+01	-5.23742985945E+01
6.38900000000E+07	-2.23989969300E+01	-5.28546167117E+01
6.40850000000E+07	-2.22746870219E+01	-5.27556991238E+01
6.42800000000E+07	-2.23414896328E+01	-5.37695699951E+01
6.44750000000E+07	-2.23682381976E+01	-5.38971154547E+01
6.46700000000E+07	-2.24100360232E+01	-5.48661936296E+01
6.48650000000E+07	-2.24200113534E+01	-5.47124042662E+01
6.50600000000E+07	-2.24120240088E+01	-5.54743794668E+01
6.52550000000E+07	-2.23938403765E+01	-5.59197977046E+01
6.54500000000E+07	-2.24220209606E+01	-5.65324717015E+01
6.56450000000E+07	-2.25104394193E+01	-5.74784755545E+01
6.58400000000E+07	-2.24969022207E+01	-5.78761820086E+01
6.60350000000E+07	-2.25003824468E+01	-5.82991259079E+01
6.62300000000E+07	-2.24600008482E+01	-5.85346179840E+01
6.64250000000E+07	-2.24866861987E+01	-5.91912495291E+01
6.66200000000E+07	-2.25182566962E+01	-5.98184205275E+01
6.68150000000E+07	-2.25151349964E+01	-6.04045042902E+01
6.70100000000E+07	-2.25699701504E+01	-6.05519095771E+01
6.72050000000E+07	-2.24931542234E+01	-6.09181895434E+01
6.74000000000E+07	-2.25705108857E+01	-6.17735709499E+01
6.75950000000E+07	-2.25936345409E+01	-6.22684763564E+01
6.77900000000E+07	-2.26203349985E+01	-6.28556409534E+01
6.79850000000E+07	-2.26386921983E+01	-6.33239393014E+01
6.81800000000E+07	-2.26113921107E+01	-6.37971494606E+01
6.83750000000E+07	-2.26447777605E+01	-6.44198390426E+01
6.85700000000E+07	-2.26327088428E+01	-6.49971119903E+01
6.87650000000E+07	-2.27335380581E+01	-6.54090734860E+01
6.89600000000E+07	-2.27095617757E+01	-6.61438114495E+01
6.91550000000E+07	-2.27028802111E+01	-6.64402530383E+01
6.93500000000E+07	-2.27504154997E+01	-6.75144192335E+01
6.95450000000E+07	-2.27660288899E+01	-6.75682201764E+01
6.97400000000E+07	-2.27261270487E+01	-6.77796897326E+01
6.99350000000E+07	-2.27814203462E+01	-6.86125481768E+01
7.01300000000E+07	-2.27591817386E+01	-6.94367714851E+01
7.03250000000E+07	-2.28158645899E+01	-6.98004223339E+01
7.05200000000E+07	-2.28432759177E+01	-7.04481360320E+01
7.07150000000E+07	-2.28839321912E+01	-7.07830498952E+01
7.09100000000E+07	-2.28978853598E+01	-7.13629215666E+01
7.11050000000E+07	-2.29357697386E+01	-7.20946319586E+01
7.13000000000E+07	-2.29038927900E+01	-7.23604412696E+01
7.14950000000E+07	-2.29386715771E+01	-7.28579613659E+01
7.16900000000E+07	-2.29075313266E+01	-7.37811206072E+01
7.18850000000E+07	-2.30398214830E+01	-7.40024722083E+01
7.20800000000E+07	-2.30563116698E+01	-7.45352625377E+01
7.22750000000E+07	-2.30071445410E+01	-7.55389424390E+01
7.24700000000E+07	-2.30316940762E+01	-7.60469264909E+01
7.26650000000E+07	-2.30744555375E+01	-7.65127625513E+01
