# Hz S DB R 50
! CMT, M5045, 22160017, 22.4.3/2
! Date: 1/21/2023 20:01:46
! Data: Format (Calibration Info)
! Freq	S11:dB/Ang(F1)
5.00000000000E+06	-9.94916124411E+00	-7.67734897689E+01
5.19500000000E+06	-1.02950720461E+01	-7.77032884798E+01
5.39000000000E+06	-1.06660489032E+01	-7.86473077260E+01
5.58500000000E+06	-1.10057531740E+01	-7.93833189391E+01
5.78000000000E+06	-1.13001426454E+01	-8.03658331796E+01
5.97500000000E+06	-1.16264309390E+01	-8.10047501740E+01
6.17000000000E+06	-1.19549740694E+01	-8.16305340158E+01
6.36500000000E+06	-1.22537748217E+01	-8.23906995869E+01
6.56000000000E+06	-1.25510782639E+01	-8.28393662002E+01
6.75500000000E+06	-1.28124746711E+01	-8.34801096640E+01
6.95000000000E+06	-1.31121838849E+01	-8.39805042869E+01
7.14500000000E+06	-1.33939917560E+01	-8.46701561668E+01
7.34000000000E+06	-1.36650202982E+01	-8.51021982747E+01
7.53500000000E+06	-1.39152819805E+01	-8.57829496159E+01
7.73000000000E+06	-1.41927682864E+01	-8.58824236659E+01
7.92500000000E+06	-1.44771196164E+01	-8.64599256765E+01
8.12000000000E+06	-1.46835860191E+01	-8.70135359789E+01
8.31500000000E+06	-1.49288970312E+01	-8.74837365138E+01
8.51000000000E+06	-1.52014613475E+01	-8.77212885554E+01
8.70500000000E+06	-1.54231460188E+01	-8.81545290688E+01
8.90000000000E+06	-1.56661166925E+01	-8.86026524816E+01
9.09500000000E+06	-1.58984316653E+01	-8.87767439910E+01
9.29000000000E+06	-1.61761954986E+01	-8.91156571683E+01
9.48500000000E+06	-1.64140611892E+01	-8.97951775874E+01
9.68000000000E+06	-1.66255607779E+01	-8.97634799158E+01
9.87500000000E+06	-1.68677301460E+01	-9.02127587281E+01
1.00700000000E+07	-1.70934105958E+01	-9.05437464943E+01
1.02650000000E+07	-1.72682255805E+01	-9.09767281441E+01
1.04600000000E+07	-1.75156229940E+01	-9.13618304490E+01
1.06550000000E+07	-1.77302777279E+01	-9.17382531939E+01
1.08500000000E+07	-1.79703543741E+01	-9.22064940475E+01
1.10450000000E+07	-1.81937945021E+01	-9.26365597265E+01
1.12400000000E+07	-1.83831623367E+01	-9.24324466540E+01
1.14350000000E+07	-1.86247840113E+01	-9.29453975309E+01
1.16300000000E+07	-1.88514589439E+01	-9.35931825644E+01
1.18250000000E+07	-1.90284140345E+01	-9.35542719293E+01
1.20200000000E+07	-1.92498777362E+01	-9.40395947317E+01
1.22150000000E+07	-1.94867236279E+01	-9.38562430855E+01
1.24100000000E+07	-1.96298145908E+01	-9.43928702764E+01
1.26050000000E+07	-1.99430537738E+01	-9.46963563002E+01
1.28000000000E+07	-2.01183205319E+01	-9.46452560317E+01
1.29950000000E+07	-2.03207662742E+01	-9.50693982793E+01
1.31900000000E+07	-2.05685987755E+01	-9.52394707571E+01
1.33850000000E+07	-2.07312516855E+01	-9.55626807143E+01
1.35800000000E+07	-2.09987752915E+01	-9.56443832452E+01
1.37750000000E+07	-2.11585649117E+01	-9.58818127161E+01
1.39700000000E+07	-2.14564713004E+01	-9.63576326644E+01
1.41650000000E+07	-2.15897948665E+01	-9.58839727072E+01
1.43600000000E+07	-2.18388045799E+01	-9.60537637501E+01
1.45550000000E+07	-2.20875164470E+01	-9.64462291476E+01
1.47500000000E+07	-2.22946051595E+01	-9.60908331709E+01
1.49450000000E+07	-2.24979897606E+01	-9.67675684644E+01
1.51400000000E+07	-2.27455936633E+01	-9.67477820210E+01
1.53350000000E+07	-2.29656326854E+01	-9.68502111938E+01
1.55300000000E+07	-2.31020729631E+01	-9.71751323525E+01
1.57250000000E+07	-2.33920223980E+01	-9.66564052428E+01
1.59200000000E+07	-2.36592489383E+01	-9.74479091943E+01
1.61150000000E+07	-2.38527246311E+01	-9.72312933963E+01
1.63100000000E+07	-2.40801790126E+01	-9.78738273654E+01
1.65050000000E+07	-2.42174580930E+01	-9.71618761312E+01
1.67000000000E+07	-2.45348025943E+01	-9.71337742336E+01
1.68950000000E+07	-2.47444080424E+01	-9.72655816435E+01
1.70900000000E+07	-2.49782069510E+01	-9.64070911222E+01
1.72850000000E+07	-2.51818671218E+01	-9.72103367199E+01
1.74800000000E+07	-2.54670153229E+01	-9.66103263759E+01
1.76750000000E+07	-2.57703013815E+01	-9.73402581357E+01
1.78700000000E+07	-2.59917880951E+01	-9.59194274036E+01
1.80650000000E+07	-2.62450560635E+01	-9.66165573821E+01
1.82600000000E+07	-2.64247120555E+01	-9.68480132070E+01
1.84550000000E+07	-2.67335532977E+01	-9.58270214869E+01
1.86500000000E+07	-2.69721188583E+01	-9.63119257867E+01
1.88450000000E+07	-2.71037583512E+01	-9.59062331410E+01
1.90400000000E+07	-2.73763582259E+01	-9.52340092982E+01
1.92350000000E+07	-2.76648212956E+01	-9.53496954673E+01
1.94300000000E+07	-2.79802527252E+01	-9.60541160847E+01
1.96250000000E+07	-2.82383712666E+01	-9.41711071179E+01
1.98200000000E+07	-2.84790424642E+01	-9.40697252100E+01
2.00150000000E+07	-2.87519786556E+01	-9.41306188610E+01
2.02100000000E+07	-2.91380431199E+01	-9.30375218286E+01
2.04050000000E+07	-2.92988935975E+01	-9.33198842015E+01
2.06000000000E+07	-2.96738153983E+01	-9.16685171544E+01
2.07950000000E+07	-2.99974401484E+01	-9.20579241482E+01
2.09900000000E+07	-3.02780449139E+01	-8.99706222202E+01
2.11850000000E+07	-3.05147530326E+01	-8.99129368956E+01
2.13800000000E+07	-3.08563018796E+01	-8.81653283100E+01
2.15750000000E+07	-3.11157623883E+01	-8.93815090661E+01
2.17700000000E+07	-3.15560961767E+01	-8.69540540555E+01
2.19650000000E+07	-3.17998700107E+01	-8.58649723162E+01
2.21600000000E+07	-3.20679053193E+01	-8.53432391245E+01
2.23550000000E+07	-3.24462513789E+01	-8.42215893632E+01
2.25500000000E+07	-3.27306275945E+01	-8.28832253318E+01
2.27450000000E+07	-3.29751878876E+01	-8.16521399815E+01
2.29400000000E+07	-3.32506744580E+01	-7.91681271916E+01
2.31350000000E+07	-3.36199651654E+01	-7.72905019993E+01
2.33300000000E+07	-3.36471964250E+01	-7.63270047060E+01
2.35250000000E+07	-3.41040754202E+01	-7.52895283086E+01
2.37200000000E+07	-3.44565992192E+01	-7.13967150834E+01
2.39150000000E+07	-3.47126828598E+01	-7.01952843881E+01
2.41100000000E+07	-3.49790336451E+01	-6.65480648605E+01
2.43050000000E+07	-3.52276463269E+01	-6.48352145736E+01
2.45000000000E+07	-3.53344856540E+01	-6.39020079962E+01
2.46950000000E+07	-3.56608560139E+01	-6.10784622062E+01
2.48900000000E+07	-3.56351914847E+01	-5.74745138062E+01
2.50850000000E+07	-3.60265609313E+01	-5.41222499964E+01
2.52800000000E+07	-3.59962948911E+01	-5.20874274479E+01
2.54750000000E+07	-3.60704880523E+01	-4.92275624708E+01
2.56700000000E+07	-3.60723256534E+01	-4.59534909657E+01
2.58650000000E+07	-3.61893016591E+01	-4.45257642841E+01
2.60600000000E+07	-3.65081440124E+01	-3.97037225441E+01
2.62550000000E+07	-3.64071454410E+01	-3.63873659249E+01
2.64500000000E+07	-3.59172000615E+01	-3.40773705798E+01
2.66450000000E+07	-3.62919683166E+01	-3.09951857525E+01
2.68400000000E+07	-3.58891602674E+01	-2.83381040597E+01
2.70350000000E+07	-3.58510184756E+01	-2.36943872805E+01
2.72300000000E+07	-3.55622868731E+01	-2.64534175461E+01
2.74250000000E+07	-3.55711034448E+01	-2.11649671394E+01
2.76200000000E+07	-3.55217122963E+01	-1.99394093277E+01
2.78150000000E+07	-3.50946870522E+01	-1.67693345987E+01
2.80100000000E+07	-3.49386476258E+01	-1.45366724949E+01
2.82050000000E+07	-3.47780860087E+01	-1.39456693207E+01
2.84000000000E+07	-3.46346880396E+01	-1.14299814713E+01
2.85950000000E+07	-3.43014526438E+01	-8.08093591401E+00
2.87900000000E+07	-3.40697400029E+01	-7.15338676137E+00
2.89850000000E+07	-3.38918028994E+01	-6.64373617910E+00
2.91800000000E+07	-3.36842329898E+01	-6.14834541220E+00
2.93750000000E+07	-3.34142780928E+01	-3.49311641217E+00
2.95700000000E+07	-3.33138032473E+01	-2.54063983635E+00
2.97650000000E+07	-3.30484868534E+01	-2.64542440180E+00
2.99600000000E+07	-3.28986251692E+01	-2.17085326885E+00
3.01550000000E+07	-3.27433998051E+01	4.79159194867E-01
3.03500000000E+07	-3.24074183960E+01	2.36646305546E-02
3.05450000000E+07	-3.21911155807E+01	2.08109148075E+00
3.07400000000E+07	-3.21602898725E+01	3.82429771241E-01
3.09350000000E+07	-3.18526181700E+01	2.65271520687E+00
3.11300000000E+07	-3.16380791753E+01	2.13408746816E+00
3.13250000000E+07	-3.13383509611E+01	3.58056232372E+00
3.15200000000E+07	-3.12428856832E+01	4.72554450576E+00
3.17150000000E+07	-3.10320572147E+01	5.16724504165E+00
3.19100000000E+07	-3.08205519042E+01	4.79086542876E+00
3.21050000000E+07	-3.06306424320E+01	4.47140686092E+00
3.23000000000E+07	-3.04374916580E+01	4.38591735783E+00
3.24950000000E+07	-3.04290167226E+01	5.14343956395E+00
3.26900000000E+07	-3.01879144504E+01	5.13578879927E+00
3.28850000000E+07	-3.01056266564E+01	5.96289152254E+00
3.30800000000E+07	-2.98887519848E+01	5.44110659278E+00
3.32750000000E+07	-2.96532824277E+01	6.66427117011E+00
3.34700000000E+07	-2.95389033693E+01	5.61921790845E+00
3.36650000000E+07	-2.94526685425E+01	6.43301031929E+00
3.38600000000E+07	-2.92917545774E+01	6.71959827682E+00
3.40550000000E+07	-2.90264076996E+01	5.53957788993E+00
3.42500000000E+07	-2.89819640051E+01	7.03772276431E+00
3.44450000000E+07	-2.88595025380E+01	7.20388969453E+00
3.46400000000E+07	-2.87876599747E+01	6.55049822830E+00
3.48350000000E+07	-2.86328411139E+01	6.66545309711E+00
3.50300000000E+07	-2.84814311341E+01	6.22148229005E+00
3.52250000000E+07	-2.83810303368E+01	6.99562265584E+00
3.54200000000E+07	-2.83249152435E+01	6.53222587410E+00
3.56150000000E+07	-2.80994324517E+01	5.44718420512E+00
3.58100000000E+07	-2.80076280786E+01	5.52777478105E+00
3.60050000000E+07	-2.79636182487E+01	5.93153470044E+00
3.62000000000E+07	-2.77594624212E+01	6.03541769611E+00
3.63950000000E+07	-2.75713774992E+01	6.41386078341E+00
3.65900000000E+07	-2.76062082529E+01	4.98227483807E+00
3.67850000000E+07	-2.75005074763E+01	5.52712704325E+00
3.69800000000E+07	-2.74019393698E+01	4.74006277699E+00
3.71750000000E+07	-2.72742744275E+01	5.02002198750E+00
3.73700000000E+07	-2.72523802661E+01	5.43925064341E+00
3.75650000000E+07	-2.70947706598E+01	5.00674262895E+00
3.77600000000E+07	-2.70647334488E+01	4.30502538424E+00
3.79550000000E+07	-2.69324656371E+01	4.34792114432E+00
3.81500000000E+07	-2.68122966194E+01	4.23135446488E+00
3.83450000000E+07	-2.67420791060E+01	3.90060262221E+00
3.85400000000E+07	-2.66623967296E+01	3.77617574045E+00
3.87350000000E+07	-2.64909682274E+01	3.58135332866E+00
3.89300000000E+07	-2.64677893835E+01	3.53985651842E+00
3.91250000000E+07	-2.64316014755E+01	3.51413435826E+00
3.93200000000E+07	-2.63807961770E+01	3.41601416415E+00
3.95150000000E+07	-2.62774472696E+01	3.45730211968E+00
3.97100000000E+07	-2.62408182149E+01	2.82688837028E+00
3.99050000000E+07	-2.61751840645E+01	2.28359430234E+00
4.01000000000E+07	-2.60539092943E+01	2.00531276468E+00
4.02950000000E+07	-2.59673972228E+01	1.83806996564E+00
4.04900000000E+07	-2.59100345305E+01	1.77585976426E+00
4.06850000000E+07	-2.59377304853E+01	1.19801762814E+00
4.08800000000E+07	-2.57825956741E+01	8.67576144106E-01
4.10750000000E+07	-2.56971110181E+01	1.31490409949E+00
4.12700000000E+07	-2.56804640180E+01	2.78904018267E-01
4.14650000000E+07	-2.55582332672E+01	-1.01256270438E-01
4.16600000000E+07	-2.55621346972E+01	1.78820688506E-01
4.18550000000E+07	-2.55287670549E+01	-2.02571390529E-01
4.20500000000E+07	-2.54688414798E+01	-7.28242566123E-01
4.22450000000E+07	-2.53314220702E+01	-8.23916653242E-01
4.24400000000E+07	-2.52850714355E+01	-7.95780378468E-01
4.26350000000E+07	-2.52486483094E+01	-1.40951490992E+00
4.28300000000E+07	-2.52464485181E+01	-1.77700176973E+00
4.30250000000E+07	-2.51031070844E+01	-2.13173713166E+00
4.32200000000E+07	-2.50695474787E+01	-2.53136367607E+00
4.34150000000E+07	-2.50376661323E+01	-2.10955447570E+00
4.36100000000E+07	-2.49997515759E+01	-3.21495419120E+00
4.38050000000E+07	-2.48929446683E+01	-3.93821873979E+00
4.40000000000E+07	-2.48637509743E+01	-3.80759631650E+00
4.41950000000E+07	-2.48364126394E+01	-3.78127806175E+00
4.43900000000E+07	-2.47775931906E+01	-4.27205371057E+00
4.45850000000E+07	-2.48057218521E+01	-4.57140234528E+00
4.47800000000E+07	-2.47522920834E+01	-5.28623512379E+00
4.49750000000E+07	-2.46235574977E+01	-5.20164023823E+00
4.51700000000E+07	-2.46234356216E+01	-5.20346418972E+00
4.53650000000E+07	-2.45533859096E+01	-5.77828288681E+00
4.55600000000E+07	-2.45656113820E+01	-5.89868780190E+00
4.57550000000E+07	-2.45001520422E+01	-6.06589255346E+00
4.59500000000E+07	-2.44386118387E+01	-6.68613798306E+00
4.61450000000E+07	-2.44588774146E+01	-7.17978668273E+00
4.63400000000E+07	-2.43299939739E+01	-7.54410381337E+00
4.65350000000E+07	-2.43782375568E+01	-8.02201693516E+00
4.67300000000E+07	-2.43063471328E+01	-9.01557236971E+00
4.69250000000E+07	-2.42531453301E+01	-8.39294486834E+00
4.71200000000E+07	-2.42096996127E+01	-9.26945995275E+00
4.73150000000E+07	-2.41912341528E+01	-9.01521490833E+00
4.75100000000E+07	-2.40556775408E+01	-9.64370077720E+00
4.77050000000E+07	-2.41670858008E+01	-9.90490299135E+00
4.79000000000E+07	-2.40411890428E+01	-1.06487271968E+01
4.80950000000E+07	-2.40840989052E+01	-1.09812671382E+01
4.82900000000E+07	-2.40309474710E+01	-1.12951892753E+01
4.84850000000E+07	-2.40133700514E+01	-1.14444986020E+01
4.86800000000E+07	-2.39946256115E+01	-1.15597391808E+01
4.88750000000E+07	-2.39053354782E+01	-1.20693572311E+01
4.90700000000E+07	-2.38998867125E+01	-1.30537454180E+01
4.92650000000E+07	-2.37678090163E+01	-1.31607803810E+01
4.94600000000E+07	-2.38777464177E+01	-1.34422082078E+01
4.96550000000E+07	-2.37767006760E+01	-1.38694461753E+01
4.98500000000E+07	-2.38244006435E+01	-1.40208236203E+01
5.00450000000E+07	-2.37569744218E+01	-1.47327139607E+01
5.02400000000E+07	-2.37394266748E+01	-1.50925454515E+01
5.04350000000E+07	-2.37690794747E+01	-1.50663713351E+01
5.06300000000E+07	-2.36796609365E+01	-1.60674173707E+01
5.08250000000E+07	-2.36715945271E+01	-1.57056493804E+01
5.10200000000E+07	-2.36306805350E+01	-1.61381370060E+01
5.12150000000E+07	-2.36277971843E+01	-1.69048769955E+01
5.14100000000E+07	-2.36074893176E+01	-1.74847552048E+01
5.16050000000E+07	-2.35585141825E+01	-1.77444088555E+01
5.18000000000E+07	-2.35333751684E+01	-1.78592051009E+01
5.19950000000E+07	-2.35626320090E+01	-1.86294136845E+01
5.21900000000E+07	-2.35045442269E+01	-1.90572007312E+01
5.23850000000E+07	-2.34800713779E+01	-1.92175289873E+01
5.25800000000E+07	-2.34631733577E+01	-1.96107827618E+01
5.27750000000E+07	-2.34778147863E+01	-1.98816714105E+01
5.29700000000E+07	-2.34224664833E+01	-2.07473511152E+01
5.31650000000E+07	-2.34270303631E+01	-2.12844183570E+01
5.33600000000E+07	-2.34217525511E+01	-2.12484536139E+01
5.35550000000E+07	-2.34199434145E+01	-2.16487872288E+01
5.37500000000E+07	-2.33531566956E+01	-2.25012599326E+01
5.39450000000E+07	-2.34037488035E+01	-2.25481357066E+01
5.41400000000E+07	-2.33900490490E+01	-2.29188714904E+01
5.43350000000E+07	-2.33489728711E+01	-2.36113974725E+01
5.45300000000E+07	-2.33205635795E+01	-2.40241332962E+01
5.47250000000E+07	-2.33286925570E+01	-2.46187781866E+01
5.49200000000E+07	-2.33176024416E+01	-2.44387533453E+01
5.51150000000E+07	-2.33347235802E+01	-2.54219443450E+01
5.53100000000E+07	-2.33084792839E+01	-2.56750161517E+01
5.55050000000E+07	-2.32978264466E+01	-2.62471348705E+01
5.57000000000E+07	-2.33298283691E+01	-2.65082738466E+01
5.58950000000E+07	-2.33404205428E+01	-2.75186238417E+01
5.60900000000E+07	-2.33641647808E+01	-2.74367217023E+01
5.62850000000E+07	-2.32650406064E+01	-2.79187073430E+01
5.64800000000E+07	-2.33273647960E+01	-2.81943770530E+01
5.66750000000E+07	-2.32007874633E+01	-2.89190196001E+01
5.68700000000E+07	-2.32821136514E+01	-2.92922492680E+01
5.70650000000E+07	-2.32082245759E+01	-3.01814829984E+01
5.72600000000E+07	-2.32285894054E+01	-2.98177943522E+01
5.74550000000E+07	-2.32876586102E+01	-3.05813712042E+01
5.76500000000E+07	-2.32426303037E+01	-3.11585935421E+01
5.78450000000E+07	-2.31934268384E+01	-3.20558563838E+01
5.80400000000E+07	-2.32223477413E+01	-3.19932697338E+01
5.82350000000E+07	-2.31849935925E+01	-3.24040136145E+01
5.84300000000E+07	-2.32508805358E+01	-3.30002407379E+01
5.86250000000E+07	-2.32552423541E+01	-3.34770434454E+01
5.88200000000E+07	-2.33349330520E+01	-3.38029130813E+01
5.90150000000E+07	-2.33023128060E+01	-3.45705694492E+01
5.92100000000E+07	-2.32719987458E+01	-3.52233207294E+01
5.94050000000E+07	-2.32767650312E+01	-3.52637020095E+01
5.96000000000E+07	-2.33088793731E+01	-3.58085663020E+01
5.97950000000E+07	-2.32230041701E+01	-3.62280339860E+01
5.99900000000E+07	-2.32931795350E+01	-3.72026916734E+01
6.01850000000E+07	-2.32835526973E+01	-3.75342562225E+01
6.03800000000E+07	-2.32721445697E+01	-3.78078671998E+01
6.05750000000E+07	-2.33108711617E+01	-3.82746356586E+01
6.07700000000E+07	-2.32288314305E+01	-3.85783496273E+01
6.09650000000E+07	-2.33171087947E+01	-3.93244152191E+01
6.11600000000E+07	-2.33043855080E+01	-3.96015691850E+01
6.13550000000E+07	-2.33399733097E+01	-4.00379680651E+01
6.15500000000E+07	-2.33169397460E+01	-4.08912507805E+01
6.17450000000E+07	-2.33095597168E+01	-4.14594401252E+01
6.19400000000E+07	-2.33270513518E+01	-4.15074333767E+01
6.21350000000E+07	-2.33559004258E+01	-4.23051147930E+01
6.23300000000E+07	-2.33591503972E+01	-4.25189669577E+01
6.25250000000E+07	-2.33313283646E+01	-4.34519622024E+01
6.27200000000E+07	-2.33450429558E+01	-4.36922672802E+01
6.29150000000E+07	-2.33604875105E+01	-4.42233692942E+01
6.31100000000E+07	-2.34254091337E+01	-4.49957661691E+01
6.33050000000E+07	-2.34263130788E+01	-4.44309196760E+01
6.35000000000E+07	-2.33835184745E+01	-4.57096499529E+01
6.36950000000E+07	-2.34348479031E+01	-4.64500440009E+01
6.38900000000E+07	-2.34283684951E+01	-4.66484426394E+01
6.40850000000E+07	-2.34519588115E+01	-4.74006739599E+01
6.42800000000E+07	-2.34917385050E+01	-4.81943152423E+01
6.44750000000E+07	-2.35347321894E+01	-4.79936534148E+01
6.46700000000E+07	-2.34911651837E+01	-4.88341638168E+01
6.48650000000E+07	-2.34936192695E+01	-4.94484454847E+01
6.50600000000E+07	-2.35550088673E+01	-4.99037349404E+01
6.52550000000E+07	-2.35327401907E+01	-5.05320240629E+01
6.54500000000E+07	-2.35672899984E+01	-5.17124804446E+01
6.56450000000E+07	-2.36053132604E+01	-5.18521602432E+01
6.58400000000E+07	-2.35713349009E+01	-5.17868466761E+01
6.60350000000E+07	-2.36144536664E+01	-5.26969103616E+01
6.62300000000E+07	-2.36411623493E+01	-5.31466507407E+01
6.64250000000E+07	-2.36565574818E+01	-5.41594467979E+01
6.66200000000E+07	-2.36664502701E+01	-5.44810152392E+01
6.68150000000E+07	-2.36365612512E+01	-5.50861802268E+01
6.70100000000E+07	-2.37422983996E+01	-5.59502177696E+01
6.72050000000E+07	-2.37461720791E+01	-5.59633548286E+01
6.74000000000E+07	-2.37397668189E+01	-5.69283513933E+01
6.75950000000E+07	-2.38351686723E+01	-5.76639689824E+01
6.77900000000E+07	-2.37629256937E+01	-5.76296078118E+01
6.79850000000E+07	-2.37484816825E+01	-5.82926704690E+01
6.81800000000E+07	-2.38782387946E+01	-5.85269955960E+01
6.83750000000E+07	-2.38615967325E+01	-5.97195841815E+01
6.85700000000E+07	-2.38380163046E+01	-6.01567084251E+01
6.87650000000E+07	-2.39299265828E+01	-6.08663873463E+01
6.89600000000E+07	-2.38708898167E+01	-6.09768985588E+01
6.91550000000E+07	-2.39225308520E+01	-6.20050601486E+01
6.93500000000E+07	-2.39723106139E+01	-6.23958543336E+01
6.95450000000E+07	-2.39723149855E+01	-6.35038336347E+01
6.97400000000E+07	-2.40859435512E+01	-6.37719500141E+01
6.99350000000E+07	-2.40742485161E+01	-6.37767869103E+01
7.01300000000E+07	-2.41090422231E+01	-6.50262532087E+01
7.03250000000E+07	-2.40509570641E+01	-6.50602568142E+01
7.05200000000E+07	-2.41688074172E+01	-6.60119947288E+01
7.07150000000E+07	-2.41097497243E+01	-6.66865627987E+01
7.09100000000E+07	-2.41558718416E+01	-6.69122945647E+01
7.11050000000E+07	-2.40827281752E+01	-6.78185528975E+01
7.13000000000E+07	-2.41971397541E+01	-6.82140084194E+01
7.14950000000E+07	-2.42261033839E+01	-6.91035363521E+01
7.16900000000E+07	-2.43264316168E+01	-6.95860780003E+01
7.18850000000E+07	-2.42829728453E+01	-7.00856301306E+01
7.20800000000E+07	-2.42932551856E+01	-7.13030752745E+01
7.22750000000E+07	-2.43946097916E+01	-7.12260289733E+01
7.24700000000E+07	-2.44015485578E+01	-7.18938989334E+01
7.26650000000E+07	-2.44401217604E+01	-7.27718190014E+01
7.28600000000E+07	-2.44331013902E+01	-7.34320277948E+01
