# Hz S DB R 50
! CMT, M5045, 22160017, 22.4.3/2
! Date: 1/21/2023 19:33:21
! Data: Format (Calibration Info)
! Freq	S11:dB/Ang(F1)
5.00000000000E+06	-9.54722053133E+00	-7.38334573495E+01
5.19500000000E+06	-9.88417788890E+00	-7.48270582301E+01
5.39000000000E+06	-1.02124900271E+01	-7.57380887853E+01
5.58500000000E+06	-1.05705905387E+01	-7.64314628502E+01
5.78000000000E+06	-1.08888737568E+01	-7.70419762456E+01
5.97500000000E+06	-1.11921065174E+01	-7.78119156824E+01
6.17000000000E+06	-1.14400201225E+01	-7.84383237716E+01
6.36500000000E+06	-1.17466087003E+01	-7.88801609404E+01
6.56000000000E+06	-1.20559310153E+01	-7.96577756016E+01
6.75500000000E+06	-1.23105886451E+01	-8.01944127873E+01
6.95000000000E+06	-1.25867174894E+01	-8.05283969365E+01
7.14500000000E+06	-1.28516423867E+01	-8.12316190151E+01
7.34000000000E+06	-1.30982773108E+01	-8.14641810666E+01
7.53500000000E+06	-1.33757410112E+01	-8.19667279725E+01
7.73000000000E+06	-1.36173672607E+01	-8.23925009743E+01
7.92500000000E+06	-1.38691986049E+01	-8.28485908374E+01
8.12000000000E+06	-1.41333414907E+01	-8.32005092739E+01
8.31500000000E+06	-1.43374905802E+01	-8.34923822618E+01
8.51000000000E+06	-1.45806589151E+01	-8.37122891318E+01
8.70500000000E+06	-1.48067397337E+01	-8.42568943144E+01
8.90000000000E+06	-1.50633201226E+01	-8.45604531273E+01
9.09500000000E+06	-1.52313446510E+01	-8.47054961554E+01
9.29000000000E+06	-1.54823557385E+01	-8.52515903319E+01
9.48500000000E+06	-1.56995228285E+01	-8.52794116867E+01
9.68000000000E+06	-1.59184646263E+01	-8.56301960737E+01
9.87500000000E+06	-1.61166945134E+01	-8.60267025988E+01
1.00700000000E+07	-1.63486971044E+01	-8.60685195305E+01
1.02650000000E+07	-1.65431319779E+01	-8.64470674674E+01
1.04600000000E+07	-1.67299030999E+01	-8.66429803615E+01
1.06550000000E+07	-1.69191567131E+01	-8.66977674025E+01
1.08500000000E+07	-1.71089890066E+01	-8.68897715488E+01
1.10450000000E+07	-1.73484072744E+01	-8.74697713163E+01
1.12400000000E+07	-1.75594339506E+01	-8.77064428099E+01
1.14350000000E+07	-1.77513188666E+01	-8.80109895687E+01
1.16300000000E+07	-1.79381737307E+01	-8.80527995349E+01
1.18250000000E+07	-1.81200731928E+01	-8.84139618118E+01
1.20200000000E+07	-1.83621521503E+01	-8.84616029486E+01
1.22150000000E+07	-1.85170973567E+01	-8.91471460042E+01
1.24100000000E+07	-1.87040702660E+01	-8.88510251992E+01
1.26050000000E+07	-1.89093881526E+01	-8.92576420360E+01
1.28000000000E+07	-1.90601567981E+01	-8.94216549484E+01
1.29950000000E+07	-1.92191590814E+01	-8.96407896588E+01
1.31900000000E+07	-1.94462648335E+01	-8.94199650736E+01
1.33850000000E+07	-1.96046055629E+01	-8.97383908001E+01
1.35800000000E+07	-1.97609861966E+01	-8.99141727727E+01
1.37750000000E+07	-2.00189397720E+01	-8.97482140114E+01
1.39700000000E+07	-2.01905563966E+01	-8.98355816608E+01
1.41650000000E+07	-2.03402866600E+01	-9.01644865708E+01
1.43600000000E+07	-2.05258768447E+01	-8.99249730349E+01
1.45550000000E+07	-2.06985840712E+01	-8.99983690883E+01
1.47500000000E+07	-2.09040793049E+01	-9.03887330080E+01
1.49450000000E+07	-2.10624749373E+01	-9.05036181807E+01
1.51400000000E+07	-2.12577253586E+01	-9.05343310477E+01
1.53350000000E+07	-2.14313061726E+01	-9.04227817766E+01
1.55300000000E+07	-2.16291067880E+01	-9.08478031191E+01
1.57250000000E+07	-2.17903358800E+01	-9.08722923736E+01
1.59200000000E+07	-2.19490512794E+01	-9.03631946215E+01
1.61150000000E+07	-2.21989338795E+01	-9.05626293883E+01
1.63100000000E+07	-2.23509805641E+01	-9.05503811724E+01
1.65050000000E+07	-2.24734480840E+01	-9.09791439145E+01
1.67000000000E+07	-2.27350684058E+01	-9.03845274430E+01
1.68950000000E+07	-2.28598456148E+01	-9.04637041091E+01
1.70900000000E+07	-2.30469715428E+01	-9.00369918549E+01
1.72850000000E+07	-2.31864901333E+01	-9.06062136703E+01
1.74800000000E+07	-2.33938195140E+01	-9.00597782848E+01
1.76750000000E+07	-2.36117129283E+01	-9.02339436400E+01
1.78700000000E+07	-2.37382185893E+01	-9.02041425337E+01
1.80650000000E+07	-2.39709275564E+01	-8.98956415412E+01
1.82600000000E+07	-2.41763931981E+01	-9.02501657235E+01
1.84550000000E+07	-2.43701911530E+01	-8.99405213545E+01
1.86500000000E+07	-2.44470213474E+01	-8.93520428584E+01
1.88450000000E+07	-2.46832086129E+01	-8.95645110506E+01
1.90400000000E+07	-2.48746556095E+01	-8.87082018962E+01
1.92350000000E+07	-2.50594942817E+01	-8.89511968656E+01
1.94300000000E+07	-2.51775587133E+01	-8.82917324912E+01
1.96250000000E+07	-2.54215515379E+01	-8.82113011871E+01
1.98200000000E+07	-2.55824005432E+01	-8.82998320844E+01
2.00150000000E+07	-2.56765443391E+01	-8.77997184551E+01
2.02100000000E+07	-2.58736287723E+01	-8.78476631700E+01
2.04050000000E+07	-2.60211222331E+01	-8.65218040626E+01
2.06000000000E+07	-2.63207735562E+01	-8.69991273269E+01
2.07950000000E+07	-2.65153532701E+01	-8.70042607389E+01
2.09900000000E+07	-2.65773100938E+01	-8.67537519720E+01
2.11850000000E+07	-2.68793062206E+01	-8.59260493437E+01
2.13800000000E+07	-2.70459719322E+01	-8.57769056934E+01
2.15750000000E+07	-2.70915428693E+01	-8.54198197299E+01
2.17700000000E+07	-2.74612249032E+01	-8.46586656285E+01
2.19650000000E+07	-2.76443789270E+01	-8.52413721652E+01
2.21600000000E+07	-2.77842096536E+01	-8.37422831236E+01
2.23550000000E+07	-2.78920348618E+01	-8.33083210572E+01
2.25500000000E+07	-2.80756715407E+01	-8.27099067672E+01
2.27450000000E+07	-2.82122098996E+01	-8.17692977949E+01
2.29400000000E+07	-2.84111154215E+01	-8.18426240384E+01
2.31350000000E+07	-2.86219078029E+01	-8.08117802829E+01
2.33300000000E+07	-2.87808205198E+01	-8.07369359053E+01
2.35250000000E+07	-2.88952044607E+01	-7.93611220364E+01
2.37200000000E+07	-2.92132090909E+01	-7.82691714589E+01
2.39150000000E+07	-2.93705696836E+01	-7.79621977527E+01
2.41100000000E+07	-2.96211691738E+01	-7.80953071305E+01
2.43050000000E+07	-2.96418120893E+01	-7.63897300091E+01
2.45000000000E+07	-2.98958546470E+01	-7.58594905374E+01
2.46950000000E+07	-2.99812957978E+01	-7.57546409328E+01
2.48900000000E+07	-3.03819335578E+01	-7.40907505376E+01
2.50850000000E+07	-3.02581823959E+01	-7.37331923258E+01
2.52800000000E+07	-3.05924641266E+01	-7.19395075903E+01
2.54750000000E+07	-3.05924801701E+01	-7.05636970509E+01
2.56700000000E+07	-3.07070800791E+01	-6.99180465377E+01
2.58650000000E+07	-3.09237932228E+01	-6.91652816655E+01
2.60600000000E+07	-3.10416824456E+01	-6.75618712198E+01
2.62550000000E+07	-3.12418869378E+01	-6.67980551671E+01
2.64500000000E+07	-3.12180638984E+01	-6.62809395245E+01
2.66450000000E+07	-3.13361108191E+01	-6.31358904294E+01
2.68400000000E+07	-3.15735559905E+01	-6.51554770857E+01
2.70350000000E+07	-3.15674666720E+01	-6.21647117876E+01
2.72300000000E+07	-3.16490389393E+01	-6.24070992363E+01
2.74250000000E+07	-3.18584347587E+01	-5.97713810665E+01
2.76200000000E+07	-3.19091730946E+01	-5.83900507733E+01
2.78150000000E+07	-3.18601038407E+01	-5.63527875376E+01
2.80100000000E+07	-3.20808695088E+01	-5.54768540617E+01
2.82050000000E+07	-3.23144088376E+01	-5.54136101554E+01
2.84000000000E+07	-3.20578248746E+01	-5.36057202809E+01
2.85950000000E+07	-3.22281189854E+01	-5.13025808663E+01
2.87900000000E+07	-3.22831286336E+01	-5.02127584023E+01
2.89850000000E+07	-3.22143198454E+01	-4.91387453971E+01
2.91800000000E+07	-3.22538893266E+01	-4.89286119163E+01
2.93750000000E+07	-3.23352797983E+01	-4.77680942707E+01
2.95700000000E+07	-3.22940758852E+01	-4.54015537319E+01
2.97650000000E+07	-3.23050405349E+01	-4.48879000982E+01
2.99600000000E+07	-3.24017297053E+01	-4.26126617747E+01
3.01550000000E+07	-3.23490052597E+01	-4.20469510445E+01
3.03500000000E+07	-3.21432156182E+01	-4.10452156017E+01
3.05450000000E+07	-3.21318258543E+01	-3.95740805501E+01
3.07400000000E+07	-3.22140217850E+01	-3.82292451372E+01
3.09350000000E+07	-3.23297241051E+01	-3.75284442267E+01
3.11300000000E+07	-3.21130188324E+01	-3.48556753259E+01
3.13250000000E+07	-3.21496922788E+01	-3.57265640949E+01
3.15200000000E+07	-3.19943964285E+01	-3.35083272948E+01
3.17150000000E+07	-3.20805612293E+01	-3.19370949828E+01
3.19100000000E+07	-3.20948666520E+01	-3.14566134071E+01
3.21050000000E+07	-3.18807543873E+01	-3.12485100453E+01
3.23000000000E+07	-3.17434214001E+01	-3.06231317306E+01
3.24950000000E+07	-3.17612451521E+01	-2.91262260570E+01
3.26900000000E+07	-3.15414732497E+01	-2.91231920886E+01
3.28850000000E+07	-3.16149621877E+01	-2.74827559085E+01
3.30800000000E+07	-3.16193732230E+01	-2.69088534929E+01
3.32750000000E+07	-3.14445088374E+01	-2.67020660886E+01
3.34700000000E+07	-3.12382167113E+01	-2.63838861087E+01
3.36650000000E+07	-3.14298830023E+01	-2.44083253878E+01
3.38600000000E+07	-3.11261466123E+01	-2.32336064980E+01
3.40550000000E+07	-3.10947985727E+01	-2.38151487915E+01
3.42500000000E+07	-3.09571793955E+01	-2.28043708540E+01
3.44450000000E+07	-3.11216854463E+01	-2.22417521976E+01
3.46400000000E+07	-3.09695935698E+01	-2.07266650961E+01
3.48350000000E+07	-3.08695391226E+01	-2.16759897869E+01
3.50300000000E+07	-3.07279697049E+01	-2.04525672509E+01
3.52250000000E+07	-3.05867255413E+01	-2.12129467930E+01
3.54200000000E+07	-3.04780094615E+01	-2.03724240608E+01
3.56150000000E+07	-3.04095225185E+01	-1.88638676887E+01
3.58100000000E+07	-3.04558691069E+01	-1.95679565053E+01
3.60050000000E+07	-3.03186159631E+01	-1.90515895518E+01
3.62000000000E+07	-3.00827597311E+01	-1.87170793675E+01
3.63950000000E+07	-3.02748440021E+01	-1.74159671937E+01
3.65900000000E+07	-3.01245879120E+01	-1.78290204988E+01
3.67850000000E+07	-2.99395578556E+01	-1.81627609210E+01
3.69800000000E+07	-2.99177519926E+01	-1.69382016892E+01
3.71750000000E+07	-2.98417041649E+01	-1.65991446650E+01
3.73700000000E+07	-2.97858302804E+01	-1.59183620018E+01
3.75650000000E+07	-2.96653991196E+01	-1.65508050231E+01
3.77600000000E+07	-2.96240368624E+01	-1.67564487122E+01
3.79550000000E+07	-2.95042541916E+01	-1.57229232364E+01
3.81500000000E+07	-2.93338283547E+01	-1.60061676808E+01
3.83450000000E+07	-2.92363218040E+01	-1.66855891717E+01
3.85400000000E+07	-2.92067223732E+01	-1.57683444080E+01
3.87350000000E+07	-2.92155369967E+01	-1.58011971690E+01
3.89300000000E+07	-2.91902622995E+01	-1.57202261430E+01
3.91250000000E+07	-2.89928210593E+01	-1.61079226023E+01
3.93200000000E+07	-2.90103602229E+01	-1.50387141485E+01
3.95150000000E+07	-2.88939641277E+01	-1.49843241026E+01
3.97100000000E+07	-2.88205312574E+01	-1.54550171541E+01
3.99050000000E+07	-2.87449030637E+01	-1.61808949208E+01
4.01000000000E+07	-2.87046215236E+01	-1.56729840921E+01
4.02950000000E+07	-2.85725573661E+01	-1.59097367591E+01
4.04900000000E+07	-2.86726493886E+01	-1.61058157736E+01
4.06850000000E+07	-2.85022073350E+01	-1.48672967762E+01
4.08800000000E+07	-2.84370837586E+01	-1.60406830912E+01
4.10750000000E+07	-2.84542228116E+01	-1.61839949327E+01
4.12700000000E+07	-2.82943569380E+01	-1.55331467812E+01
4.14650000000E+07	-2.84119318296E+01	-1.57945783629E+01
4.16600000000E+07	-2.82263611746E+01	-1.61744217688E+01
4.18550000000E+07	-2.81683657822E+01	-1.60125923787E+01
4.20500000000E+07	-2.81031238145E+01	-1.57994907883E+01
4.22450000000E+07	-2.80958947321E+01	-1.65749501890E+01
4.24400000000E+07	-2.81041467793E+01	-1.71657301995E+01
4.26350000000E+07	-2.80475213153E+01	-1.67913390806E+01
4.28300000000E+07	-2.79191403089E+01	-1.71551873227E+01
4.30250000000E+07	-2.77995154921E+01	-1.72312376030E+01
4.32200000000E+07	-2.76905849872E+01	-1.70850392572E+01
4.34150000000E+07	-2.77613787697E+01	-1.76084836879E+01
4.36100000000E+07	-2.77263057759E+01	-1.70814956026E+01
4.38050000000E+07	-2.76996158099E+01	-1.78749847671E+01
4.40000000000E+07	-2.76028005179E+01	-1.79902060849E+01
4.41950000000E+07	-2.76445415519E+01	-1.74535392735E+01
4.43900000000E+07	-2.75494659887E+01	-1.88224091170E+01
4.45850000000E+07	-2.75727396841E+01	-1.86103465207E+01
4.47800000000E+07	-2.74310839422E+01	-1.90437324412E+01
4.49750000000E+07	-2.74361429277E+01	-1.78345022409E+01
4.51700000000E+07	-2.72172195852E+01	-1.85329955224E+01
4.53650000000E+07	-2.73283814873E+01	-1.93346276750E+01
4.55600000000E+07	-2.73823069841E+01	-1.90897617240E+01
4.57550000000E+07	-2.72258742081E+01	-1.98832621569E+01
4.59500000000E+07	-2.73071713970E+01	-1.92614322567E+01
4.61450000000E+07	-2.71481987688E+01	-2.04857488253E+01
4.63400000000E+07	-2.71931138350E+01	-2.02176362037E+01
4.65350000000E+07	-2.71954971540E+01	-2.10122139639E+01
4.67300000000E+07	-2.72114000419E+01	-2.00751950826E+01
4.69250000000E+07	-2.71145879445E+01	-2.14069002182E+01
4.71200000000E+07	-2.70323101912E+01	-2.14399418145E+01
4.73150000000E+07	-2.70442407479E+01	-2.19016320009E+01
4.75100000000E+07	-2.70012136992E+01	-2.20467786896E+01
4.77050000000E+07	-2.69807588564E+01	-2.26327403248E+01
4.79000000000E+07	-2.70166185716E+01	-2.32885786839E+01
4.80950000000E+07	-2.69375837351E+01	-2.29920789694E+01
4.82900000000E+07	-2.68223954771E+01	-2.35413319861E+01
4.84850000000E+07	-2.67738997064E+01	-2.40149081761E+01
4.86800000000E+07	-2.69034256088E+01	-2.37953665300E+01
4.88750000000E+07	-2.68263136553E+01	-2.37433074809E+01
4.90700000000E+07	-2.68374845022E+01	-2.49666208919E+01
4.92650000000E+07	-2.68563022909E+01	-2.56949120924E+01
4.94600000000E+07	-2.67613014354E+01	-2.53773861897E+01
4.96550000000E+07	-2.68224961462E+01	-2.58253662789E+01
4.98500000000E+07	-2.68072843354E+01	-2.56700419826E+01
5.00450000000E+07	-2.68081189527E+01	-2.60222161631E+01
5.02400000000E+07	-2.67673833665E+01	-2.64476979617E+01
5.04350000000E+07	-2.67640143595E+01	-2.67192623796E+01
5.06300000000E+07	-2.67209783434E+01	-2.72051100320E+01
5.08250000000E+07	-2.67636210326E+01	-2.78232075548E+01
5.10200000000E+07	-2.67517787803E+01	-2.84219170469E+01
5.12150000000E+07	-2.67641562999E+01	-2.85015447782E+01
5.14100000000E+07	-2.66900397731E+01	-2.88261610554E+01
5.16050000000E+07	-2.66667852766E+01	-2.94467583360E+01
5.18000000000E+07	-2.66507444002E+01	-2.96364187155E+01
5.19950000000E+07	-2.66683835075E+01	-2.99352569990E+01
5.21900000000E+07	-2.67172513953E+01	-3.05741444054E+01
5.23850000000E+07	-2.67281816826E+01	-3.14209882530E+01
5.25800000000E+07	-2.67660139934E+01	-3.16064290809E+01
5.27750000000E+07	-2.66491217960E+01	-3.19045488712E+01
5.29700000000E+07	-2.66573609815E+01	-3.25755236755E+01
5.31650000000E+07	-2.67168276495E+01	-3.24388940587E+01
5.33600000000E+07	-2.66443875993E+01	-3.31759921646E+01
5.35550000000E+07	-2.66967734888E+01	-3.37910356523E+01
5.37500000000E+07	-2.66389683250E+01	-3.43566416319E+01
5.39450000000E+07	-2.66433579626E+01	-3.47270735855E+01
5.41400000000E+07	-2.67071452921E+01	-3.48074524218E+01
5.43350000000E+07	-2.67197712070E+01	-3.55693154204E+01
5.45300000000E+07	-2.66385301765E+01	-3.58982471681E+01
5.47250000000E+07	-2.67726701249E+01	-3.63441759695E+01
5.49200000000E+07	-2.66685517120E+01	-3.66814627371E+01
5.51150000000E+07	-2.68610294046E+01	-3.76614948072E+01
5.53100000000E+07	-2.67861445081E+01	-3.72946092095E+01
5.55050000000E+07	-2.68241797220E+01	-3.79321492801E+01
5.57000000000E+07	-2.67774818817E+01	-3.85623308938E+01
5.58950000000E+07	-2.67221449478E+01	-3.93238269668E+01
5.60900000000E+07	-2.69496940840E+01	-3.87666034036E+01
5.62850000000E+07	-2.69465279223E+01	-3.97540461363E+01
5.64800000000E+07	-2.68979756574E+01	-4.04770888740E+01
5.66750000000E+07	-2.69082623863E+01	-4.10868692921E+01
5.68700000000E+07	-2.68717972354E+01	-4.19000609164E+01
5.70650000000E+07	-2.69932619177E+01	-4.17459692823E+01
5.72600000000E+07	-2.70232976210E+01	-4.19215134764E+01
5.74550000000E+07	-2.68897398389E+01	-4.24895640652E+01
5.76500000000E+07	-2.70210124514E+01	-4.32586967475E+01
5.78450000000E+07	-2.70636402000E+01	-4.37629726897E+01
5.80400000000E+07	-2.70996599264E+01	-4.48958586021E+01
5.82350000000E+07	-2.70468067814E+01	-4.43902442071E+01
5.84300000000E+07	-2.71261183692E+01	-4.53549085659E+01
5.86250000000E+07	-2.71164416344E+01	-4.55975523782E+01
5.88200000000E+07	-2.70954832937E+01	-4.64204954541E+01
5.90150000000E+07	-2.72602249264E+01	-4.72636003132E+01
5.92100000000E+07	-2.72676776624E+01	-4.79175287137E+01
5.94050000000E+07	-2.72970420137E+01	-4.76995052778E+01
5.96000000000E+07	-2.73978359954E+01	-4.92956581300E+01
5.97950000000E+07	-2.73073313482E+01	-4.92401213933E+01
5.99900000000E+07	-2.73935239293E+01	-4.97409101953E+01
6.01850000000E+07	-2.74648612631E+01	-5.04387315684E+01
6.03800000000E+07	-2.75188919410E+01	-5.09177047766E+01
6.05750000000E+07	-2.74758686537E+01	-5.14873377215E+01
6.07700000000E+07	-2.74550753522E+01	-5.18945947104E+01
6.09650000000E+07	-2.75571462416E+01	-5.29447121870E+01
6.11600000000E+07	-2.75717896336E+01	-5.38157953673E+01
6.13550000000E+07	-2.75528833454E+01	-5.41384735795E+01
6.15500000000E+07	-2.77508978772E+01	-5.47421321454E+01
6.17450000000E+07	-2.78647453838E+01	-5.54499986134E+01
6.19400000000E+07	-2.79254742352E+01	-5.59271097625E+01
6.21350000000E+07	-2.77948380531E+01	-5.62328049756E+01
6.23300000000E+07	-2.79843534890E+01	-5.68257093059E+01
6.25250000000E+07	-2.79551754238E+01	-5.70173848434E+01
6.27200000000E+07	-2.80122233405E+01	-5.84045917457E+01
6.29150000000E+07	-2.80047902060E+01	-5.85181281351E+01
6.31100000000E+07	-2.80705568583E+01	-5.99441341715E+01
6.33050000000E+07	-2.81237303590E+01	-5.99788885528E+01
6.35000000000E+07	-2.82342407991E+01	-6.07550212168E+01
6.36950000000E+07	-2.81998687974E+01	-6.13924092990E+01
6.38900000000E+07	-2.83791590774E+01	-6.18273419314E+01
6.40850000000E+07	-2.83712628900E+01	-6.30756729080E+01
6.42800000000E+07	-2.86205337800E+01	-6.34727753649E+01
6.44750000000E+07	-2.85970612078E+01	-6.38930269457E+01
6.46700000000E+07	-2.85487904328E+01	-6.46953713868E+01
6.48650000000E+07	-2.86692883550E+01	-6.53371467702E+01
6.50600000000E+07	-2.86674263860E+01	-6.55942419513E+01
6.52550000000E+07	-2.87940311802E+01	-6.64837289500E+01
6.54500000000E+07	-2.88801106178E+01	-6.76828254190E+01
6.56450000000E+07	-2.89133438397E+01	-6.81235197396E+01
6.58400000000E+07	-2.90599185048E+01	-6.96033844007E+01
6.60350000000E+07	-2.89132895215E+01	-6.97537698791E+01
6.62300000000E+07	-2.90498424662E+01	-7.01499122381E+01
6.64250000000E+07	-2.91641683978E+01	-7.23453858099E+01
6.66200000000E+07	-2.93420736886E+01	-7.22773707310E+01
6.68150000000E+07	-2.93005467041E+01	-7.32501085897E+01
6.70100000000E+07	-2.93734526119E+01	-7.37565922527E+01
6.72050000000E+07	-2.95913033114E+01	-7.41189320051E+01
6.74000000000E+07	-2.95686180970E+01	-7.42567263390E+01
6.75950000000E+07	-2.96321390092E+01	-7.59816656741E+01
6.77900000000E+07	-2.98107083896E+01	-7.72132558282E+01
6.79850000000E+07	-2.98397138253E+01	-7.70747164842E+01
6.81800000000E+07	-2.97038342003E+01	-7.84601799433E+01
6.83750000000E+07	-3.01006346758E+01	-8.00074040738E+01
6.85700000000E+07	-3.01092156819E+01	-8.02565982933E+01
6.87650000000E+07	-3.02383429424E+01	-8.14229227475E+01
6.89600000000E+07	-3.02963036168E+01	-8.28297502807E+01
6.91550000000E+07	-3.02364556294E+01	-8.31372009790E+01
6.93500000000E+07	-3.02404452651E+01	-8.39795159567E+01
6.95450000000E+07	-3.04382461513E+01	-8.52878334015E+01
6.97400000000E+07	-3.04264890032E+01	-8.52888050965E+01
6.99350000000E+07	-3.06052901276E+01	-8.68288411904E+01
7.01300000000E+07	-3.07801378499E+01	-8.85169449747E+01
7.03250000000E+07	-3.08063950417E+01	-8.87326448471E+01
7.05200000000E+07	-3.09903968453E+01	-8.97910094726E+01
7.07150000000E+07	-3.09679134994E+01	-9.16856725080E+01
7.09100000000E+07	-3.10440621000E+01	-9.16441970104E+01
7.11050000000E+07	-3.12945327588E+01	-9.40795500395E+01
7.13000000000E+07	-3.13693602888E+01	-9.45428236607E+01
7.14950000000E+07	-3.14450614747E+01	-9.51929206284E+01
7.16900000000E+07	-3.13448295595E+01	-9.77113362689E+01
7.18850000000E+07	-3.15785123203E+01	-9.76510497498E+01
7.20800000000E+07	-3.16852343908E+01	-9.93109286638E+01
7.22750000000E+07	-3.17042670099E+01	-9.99428398105E+01
7.24700000000E+07	-3.19104091474E+01	-1.01682973838E+02
7.26650000000E+07	-3.20339013153E+01	-1.02575299469E+02
