# Hz S DB R 50
! CMT, M5045, 22160017, 22.4.3/2
! Date: 1/21/2023 19:36:22
! Data: Format (Calibration Info)
! Freq	S11:dB/Ang(F1)
5.00000000000E+06	-9.67820170201E+00	-7.57024993313E+01
5.19500000000E+06	-1.00185543105E+01	-7.68975365136E+01
5.39000000000E+06	-1.03502060487E+01	-7.76759694930E+01
5.58500000000E+06	-1.06663998582E+01	-7.85863862113E+01
5.78000000000E+06	-1.10246391311E+01	-7.94150246583E+01
5.97500000000E+06	-1.13354139814E+01	-7.99048446575E+01
6.17000000000E+06	-1.16342717418E+01	-8.06057646012E+01
6.36500000000E+06	-1.19503071404E+01	-8.15895590144E+01
6.56000000000E+06	-1.22301659217E+01	-8.20747327989E+01
6.75500000000E+06	-1.25146674952E+01	-8.26814316413E+01
6.95000000000E+06	-1.28160203644E+01	-8.32054940908E+01
7.14500000000E+06	-1.30738137618E+01	-8.37672639763E+01
7.34000000000E+06	-1.33620777256E+01	-8.43772747733E+01
7.53500000000E+06	-1.36407330391E+01	-8.47317219046E+01
7.73000000000E+06	-1.39102702979E+01	-8.51086006555E+01
7.92500000000E+06	-1.41364267201E+01	-8.55587187004E+01
8.12000000000E+06	-1.44023094292E+01	-8.58271895885E+01
8.31500000000E+06	-1.46470538018E+01	-8.64200151516E+01
8.51000000000E+06	-1.48858522925E+01	-8.69507810767E+01
8.70500000000E+06	-1.51133333578E+01	-8.73209111396E+01
8.90000000000E+06	-1.53692625507E+01	-8.75656258870E+01
9.09500000000E+06	-1.56093389560E+01	-8.79165188090E+01
9.29000000000E+06	-1.58397819472E+01	-8.83531518981E+01
9.48500000000E+06	-1.61046424327E+01	-8.86961119126E+01
9.68000000000E+06	-1.63283422811E+01	-8.90507018406E+01
9.87500000000E+06	-1.65238238360E+01	-8.94326419252E+01
1.00700000000E+07	-1.68045826460E+01	-8.97239946573E+01
1.02650000000E+07	-1.69853683350E+01	-8.98389060153E+01
1.04600000000E+07	-1.72192421773E+01	-9.02676980161E+01
1.06550000000E+07	-1.74010613173E+01	-9.05101310537E+01
1.08500000000E+07	-1.76261941046E+01	-9.08442573230E+01
1.10450000000E+07	-1.78692459806E+01	-9.14401766035E+01
1.12400000000E+07	-1.80994608526E+01	-9.13221758690E+01
1.14350000000E+07	-1.82967245713E+01	-9.18407390686E+01
1.16300000000E+07	-1.84692378005E+01	-9.18155032147E+01
1.18250000000E+07	-1.87502573927E+01	-9.21402367829E+01
1.20200000000E+07	-1.89628798883E+01	-9.26364808168E+01
1.22150000000E+07	-1.91314205877E+01	-9.34022734366E+01
1.24100000000E+07	-1.93307415677E+01	-9.29085030021E+01
1.26050000000E+07	-1.95399949271E+01	-9.34868740703E+01
1.28000000000E+07	-1.98005571753E+01	-9.32242327699E+01
1.29950000000E+07	-2.00437234918E+01	-9.36149551002E+01
1.31900000000E+07	-2.02249401547E+01	-9.38983244581E+01
1.33850000000E+07	-2.04072346256E+01	-9.44440605915E+01
1.35800000000E+07	-2.06628568103E+01	-9.43355246460E+01
1.37750000000E+07	-2.08712271813E+01	-9.47728273172E+01
1.39700000000E+07	-2.10770775042E+01	-9.47430036154E+01
1.41650000000E+07	-2.13000437632E+01	-9.47867451951E+01
1.43600000000E+07	-2.15051692262E+01	-9.44608569962E+01
1.45550000000E+07	-2.17550597704E+01	-9.49189675077E+01
1.47500000000E+07	-2.19215199105E+01	-9.49178169094E+01
1.49450000000E+07	-2.20749906180E+01	-9.52025638169E+01
1.51400000000E+07	-2.23255496333E+01	-9.51545623952E+01
1.53350000000E+07	-2.25862187419E+01	-9.53565424123E+01
1.55300000000E+07	-2.28466793017E+01	-9.53426089976E+01
1.57250000000E+07	-2.29945182425E+01	-9.55098411306E+01
1.59200000000E+07	-2.32289058854E+01	-9.54836580785E+01
1.61150000000E+07	-2.34772297179E+01	-9.53873257494E+01
1.63100000000E+07	-2.36718368613E+01	-9.55968872401E+01
1.65050000000E+07	-2.39380575733E+01	-9.53087523783E+01
1.67000000000E+07	-2.41293303857E+01	-9.56728619678E+01
1.68950000000E+07	-2.43578837880E+01	-9.47883013540E+01
1.70900000000E+07	-2.46564260385E+01	-9.50032983931E+01
1.72850000000E+07	-2.48146090351E+01	-9.49716460042E+01
1.74800000000E+07	-2.49907013508E+01	-9.46373173911E+01
1.76750000000E+07	-2.54086305357E+01	-9.42058194638E+01
1.78700000000E+07	-2.55410998530E+01	-9.45556698560E+01
1.80650000000E+07	-2.58041795720E+01	-9.43017377726E+01
1.82600000000E+07	-2.60241582342E+01	-9.35876265853E+01
1.84550000000E+07	-2.62167230088E+01	-9.35876231963E+01
1.86500000000E+07	-2.64012513534E+01	-9.37625239685E+01
1.88450000000E+07	-2.67443193858E+01	-9.29974687348E+01
1.90400000000E+07	-2.69705631615E+01	-9.27218967834E+01
1.92350000000E+07	-2.73854615317E+01	-9.28631029875E+01
1.94300000000E+07	-2.75428292738E+01	-9.19568719342E+01
1.96250000000E+07	-2.77615837472E+01	-9.16589568432E+01
1.98200000000E+07	-2.79053304791E+01	-9.15311565755E+01
2.00150000000E+07	-2.82074706327E+01	-9.07361923807E+01
2.02100000000E+07	-2.84100983854E+01	-9.00003579311E+01
2.04050000000E+07	-2.87643614284E+01	-9.02646227380E+01
2.06000000000E+07	-2.90761716978E+01	-8.93792572267E+01
2.07950000000E+07	-2.93066973989E+01	-8.82955000054E+01
2.09900000000E+07	-2.95815571375E+01	-8.80560511410E+01
2.11850000000E+07	-2.97978877863E+01	-8.73060886414E+01
2.13800000000E+07	-3.02573720909E+01	-8.61250370799E+01
2.15750000000E+07	-3.04141996988E+01	-8.49259944796E+01
2.17700000000E+07	-3.06737204902E+01	-8.41135743844E+01
2.19650000000E+07	-3.09737477710E+01	-8.28681014595E+01
2.21600000000E+07	-3.11584062589E+01	-8.28757348408E+01
2.23550000000E+07	-3.14018409339E+01	-8.14758184641E+01
2.25500000000E+07	-3.17087428351E+01	-7.97808893691E+01
2.27450000000E+07	-3.19190908110E+01	-7.82468757071E+01
2.29400000000E+07	-3.22942467129E+01	-7.75049267393E+01
2.31350000000E+07	-3.25243266365E+01	-7.48321289278E+01
2.33300000000E+07	-3.26575160875E+01	-7.46667401220E+01
2.35250000000E+07	-3.29033214198E+01	-7.24863892356E+01
2.37200000000E+07	-3.33658591709E+01	-6.94719633614E+01
2.39150000000E+07	-3.35105528152E+01	-6.81651613203E+01
2.41100000000E+07	-3.39004883751E+01	-6.58309320116E+01
2.43050000000E+07	-3.39218955239E+01	-6.47980969827E+01
2.45000000000E+07	-3.40591466660E+01	-6.01726302184E+01
2.46950000000E+07	-3.42933975938E+01	-5.76510882719E+01
2.48900000000E+07	-3.43243014487E+01	-5.83808121954E+01
2.50850000000E+07	-3.45072139436E+01	-5.30497437327E+01
2.52800000000E+07	-3.45887244305E+01	-5.23895505320E+01
2.54750000000E+07	-3.46560738170E+01	-5.03397499426E+01
2.56700000000E+07	-3.48672231072E+01	-4.73160971966E+01
2.58650000000E+07	-3.47426901364E+01	-4.51066268111E+01
2.60600000000E+07	-3.47752407971E+01	-4.14195022638E+01
2.62550000000E+07	-3.48876783976E+01	-3.95593791385E+01
2.64500000000E+07	-3.49183910239E+01	-3.68500582287E+01
2.66450000000E+07	-3.46809194965E+01	-3.25178760693E+01
2.68400000000E+07	-3.51134554048E+01	-3.09513172076E+01
2.70350000000E+07	-3.48141147690E+01	-2.93020493793E+01
2.72300000000E+07	-3.46940075989E+01	-2.72027968383E+01
2.74250000000E+07	-3.42227866677E+01	-2.44266709948E+01
2.76200000000E+07	-3.46076908435E+01	-2.34775989190E+01
2.78150000000E+07	-3.44385476519E+01	-2.11633646251E+01
2.80100000000E+07	-3.41744792646E+01	-1.79964938014E+01
2.82050000000E+07	-3.38716601896E+01	-1.66223066204E+01
2.84000000000E+07	-3.38236690108E+01	-1.59314847938E+01
2.85950000000E+07	-3.35223449626E+01	-1.52319891748E+01
2.87900000000E+07	-3.34352793957E+01	-1.29696200605E+01
2.89850000000E+07	-3.32872596018E+01	-1.03468174846E+01
2.91800000000E+07	-3.29355031958E+01	-9.95668492243E+00
2.93750000000E+07	-3.30673925360E+01	-8.63170819079E+00
2.95700000000E+07	-3.27354111905E+01	-7.67916937905E+00
2.97650000000E+07	-3.25966772015E+01	-6.28130742553E+00
2.99600000000E+07	-3.24702730010E+01	-4.66366649729E+00
3.01550000000E+07	-3.22040124034E+01	-4.10427362222E+00
3.03500000000E+07	-3.18661640103E+01	-4.39230525924E+00
3.05450000000E+07	-3.18240862023E+01	-2.14825822517E+00
3.07400000000E+07	-3.16394886329E+01	-1.48802907554E+00
3.09350000000E+07	-3.14424022664E+01	-1.11107313847E+00
3.11300000000E+07	-3.11329321036E+01	1.88898126292E-01
3.13250000000E+07	-3.09758263467E+01	-1.26733586080E-01
3.15200000000E+07	-3.08148464960E+01	4.07242150963E-01
3.17150000000E+07	-3.07144577876E+01	1.33645473302E+00
3.19100000000E+07	-3.04378900559E+01	1.75369401823E+00
3.21050000000E+07	-3.03467997517E+01	1.14026210441E+00
3.23000000000E+07	-3.01669997308E+01	2.42810377178E+00
3.24950000000E+07	-3.01315243258E+01	2.50316673400E+00
3.26900000000E+07	-2.98353594303E+01	2.75195324016E+00
3.28850000000E+07	-2.98364403381E+01	1.38701422269E+00
3.30800000000E+07	-2.97489116280E+01	3.19575718176E+00
3.32750000000E+07	-2.94981578343E+01	2.86897206863E+00
3.34700000000E+07	-2.94509618887E+01	3.29637794921E+00
3.36650000000E+07	-2.92445695397E+01	2.32869624379E+00
3.38600000000E+07	-2.90080046957E+01	3.86122090903E+00
3.40550000000E+07	-2.89312627705E+01	3.93846913231E+00
3.42500000000E+07	-2.87964212795E+01	3.70563172831E+00
3.44450000000E+07	-2.87663808722E+01	4.58420252813E+00
3.46400000000E+07	-2.85267394982E+01	4.65566521490E+00
3.48350000000E+07	-2.83921775881E+01	4.94137585463E+00
3.50300000000E+07	-2.82078199633E+01	4.60241126999E+00
3.52250000000E+07	-2.82088067979E+01	4.18112833623E+00
3.54200000000E+07	-2.80205189689E+01	4.24101112939E+00
3.56150000000E+07	-2.78904288853E+01	4.29991429845E+00
3.58100000000E+07	-2.79039685917E+01	4.37734245987E+00
3.60050000000E+07	-2.77726763710E+01	3.71299883712E+00
3.62000000000E+07	-2.76057134843E+01	3.70085759974E+00
3.63950000000E+07	-2.75767892665E+01	4.47233218213E+00
3.65900000000E+07	-2.74043890260E+01	3.79248204465E+00
3.67850000000E+07	-2.74300578714E+01	3.23117232568E+00
3.69800000000E+07	-2.71624620660E+01	3.07972059384E+00
3.71750000000E+07	-2.71899174324E+01	3.81662094584E+00
3.73700000000E+07	-2.70532296711E+01	3.56917653255E+00
3.75650000000E+07	-2.69760134980E+01	3.71404981164E+00
3.77600000000E+07	-2.68171205744E+01	2.97080502748E+00
3.79550000000E+07	-2.66979091298E+01	3.43019067217E+00
3.81500000000E+07	-2.66466364857E+01	3.37840127386E+00
3.83450000000E+07	-2.65233672337E+01	2.88490160732E+00
3.85400000000E+07	-2.64358807413E+01	2.63230495618E+00
3.87350000000E+07	-2.63817531298E+01	2.60825883635E+00
3.89300000000E+07	-2.62701578204E+01	2.05074309645E+00
3.91250000000E+07	-2.62874948532E+01	2.00207582087E+00
3.93200000000E+07	-2.61912355329E+01	1.93893438771E+00
3.95150000000E+07	-2.61330363068E+01	2.72295797564E+00
3.97100000000E+07	-2.58993744626E+01	1.64807864472E+00
3.99050000000E+07	-2.57899891536E+01	1.90915559659E+00
4.01000000000E+07	-2.58791613120E+01	1.44972205283E+00
4.02950000000E+07	-2.57219253348E+01	1.47452916948E+00
4.04900000000E+07	-2.57342692994E+01	6.83970926679E-01
4.06850000000E+07	-2.56314994080E+01	5.08939718752E-01
4.08800000000E+07	-2.55916655056E+01	8.91841158817E-01
4.10750000000E+07	-2.54757677402E+01	4.20111419713E-01
4.12700000000E+07	-2.53840342160E+01	-2.99550700574E-01
4.14650000000E+07	-2.53886444929E+01	-4.83181414093E-01
4.16600000000E+07	-2.53154193217E+01	-3.17638993607E-01
4.18550000000E+07	-2.53057575383E+01	-1.00296875051E+00
4.20500000000E+07	-2.51986319092E+01	-1.53267054100E+00
4.22450000000E+07	-2.51577702378E+01	-1.29516436419E+00
4.24400000000E+07	-2.50633561362E+01	-2.39199012566E+00
4.26350000000E+07	-2.50114058745E+01	-2.03861531338E+00
4.28300000000E+07	-2.49555360012E+01	-2.89283667478E+00
4.30250000000E+07	-2.48970145431E+01	-2.79065111724E+00
4.32200000000E+07	-2.49050018085E+01	-2.85050120043E+00
4.34150000000E+07	-2.48044895344E+01	-2.89858060738E+00
4.36100000000E+07	-2.47282076592E+01	-3.36493617247E+00
4.38050000000E+07	-2.47248274452E+01	-3.76144175554E+00
4.40000000000E+07	-2.46657993749E+01	-3.78882337501E+00
4.41950000000E+07	-2.46506083747E+01	-4.08358647325E+00
4.43900000000E+07	-2.45668093142E+01	-4.80958187592E+00
4.45850000000E+07	-2.45361922892E+01	-5.45344450195E+00
4.47800000000E+07	-2.45341498533E+01	-5.49300680570E+00
4.49750000000E+07	-2.44840392645E+01	-6.01230965237E+00
4.51700000000E+07	-2.44134320858E+01	-6.13139837642E+00
4.53650000000E+07	-2.43461016372E+01	-6.04419890020E+00
4.55600000000E+07	-2.42658172866E+01	-6.83798347173E+00
4.57550000000E+07	-2.42076107389E+01	-6.75351181112E+00
4.59500000000E+07	-2.42106029262E+01	-7.13677962097E+00
4.61450000000E+07	-2.41719266766E+01	-7.69578147670E+00
4.63400000000E+07	-2.41327787428E+01	-7.67016749032E+00
4.65350000000E+07	-2.40398032695E+01	-8.47958045925E+00
4.67300000000E+07	-2.40707503873E+01	-8.58178018976E+00
4.69250000000E+07	-2.39941617240E+01	-9.20949670189E+00
4.71200000000E+07	-2.39674059062E+01	-9.30377141219E+00
4.73150000000E+07	-2.38777417859E+01	-9.82407500622E+00
4.75100000000E+07	-2.39040911002E+01	-1.02470610751E+01
4.77050000000E+07	-2.38295827763E+01	-1.00978173164E+01
4.79000000000E+07	-2.38173227291E+01	-1.08229245546E+01
4.80950000000E+07	-2.38353757912E+01	-1.12077927335E+01
4.82900000000E+07	-2.38489868831E+01	-1.13591133590E+01
4.84850000000E+07	-2.37599273879E+01	-1.16314511958E+01
4.86800000000E+07	-2.36934301128E+01	-1.19101988519E+01
4.88750000000E+07	-2.36243530821E+01	-1.25521357726E+01
4.90700000000E+07	-2.36971112571E+01	-1.26817578183E+01
4.92650000000E+07	-2.36330904547E+01	-1.29987370523E+01
4.94600000000E+07	-2.36179202056E+01	-1.37056305096E+01
4.96550000000E+07	-2.35656992564E+01	-1.40429276693E+01
4.98500000000E+07	-2.35277618672E+01	-1.47303463591E+01
5.00450000000E+07	-2.35316533108E+01	-1.49238693831E+01
5.02400000000E+07	-2.34987891988E+01	-1.48447443755E+01
5.04350000000E+07	-2.34736707221E+01	-1.52246240779E+01
5.06300000000E+07	-2.34445994715E+01	-1.60814607829E+01
5.08250000000E+07	-2.34644830609E+01	-1.65214726598E+01
5.10200000000E+07	-2.34273308390E+01	-1.66202627907E+01
5.12150000000E+07	-2.33417814760E+01	-1.69251536683E+01
5.14100000000E+07	-2.33948548956E+01	-1.71969048807E+01
5.16050000000E+07	-2.33098184654E+01	-1.78280232969E+01
5.18000000000E+07	-2.33070963204E+01	-1.82004877822E+01
5.19950000000E+07	-2.33318548145E+01	-1.90216541170E+01
5.21900000000E+07	-2.33101166040E+01	-1.94808070823E+01
5.23850000000E+07	-2.32603528055E+01	-1.94711114577E+01
5.25800000000E+07	-2.33026416711E+01	-1.98186742769E+01
5.27750000000E+07	-2.32495590203E+01	-2.05799213802E+01
5.29700000000E+07	-2.32210270885E+01	-2.03485362046E+01
5.31650000000E+07	-2.31555552640E+01	-2.10722466446E+01
5.33600000000E+07	-2.32295607865E+01	-2.13978769795E+01
5.35550000000E+07	-2.32305596821E+01	-2.18468045549E+01
5.37500000000E+07	-2.31800897795E+01	-2.25059326302E+01
5.39450000000E+07	-2.31934144371E+01	-2.25389244014E+01
5.41400000000E+07	-2.32464969467E+01	-2.33617250757E+01
5.43350000000E+07	-2.32084111929E+01	-2.34904275435E+01
5.45300000000E+07	-2.31317407066E+01	-2.38675101076E+01
5.47250000000E+07	-2.31141352653E+01	-2.39087616438E+01
5.49200000000E+07	-2.30978708227E+01	-2.49528930857E+01
5.51150000000E+07	-2.31310322232E+01	-2.49632295643E+01
5.53100000000E+07	-2.31166417375E+01	-2.55931169618E+01
5.55050000000E+07	-2.30400703448E+01	-2.59641153530E+01
5.57000000000E+07	-2.30931897909E+01	-2.61902896807E+01
5.58950000000E+07	-2.30995313342E+01	-2.69120929213E+01
5.60900000000E+07	-2.30204215999E+01	-2.73390392622E+01
5.62850000000E+07	-2.30726268325E+01	-2.76486978704E+01
5.64800000000E+07	-2.31198105045E+01	-2.82069069838E+01
5.66750000000E+07	-2.31145668562E+01	-2.88210014675E+01
5.68700000000E+07	-2.30801885949E+01	-2.91025339210E+01
5.70650000000E+07	-2.30898599263E+01	-2.92922026988E+01
5.72600000000E+07	-2.30318319113E+01	-2.99689506727E+01
5.74550000000E+07	-2.30704470923E+01	-3.02897265320E+01
5.76500000000E+07	-2.31085932510E+01	-3.12771373221E+01
5.78450000000E+07	-2.30500250546E+01	-3.12248441563E+01
5.80400000000E+07	-2.31354889743E+01	-3.17597098656E+01
5.82350000000E+07	-2.31242271417E+01	-3.23075470898E+01
5.84300000000E+07	-2.30852077717E+01	-3.24200678044E+01
5.86250000000E+07	-2.30513636530E+01	-3.32846264677E+01
5.88200000000E+07	-2.31232037065E+01	-3.36363954935E+01
5.90150000000E+07	-2.30854397374E+01	-3.37269190107E+01
5.92100000000E+07	-2.30647783262E+01	-3.46072459748E+01
5.94050000000E+07	-2.30910242048E+01	-3.46892665329E+01
5.96000000000E+07	-2.30775018619E+01	-3.56563386894E+01
5.97950000000E+07	-2.31229357870E+01	-3.58112178271E+01
5.99900000000E+07	-2.30916371354E+01	-3.65175966591E+01
6.01850000000E+07	-2.31549569677E+01	-3.70660233190E+01
6.03800000000E+07	-2.31392305360E+01	-3.70736645900E+01
6.05750000000E+07	-2.31452192259E+01	-3.75613657455E+01
6.07700000000E+07	-2.31563576892E+01	-3.85537024561E+01
6.09650000000E+07	-2.31395865180E+01	-3.88553954282E+01
6.11600000000E+07	-2.32148021392E+01	-3.92323122163E+01
6.13550000000E+07	-2.31406334209E+01	-3.93958864058E+01
6.15500000000E+07	-2.31648690380E+01	-4.01154259105E+01
6.17450000000E+07	-2.32213518291E+01	-4.06441244693E+01
6.19400000000E+07	-2.32071936810E+01	-4.10505371215E+01
6.21350000000E+07	-2.32264356038E+01	-4.13821272973E+01
6.23300000000E+07	-2.32420393615E+01	-4.18945346586E+01
6.25250000000E+07	-2.32638219169E+01	-4.25017217888E+01
6.27200000000E+07	-2.32310397927E+01	-4.30971958357E+01
6.29150000000E+07	-2.32489179289E+01	-4.33029958533E+01
6.31100000000E+07	-2.32487427545E+01	-4.42464802953E+01
6.33050000000E+07	-2.32554215360E+01	-4.45745859793E+01
6.35000000000E+07	-2.33543131539E+01	-4.53234239470E+01
6.36950000000E+07	-2.33648545479E+01	-4.49902758288E+01
6.38900000000E+07	-2.33259122935E+01	-4.60772288158E+01
6.40850000000E+07	-2.33156211385E+01	-4.67204605933E+01
6.42800000000E+07	-2.33634176061E+01	-4.69686780843E+01
6.44750000000E+07	-2.33389187853E+01	-4.76563644631E+01
6.46700000000E+07	-2.34092893503E+01	-4.78401752347E+01
6.48650000000E+07	-2.33560919450E+01	-4.84104797382E+01
6.50600000000E+07	-2.34373346110E+01	-4.92976529688E+01
6.52550000000E+07	-2.34608092400E+01	-4.95095648624E+01
6.54500000000E+07	-2.35004800383E+01	-4.99837648182E+01
6.56450000000E+07	-2.35603046872E+01	-5.01451684373E+01
6.58400000000E+07	-2.35193667857E+01	-5.11308738523E+01
6.60350000000E+07	-2.35532712078E+01	-5.13475887680E+01
6.62300000000E+07	-2.35901740351E+01	-5.21252248911E+01
6.64250000000E+07	-2.35957611607E+01	-5.23361844613E+01
6.66200000000E+07	-2.36160137474E+01	-5.28954951038E+01
6.68150000000E+07	-2.36349574211E+01	-5.35055298613E+01
6.70100000000E+07	-2.36588079630E+01	-5.39685372614E+01
6.72050000000E+07	-2.36954073485E+01	-5.47517680141E+01
6.74000000000E+07	-2.37217843279E+01	-5.51119364100E+01
6.75950000000E+07	-2.37395060225E+01	-5.58119364430E+01
6.77900000000E+07	-2.37653260957E+01	-5.60211077077E+01
6.79850000000E+07	-2.38228633900E+01	-5.69968927003E+01
6.81800000000E+07	-2.37662520222E+01	-5.68791657144E+01
6.83750000000E+07	-2.38571735838E+01	-5.78936457729E+01
6.85700000000E+07	-2.39257087127E+01	-5.80138064136E+01
6.87650000000E+07	-2.38820652396E+01	-5.83308935679E+01
6.89600000000E+07	-2.37947833764E+01	-5.96828851452E+01
6.91550000000E+07	-2.39246666821E+01	-5.95690314315E+01
6.93500000000E+07	-2.39225564038E+01	-6.04324208015E+01
6.95450000000E+07	-2.39688057133E+01	-6.08657633298E+01
6.97400000000E+07	-2.40149614659E+01	-6.15083119709E+01
6.99350000000E+07	-2.40527057957E+01	-6.21460488423E+01
7.01300000000E+07	-2.40558416785E+01	-6.27361736645E+01
7.03250000000E+07	-2.41111088763E+01	-6.27873867387E+01
7.05200000000E+07	-2.41322854908E+01	-6.36134185669E+01
7.07150000000E+07	-2.41639040150E+01	-6.44332966300E+01
7.09100000000E+07	-2.42141292011E+01	-6.54209238898E+01
7.11050000000E+07	-2.42584840598E+01	-6.61329673121E+01
7.13000000000E+07	-2.43040839837E+01	-6.62617286618E+01
7.14950000000E+07	-2.42675888088E+01	-6.66866950213E+01
7.16900000000E+07	-2.43544367475E+01	-6.73143505142E+01
7.18850000000E+07	-2.44011573646E+01	-6.75851458898E+01
7.20800000000E+07	-2.44258262315E+01	-6.82717361006E+01
7.22750000000E+07	-2.45102110474E+01	-6.94219060525E+01
7.24700000000E+07	-2.44740693708E+01	-6.94574092499E+01
7.26650000000E+07	-2.44892499146E+01	-7.03344208739E+01
7.28600000000E+07	-2.45846009926E+01	-7.09217930784E+01
