# Hz S DB R 50
! CMT, M5045, 22160017, 22.4.3/2
! Date: 1/21/2023 19:12:15
! Data: Format (Calibration Info)
! Freq	S11:dB/Ang(F1)
5.00000000000E+06	-9.43110501554E+00	-7.25856749799E+01
5.19500000000E+06	-9.77535407437E+00	-7.35735537727E+01
5.39000000000E+06	-1.00839613916E+01	-7.44098354129E+01
5.58500000000E+06	-1.04112004740E+01	-7.51070157544E+01
5.78000000000E+06	-1.07311537005E+01	-7.57817022142E+01
5.97500000000E+06	-1.10457473175E+01	-7.64904530662E+01
6.17000000000E+06	-1.13310204504E+01	-7.71585336238E+01
6.36500000000E+06	-1.16616109196E+01	-7.77222106239E+01
6.56000000000E+06	-1.19089744357E+01	-7.82947181253E+01
6.75500000000E+06	-1.22469159579E+01	-7.85509235970E+01
6.95000000000E+06	-1.24962413954E+01	-7.93520272815E+01
7.14500000000E+06	-1.27780532896E+01	-7.96487533065E+01
7.34000000000E+06	-1.30543947008E+01	-8.03052771467E+01
7.53500000000E+06	-1.33080289103E+01	-8.04452422785E+01
7.73000000000E+06	-1.35759556400E+01	-8.07490902744E+01
7.92500000000E+06	-1.38413806075E+01	-8.13806245888E+01
8.12000000000E+06	-1.40855969401E+01	-8.18658789049E+01
8.31500000000E+06	-1.43364187758E+01	-8.19019504012E+01
8.51000000000E+06	-1.45684281924E+01	-8.23451618590E+01
8.70500000000E+06	-1.48182553590E+01	-8.27888574216E+01
8.90000000000E+06	-1.50824945158E+01	-8.30821196082E+01
9.09500000000E+06	-1.52767759337E+01	-8.31813003809E+01
9.29000000000E+06	-1.55270301045E+01	-8.32326665495E+01
9.48500000000E+06	-1.57823629400E+01	-8.35754953953E+01
9.68000000000E+06	-1.59936057106E+01	-8.37647895394E+01
9.87500000000E+06	-1.62208309486E+01	-8.41034762707E+01
1.00700000000E+07	-1.64239639329E+01	-8.44499192436E+01
1.02650000000E+07	-1.66869903580E+01	-8.45166911455E+01
1.04600000000E+07	-1.68710818144E+01	-8.48112950387E+01
1.06550000000E+07	-1.71237187925E+01	-8.50437426815E+01
1.08500000000E+07	-1.73137798384E+01	-8.49068137550E+01
1.10450000000E+07	-1.75970212061E+01	-8.53802778422E+01
1.12400000000E+07	-1.77764860115E+01	-8.51925694643E+01
1.14350000000E+07	-1.79931380244E+01	-8.54622863694E+01
1.16300000000E+07	-1.82220705399E+01	-8.54485959318E+01
1.18250000000E+07	-1.83881802442E+01	-8.55724613856E+01
1.20200000000E+07	-1.86374327252E+01	-8.57964749368E+01
1.22150000000E+07	-1.88107584115E+01	-8.55437761859E+01
1.24100000000E+07	-1.90064664824E+01	-8.59055093104E+01
1.26050000000E+07	-1.92648702924E+01	-8.59012420298E+01
1.28000000000E+07	-1.94376279869E+01	-8.60778955061E+01
1.29950000000E+07	-1.96706019927E+01	-8.60993207360E+01
1.31900000000E+07	-1.98103174652E+01	-8.59195404607E+01
1.33850000000E+07	-2.00557888530E+01	-8.57776284608E+01
1.35800000000E+07	-2.02681354396E+01	-8.61924002871E+01
1.37750000000E+07	-2.04764973171E+01	-8.60227556391E+01
1.39700000000E+07	-2.06545037762E+01	-8.62057210235E+01
1.41650000000E+07	-2.08365832081E+01	-8.59196579597E+01
1.43600000000E+07	-2.10893847717E+01	-8.55806288020E+01
1.45550000000E+07	-2.13221568952E+01	-8.54022914621E+01
1.47500000000E+07	-2.15566302296E+01	-8.50608668478E+01
1.49450000000E+07	-2.16936903696E+01	-8.55679392398E+01
1.51400000000E+07	-2.19135464781E+01	-8.52621713461E+01
1.53350000000E+07	-2.20925582323E+01	-8.52548342763E+01
1.55300000000E+07	-2.23475267055E+01	-8.46179858344E+01
1.57250000000E+07	-2.24854736043E+01	-8.45657464616E+01
1.59200000000E+07	-2.27364210354E+01	-8.41752031832E+01
1.61150000000E+07	-2.29172785453E+01	-8.34397069086E+01
1.63100000000E+07	-2.31278163198E+01	-8.35106869577E+01
1.65050000000E+07	-2.33626088131E+01	-8.34744501820E+01
1.67000000000E+07	-2.35995365069E+01	-8.31768166149E+01
1.68950000000E+07	-2.37574001872E+01	-8.26396771814E+01
1.70900000000E+07	-2.39538953947E+01	-8.18599056942E+01
1.72850000000E+07	-2.41191752712E+01	-8.12826685684E+01
1.74800000000E+07	-2.43114313467E+01	-8.11131674539E+01
1.76750000000E+07	-2.45003611396E+01	-8.09500930074E+01
1.78700000000E+07	-2.47825516734E+01	-8.01396104068E+01
1.80650000000E+07	-2.49238803066E+01	-7.89830840899E+01
1.82600000000E+07	-2.51485184479E+01	-7.88424218559E+01
1.84550000000E+07	-2.52779654628E+01	-7.88741773137E+01
1.86500000000E+07	-2.54524926671E+01	-7.79529738390E+01
1.88450000000E+07	-2.57086635140E+01	-7.76123745034E+01
1.90400000000E+07	-2.59089296737E+01	-7.65018701582E+01
1.92350000000E+07	-2.61987397535E+01	-7.62947151139E+01
1.94300000000E+07	-2.63096832392E+01	-7.45414395793E+01
1.96250000000E+07	-2.64647671102E+01	-7.36580680768E+01
1.98200000000E+07	-2.65842028050E+01	-7.35295992934E+01
2.00150000000E+07	-2.67818840023E+01	-7.17320170187E+01
2.02100000000E+07	-2.70424344469E+01	-7.12297179641E+01
2.04050000000E+07	-2.71511652290E+01	-7.05360505195E+01
2.06000000000E+07	-2.73145461389E+01	-6.91084998521E+01
2.07950000000E+07	-2.75083542349E+01	-6.76994034102E+01
2.09900000000E+07	-2.76757526658E+01	-6.66681531399E+01
2.11850000000E+07	-2.77942520854E+01	-6.58317587938E+01
2.13800000000E+07	-2.79377276378E+01	-6.52241017937E+01
2.15750000000E+07	-2.81637583582E+01	-6.37293320257E+01
2.17700000000E+07	-2.82007135409E+01	-6.24253364689E+01
2.19650000000E+07	-2.83451636832E+01	-6.04090841521E+01
2.21600000000E+07	-2.84608056455E+01	-5.96660016804E+01
2.23550000000E+07	-2.85883748810E+01	-5.83847480222E+01
2.25500000000E+07	-2.87186951113E+01	-5.79724253055E+01
2.27450000000E+07	-2.88933116932E+01	-5.59205525431E+01
2.29400000000E+07	-2.88702515039E+01	-5.52725462787E+01
2.31350000000E+07	-2.89345307258E+01	-5.32957228854E+01
2.33300000000E+07	-2.90464577126E+01	-5.12475583379E+01
2.35250000000E+07	-2.89673563134E+01	-5.09606766414E+01
2.37200000000E+07	-2.91722384174E+01	-4.90583452716E+01
2.39150000000E+07	-2.93472726872E+01	-4.83641525046E+01
2.41100000000E+07	-2.93089716354E+01	-4.71739247262E+01
2.43050000000E+07	-2.93225060627E+01	-4.51261860221E+01
2.45000000000E+07	-2.92995723780E+01	-4.32494143984E+01
2.46950000000E+07	-2.93203985423E+01	-4.16610611128E+01
2.48900000000E+07	-2.93880651312E+01	-4.06626850700E+01
2.50850000000E+07	-2.93615791400E+01	-3.95258562928E+01
2.52800000000E+07	-2.92899661566E+01	-3.89358290264E+01
2.54750000000E+07	-2.92550658885E+01	-3.67328229088E+01
2.56700000000E+07	-2.92272885021E+01	-3.55859599221E+01
2.58650000000E+07	-2.92383614856E+01	-3.42265715663E+01
2.60600000000E+07	-2.91303777720E+01	-3.35456500456E+01
2.62550000000E+07	-2.92896556167E+01	-3.25134121889E+01
2.64500000000E+07	-2.90604753781E+01	-3.03170661015E+01
2.66450000000E+07	-2.89763839107E+01	-3.05052957462E+01
2.68400000000E+07	-2.90260774166E+01	-2.80996226402E+01
2.70350000000E+07	-2.88396544040E+01	-2.84367302136E+01
2.72300000000E+07	-2.88853100486E+01	-2.72552514912E+01
2.74250000000E+07	-2.87973214911E+01	-2.56639198189E+01
2.76200000000E+07	-2.88068994322E+01	-2.45983040152E+01
2.78150000000E+07	-2.86997371888E+01	-2.36693460103E+01
2.80100000000E+07	-2.85612607959E+01	-2.26556745659E+01
2.82050000000E+07	-2.85223695517E+01	-2.17653035316E+01
2.84000000000E+07	-2.84045741242E+01	-2.11750429606E+01
2.85950000000E+07	-2.84303883409E+01	-2.08555820121E+01
2.87900000000E+07	-2.82240045364E+01	-1.95489508993E+01
2.89850000000E+07	-2.81002908523E+01	-1.93047779388E+01
2.91800000000E+07	-2.80901790457E+01	-1.85887599695E+01
2.93750000000E+07	-2.78763461730E+01	-1.85485403095E+01
2.95700000000E+07	-2.78406197821E+01	-1.76312403847E+01
2.97650000000E+07	-2.77524822355E+01	-1.70182592432E+01
2.99600000000E+07	-2.76123339733E+01	-1.68602160696E+01
3.01550000000E+07	-2.75005934386E+01	-1.65739185983E+01
3.03500000000E+07	-2.74390844672E+01	-1.56643385356E+01
3.05450000000E+07	-2.72397479365E+01	-1.53263333480E+01
3.07400000000E+07	-2.72114826770E+01	-1.42025969216E+01
3.09350000000E+07	-2.71022868639E+01	-1.43388829970E+01
3.11300000000E+07	-2.69971833711E+01	-1.40008789641E+01
3.13250000000E+07	-2.70389416037E+01	-1.36973155895E+01
3.15200000000E+07	-2.68399859534E+01	-1.35946601404E+01
3.17150000000E+07	-2.68635435777E+01	-1.25248830905E+01
3.19100000000E+07	-2.67356843926E+01	-1.27794420095E+01
3.21050000000E+07	-2.65559169327E+01	-1.23142131368E+01
3.23000000000E+07	-2.64574931673E+01	-1.19506764393E+01
3.24950000000E+07	-2.64220821709E+01	-1.18803457430E+01
3.26900000000E+07	-2.63920087670E+01	-1.23085919252E+01
3.28850000000E+07	-2.62724351004E+01	-1.14579389079E+01
3.30800000000E+07	-2.61865048265E+01	-1.16770913483E+01
3.32750000000E+07	-2.60432850309E+01	-1.10804973726E+01
3.34700000000E+07	-2.59640073928E+01	-1.15160102771E+01
3.36650000000E+07	-2.59431387305E+01	-1.12042308497E+01
3.38600000000E+07	-2.57505663932E+01	-1.08688753252E+01
3.40550000000E+07	-2.56626608009E+01	-1.11322907039E+01
3.42500000000E+07	-2.56554616330E+01	-1.11245940978E+01
3.44450000000E+07	-2.55854888782E+01	-1.06214288087E+01
3.46400000000E+07	-2.54648418337E+01	-1.06861852063E+01
3.48350000000E+07	-2.54521474872E+01	-1.10039940671E+01
3.50300000000E+07	-2.52318408309E+01	-1.08555563265E+01
3.52250000000E+07	-2.52894387485E+01	-1.06752130101E+01
3.54200000000E+07	-2.51930683563E+01	-1.12564026890E+01
3.56150000000E+07	-2.51338790233E+01	-1.07483074257E+01
3.58100000000E+07	-2.50858374629E+01	-1.12076357262E+01
3.60050000000E+07	-2.49586679006E+01	-1.08578020083E+01
3.62000000000E+07	-2.49147035294E+01	-1.07710565949E+01
3.63950000000E+07	-2.47999129049E+01	-1.10045367327E+01
3.65900000000E+07	-2.47477461414E+01	-1.08821055991E+01
3.67850000000E+07	-2.46846626619E+01	-1.06142236485E+01
3.69800000000E+07	-2.45775555150E+01	-1.10761727413E+01
3.71750000000E+07	-2.45464043977E+01	-1.13272798497E+01
3.73700000000E+07	-2.44538433390E+01	-1.12069326750E+01
3.75650000000E+07	-2.44506067689E+01	-1.18550998669E+01
3.77600000000E+07	-2.43261619454E+01	-1.17863352028E+01
3.79550000000E+07	-2.43278022543E+01	-1.16663563694E+01
3.81500000000E+07	-2.42670178381E+01	-1.20065523200E+01
3.83450000000E+07	-2.42262023171E+01	-1.20694770079E+01
3.85400000000E+07	-2.40979964624E+01	-1.20484138632E+01
3.87350000000E+07	-2.39623462889E+01	-1.26872510394E+01
3.89300000000E+07	-2.39700821261E+01	-1.25757446237E+01
3.91250000000E+07	-2.39317922466E+01	-1.26304292730E+01
3.93200000000E+07	-2.37837198112E+01	-1.30817574779E+01
3.95150000000E+07	-2.38256664664E+01	-1.36497980229E+01
3.97100000000E+07	-2.38249378847E+01	-1.33814713837E+01
3.99050000000E+07	-2.37495612967E+01	-1.35021029809E+01
4.01000000000E+07	-2.36412051008E+01	-1.38122880143E+01
4.02950000000E+07	-2.36042004203E+01	-1.40401945805E+01
4.04900000000E+07	-2.35067613008E+01	-1.41653132628E+01
4.06850000000E+07	-2.34832699209E+01	-1.44040973162E+01
4.08800000000E+07	-2.34435987960E+01	-1.41251827701E+01
4.10750000000E+07	-2.33671738474E+01	-1.49120861950E+01
4.12700000000E+07	-2.34087110047E+01	-1.50256432769E+01
4.14650000000E+07	-2.32872242373E+01	-1.55159701692E+01
4.16600000000E+07	-2.32409382216E+01	-1.56618632108E+01
4.18550000000E+07	-2.32025875051E+01	-1.58205575176E+01
4.20500000000E+07	-2.31447239390E+01	-1.63558612376E+01
4.22450000000E+07	-2.32025179978E+01	-1.64700122794E+01
4.24400000000E+07	-2.31104368223E+01	-1.68951590289E+01
4.26350000000E+07	-2.30540071071E+01	-1.70245097186E+01
4.28300000000E+07	-2.30183005583E+01	-1.70490376746E+01
4.30250000000E+07	-2.29316347045E+01	-1.71721646284E+01
4.32200000000E+07	-2.29682524293E+01	-1.78879454306E+01
4.34150000000E+07	-2.29322412660E+01	-1.77029378481E+01
4.36100000000E+07	-2.28383585994E+01	-1.84676008752E+01
4.38050000000E+07	-2.27775184701E+01	-1.84680155232E+01
4.40000000000E+07	-2.27185190095E+01	-1.92120712139E+01
4.41950000000E+07	-2.27691344194E+01	-1.94300677872E+01
4.43900000000E+07	-2.27397078832E+01	-1.94734484959E+01
4.45850000000E+07	-2.26545668262E+01	-1.96101179748E+01
4.47800000000E+07	-2.26849205614E+01	-1.98268703302E+01
4.49750000000E+07	-2.25989109873E+01	-2.07449380876E+01
4.51700000000E+07	-2.26091948808E+01	-2.05732592920E+01
4.53650000000E+07	-2.25362783988E+01	-2.11017756127E+01
4.55600000000E+07	-2.25360286215E+01	-2.16691283044E+01
4.57550000000E+07	-2.25337157583E+01	-2.17388277589E+01
4.59500000000E+07	-2.25261938738E+01	-2.24945474229E+01
4.61450000000E+07	-2.24486712426E+01	-2.22229931195E+01
4.63400000000E+07	-2.24263969538E+01	-2.30726912750E+01
4.65350000000E+07	-2.24136184067E+01	-2.32263160461E+01
4.67300000000E+07	-2.23183027650E+01	-2.33844417206E+01
4.69250000000E+07	-2.22986995003E+01	-2.38063881228E+01
4.71200000000E+07	-2.23453600631E+01	-2.39178025298E+01
4.73150000000E+07	-2.22897121990E+01	-2.45685898097E+01
4.75100000000E+07	-2.22888515126E+01	-2.48863953310E+01
4.77050000000E+07	-2.22804347934E+01	-2.54667724027E+01
4.79000000000E+07	-2.22227587423E+01	-2.60490668834E+01
4.80950000000E+07	-2.22659883281E+01	-2.61037259193E+01
4.82900000000E+07	-2.21574426615E+01	-2.65364210898E+01
4.84850000000E+07	-2.21947862718E+01	-2.68008923580E+01
4.86800000000E+07	-2.21049575077E+01	-2.71365488201E+01
4.88750000000E+07	-2.21381905900E+01	-2.79828431488E+01
4.90700000000E+07	-2.21157602718E+01	-2.77057221795E+01
4.92650000000E+07	-2.21047734549E+01	-2.85254510531E+01
4.94600000000E+07	-2.20634194278E+01	-2.85304159037E+01
4.96550000000E+07	-2.20925085890E+01	-2.92299851433E+01
4.98500000000E+07	-2.20979353623E+01	-2.95773158496E+01
5.00450000000E+07	-2.19829165726E+01	-2.96538802727E+01
5.02400000000E+07	-2.20827321822E+01	-3.04486933790E+01
5.04350000000E+07	-2.20742454772E+01	-3.07565269922E+01
5.06300000000E+07	-2.20259787357E+01	-3.09752120343E+01
5.08250000000E+07	-2.20245793325E+01	-3.13903333559E+01
5.10200000000E+07	-2.20400946806E+01	-3.19893479211E+01
5.12150000000E+07	-2.20264616304E+01	-3.24532857702E+01
5.14100000000E+07	-2.20015045215E+01	-3.30395644596E+01
5.16050000000E+07	-2.19200595760E+01	-3.32399772543E+01
5.18000000000E+07	-2.19808815381E+01	-3.37569929923E+01
5.19950000000E+07	-2.19464239278E+01	-3.40158603088E+01
5.21900000000E+07	-2.19877894338E+01	-3.43913767299E+01
5.23850000000E+07	-2.19349555023E+01	-3.49868529176E+01
5.25800000000E+07	-2.19031143555E+01	-3.51141418383E+01
5.27750000000E+07	-2.19621807184E+01	-3.54954140095E+01
5.29700000000E+07	-2.19470813669E+01	-3.63618650482E+01
5.31650000000E+07	-2.19111372624E+01	-3.68128121966E+01
5.33600000000E+07	-2.19266800872E+01	-3.68284967944E+01
5.35550000000E+07	-2.18932469232E+01	-3.76408862999E+01
5.37500000000E+07	-2.18704166672E+01	-3.78178723070E+01
5.39450000000E+07	-2.18913257850E+01	-3.85524108881E+01
5.41400000000E+07	-2.19465847755E+01	-3.85913634364E+01
5.43350000000E+07	-2.19165792438E+01	-3.95283593519E+01
5.45300000000E+07	-2.18841531113E+01	-3.96819084419E+01
5.47250000000E+07	-2.19556367526E+01	-4.03750306825E+01
5.49200000000E+07	-2.19711594994E+01	-4.04069407335E+01
5.51150000000E+07	-2.19494875568E+01	-4.10619926798E+01
5.53100000000E+07	-2.19304345122E+01	-4.16302292341E+01
5.55050000000E+07	-2.18902341853E+01	-4.19851281624E+01
5.57000000000E+07	-2.19425783706E+01	-4.21746547098E+01
5.58950000000E+07	-2.19239849805E+01	-4.33252656551E+01
5.60900000000E+07	-2.19601613739E+01	-4.34103167754E+01
5.62850000000E+07	-2.19938169366E+01	-4.38431478789E+01
5.64800000000E+07	-2.19160314887E+01	-4.39202870781E+01
5.66750000000E+07	-2.19343843040E+01	-4.50640002063E+01
5.68700000000E+07	-2.19776924756E+01	-4.50979178564E+01
5.70650000000E+07	-2.19942316863E+01	-4.55855216086E+01
5.72600000000E+07	-2.20004968885E+01	-4.64208063109E+01
5.74550000000E+07	-2.19862234550E+01	-4.64452734759E+01
5.76500000000E+07	-2.20070271283E+01	-4.67201925053E+01
5.78450000000E+07	-2.19849216547E+01	-4.74182688168E+01
5.80400000000E+07	-2.20274651225E+01	-4.80641820008E+01
5.82350000000E+07	-2.20130497108E+01	-4.84326670024E+01
5.84300000000E+07	-2.19792324298E+01	-4.90261659584E+01
5.86250000000E+07	-2.20207460938E+01	-4.94357543474E+01
5.88200000000E+07	-2.20270783924E+01	-5.04157528193E+01
5.90150000000E+07	-2.20681426674E+01	-5.04957628777E+01
5.92100000000E+07	-2.20905779963E+01	-5.09900676128E+01
5.94050000000E+07	-2.20839426718E+01	-5.17240392808E+01
5.96000000000E+07	-2.20875899872E+01	-5.17454006191E+01
5.97950000000E+07	-2.21600065737E+01	-5.22693263634E+01
5.99900000000E+07	-2.21296090306E+01	-5.33048327073E+01
6.01850000000E+07	-2.21114185503E+01	-5.33763171906E+01
6.03800000000E+07	-2.21584658577E+01	-5.41528761812E+01
6.05750000000E+07	-2.21350238203E+01	-5.43624469228E+01
6.07700000000E+07	-2.21904876520E+01	-5.51668058330E+01
6.09650000000E+07	-2.22201834396E+01	-5.58590476925E+01
6.11600000000E+07	-2.22184597206E+01	-5.59238514955E+01
6.13550000000E+07	-2.22415249580E+01	-5.63622812095E+01
6.15500000000E+07	-2.22577727353E+01	-5.70409739866E+01
6.17450000000E+07	-2.22864135400E+01	-5.75964367100E+01
6.19400000000E+07	-2.22933209530E+01	-5.79196566946E+01
6.21350000000E+07	-2.23619891333E+01	-5.89149010044E+01
6.23300000000E+07	-2.23708478031E+01	-5.91265389132E+01
6.25250000000E+07	-2.23835188796E+01	-5.98361881529E+01
6.27200000000E+07	-2.24438975326E+01	-6.04853952420E+01
6.29150000000E+07	-2.24713775496E+01	-6.07040645663E+01
6.31100000000E+07	-2.24635230350E+01	-6.12209167860E+01
6.33050000000E+07	-2.24034200238E+01	-6.20471931466E+01
6.35000000000E+07	-2.25506065432E+01	-6.26887901737E+01
6.36950000000E+07	-2.25265264955E+01	-6.34114540998E+01
6.38900000000E+07	-2.25852242739E+01	-6.37315106007E+01
6.40850000000E+07	-2.26055447633E+01	-6.41286294977E+01
6.42800000000E+07	-2.26119879972E+01	-6.49359938926E+01
6.44750000000E+07	-2.26096677875E+01	-6.56645284005E+01
6.46700000000E+07	-2.26615609017E+01	-6.57272339068E+01
6.48650000000E+07	-2.27423021770E+01	-6.62076358693E+01
6.50600000000E+07	-2.27341412155E+01	-6.71072172597E+01
6.52550000000E+07	-2.27672512766E+01	-6.76999787935E+01
6.54500000000E+07	-2.27685279024E+01	-6.79458943660E+01
6.56450000000E+07	-2.28290423222E+01	-6.89843411677E+01
6.58400000000E+07	-2.28850792126E+01	-6.92135110185E+01
6.60350000000E+07	-2.28753046581E+01	-6.99052441774E+01
6.62300000000E+07	-2.29185352640E+01	-7.03652790259E+01
6.64250000000E+07	-2.29552425251E+01	-7.11118927869E+01
6.66200000000E+07	-2.30165245412E+01	-7.18478589225E+01
6.68150000000E+07	-2.30636583689E+01	-7.23393536708E+01
6.70100000000E+07	-2.30329352295E+01	-7.28470332295E+01
6.72050000000E+07	-2.30587444123E+01	-7.38424320164E+01
6.74000000000E+07	-2.30939489103E+01	-7.39359752362E+01
6.75950000000E+07	-2.31067060500E+01	-7.48095978586E+01
6.77900000000E+07	-2.32113052586E+01	-7.55390695381E+01
6.79850000000E+07	-2.32190657246E+01	-7.63044782545E+01
6.81800000000E+07	-2.32760212483E+01	-7.63712008817E+01
6.83750000000E+07	-2.32973228855E+01	-7.70143466140E+01
6.85700000000E+07	-2.33679665182E+01	-7.81370974913E+01
6.87650000000E+07	-2.34739206743E+01	-7.83379185972E+01
6.89600000000E+07	-2.33924425542E+01	-7.88858888459E+01
6.91550000000E+07	-2.34885258251E+01	-8.00349189402E+01
6.93500000000E+07	-2.35532993071E+01	-8.02791141310E+01
6.95450000000E+07	-2.36352511578E+01	-8.13456007885E+01
6.97400000000E+07	-2.35825180056E+01	-8.18999537235E+01
6.99350000000E+07	-2.36979192886E+01	-8.24058905668E+01
7.01300000000E+07	-2.36774078263E+01	-8.30420722673E+01
7.03250000000E+07	-2.36855172110E+01	-8.38506117092E+01
7.05200000000E+07	-2.38384663397E+01	-8.44921285040E+01
7.07150000000E+07	-2.38170534384E+01	-8.52351569169E+01
7.09100000000E+07	-2.38684685572E+01	-8.58356670873E+01
7.11050000000E+07	-2.38852718311E+01	-8.60899158529E+01
7.13000000000E+07	-2.39947171558E+01	-8.71227516558E+01
7.14950000000E+07	-2.40214745577E+01	-8.78053866271E+01
7.16900000000E+07	-2.40242063986E+01	-8.82834978674E+01
7.18850000000E+07	-2.41036211823E+01	-8.95718704024E+01
7.20800000000E+07	-2.40988590678E+01	-9.04034829805E+01
7.22750000000E+07	-2.42906754369E+01	-9.11243091647E+01
7.24700000000E+07	-2.42080901516E+01	-9.19675390730E+01
7.26650000000E+07	-2.42357879291E+01	-9.22660940634E+01
