# Hz S DB R 50
! CMT, M5045, 22160017, 22.4.3/2
! Date: 1/21/2023 20:06:15
! Data: Format (Calibration Info)
! Freq	S11:dB/Ang(F1)
5.00000000000E+06	-9.84351745655E+00	-7.63838362541E+01
5.19500000000E+06	-1.01844820667E+01	-7.71863634939E+01
5.39000000000E+06	-1.05372926950E+01	-7.80427260247E+01
5.58500000000E+06	-1.08308419962E+01	-7.88744318841E+01
5.78000000000E+06	-1.11620635174E+01	-7.96666041520E+01
5.97500000000E+06	-1.14753094554E+01	-8.04455251981E+01
6.17000000000E+06	-1.17697133386E+01	-8.11115979693E+01
6.36500000000E+06	-1.20959582292E+01	-8.18670433506E+01
6.56000000000E+06	-1.23686332784E+01	-8.22398536645E+01
6.75500000000E+06	-1.26137633170E+01	-8.30357747679E+01
6.95000000000E+06	-1.29055015003E+01	-8.35686940695E+01
7.14500000000E+06	-1.31471382829E+01	-8.40939369869E+01
7.34000000000E+06	-1.34183166789E+01	-8.45471831014E+01
7.53500000000E+06	-1.37060067104E+01	-8.49775434598E+01
7.73000000000E+06	-1.39432404619E+01	-8.56171211484E+01
7.92500000000E+06	-1.42195734052E+01	-8.57723517989E+01
8.12000000000E+06	-1.44141809783E+01	-8.65052743110E+01
8.31500000000E+06	-1.46907683863E+01	-8.69316559339E+01
8.51000000000E+06	-1.49113086654E+01	-8.72415221553E+01
8.70500000000E+06	-1.51534476314E+01	-8.76493770291E+01
8.90000000000E+06	-1.53809679955E+01	-8.78798424439E+01
9.09500000000E+06	-1.55995308791E+01	-8.84706921282E+01
9.29000000000E+06	-1.58228648413E+01	-8.89313707025E+01
9.48500000000E+06	-1.60820446328E+01	-8.92895498922E+01
9.68000000000E+06	-1.62831789797E+01	-8.98024192467E+01
9.87500000000E+06	-1.65053426598E+01	-8.99643049294E+01
1.00700000000E+07	-1.67209455058E+01	-9.03015959210E+01
1.02650000000E+07	-1.69176213380E+01	-9.05412403962E+01
1.04600000000E+07	-1.71562518726E+01	-9.09847622459E+01
1.06550000000E+07	-1.73636908742E+01	-9.12052031450E+01
1.08500000000E+07	-1.75438730617E+01	-9.17389694764E+01
1.10450000000E+07	-1.77551353724E+01	-9.22964960016E+01
1.12400000000E+07	-1.79889492722E+01	-9.21345725154E+01
1.14350000000E+07	-1.81657396522E+01	-9.25486182142E+01
1.16300000000E+07	-1.83645121419E+01	-9.30132028335E+01
1.18250000000E+07	-1.84692983449E+01	-9.32634261817E+01
1.20200000000E+07	-1.87674288131E+01	-9.35916199598E+01
1.22150000000E+07	-1.89253435770E+01	-9.36732017053E+01
1.24100000000E+07	-1.91297277534E+01	-9.41298456859E+01
1.26050000000E+07	-1.93012540762E+01	-9.41971329239E+01
1.28000000000E+07	-1.95095016072E+01	-9.47732199124E+01
1.29950000000E+07	-1.96545642176E+01	-9.50363699576E+01
1.31900000000E+07	-1.98936228428E+01	-9.53073301272E+01
1.33850000000E+07	-2.00989907888E+01	-9.52704557386E+01
1.35800000000E+07	-2.02999499606E+01	-9.58598776567E+01
1.37750000000E+07	-2.04960638806E+01	-9.60227622874E+01
1.39700000000E+07	-2.06920120170E+01	-9.61616771474E+01
1.41650000000E+07	-2.08488851708E+01	-9.65530441008E+01
1.43600000000E+07	-2.10497551153E+01	-9.63635926342E+01
1.45550000000E+07	-2.12427949738E+01	-9.66962591497E+01
1.47500000000E+07	-2.13910844513E+01	-9.68944208354E+01
1.49450000000E+07	-2.16434413993E+01	-9.74022798777E+01
1.51400000000E+07	-2.18095394348E+01	-9.72719478023E+01
1.53350000000E+07	-2.19782790057E+01	-9.79985113032E+01
1.55300000000E+07	-2.22690983074E+01	-9.76164228938E+01
1.57250000000E+07	-2.24134185163E+01	-9.81486899090E+01
1.59200000000E+07	-2.25871200216E+01	-9.79006443844E+01
1.61150000000E+07	-2.27715407799E+01	-9.82826920442E+01
1.63100000000E+07	-2.30089652096E+01	-9.82982697435E+01
1.65050000000E+07	-2.31393520206E+01	-9.84029633726E+01
1.67000000000E+07	-2.33646473919E+01	-9.88477044344E+01
1.68950000000E+07	-2.35694058741E+01	-9.89408166051E+01
1.70900000000E+07	-2.37933081731E+01	-9.91119985580E+01
1.72850000000E+07	-2.39668545854E+01	-9.94042659338E+01
1.74800000000E+07	-2.41598632603E+01	-9.93016642728E+01
1.76750000000E+07	-2.43253579233E+01	-9.95699207684E+01
1.78700000000E+07	-2.46319591373E+01	-9.95821819838E+01
1.80650000000E+07	-2.47410636312E+01	-9.97430515676E+01
1.82600000000E+07	-2.49617463089E+01	-9.96423675830E+01
1.84550000000E+07	-2.52330887536E+01	-9.96846145532E+01
1.86500000000E+07	-2.55416609994E+01	-9.91899155698E+01
1.88450000000E+07	-2.55926125185E+01	-1.00044873339E+02
1.90400000000E+07	-2.58394923977E+01	-1.00099888419E+02
1.92350000000E+07	-2.60178561315E+01	-1.00286347971E+02
1.94300000000E+07	-2.62540763079E+01	-9.97941992157E+01
1.96250000000E+07	-2.63956129063E+01	-9.96620789846E+01
1.98200000000E+07	-2.66489923228E+01	-1.00158573232E+02
2.00150000000E+07	-2.69740798436E+01	-1.00261923598E+02
2.02100000000E+07	-2.70373766923E+01	-1.00181943601E+02
2.04050000000E+07	-2.73628677819E+01	-9.92974709052E+01
2.06000000000E+07	-2.75729598640E+01	-1.00008098911E+02
2.07950000000E+07	-2.77661696235E+01	-9.93426981242E+01
2.09900000000E+07	-2.79863063978E+01	-9.96079108390E+01
2.11850000000E+07	-2.82400216490E+01	-9.89782351458E+01
2.13800000000E+07	-2.85272180258E+01	-9.92102991606E+01
2.15750000000E+07	-2.87155256986E+01	-9.95349852620E+01
2.17700000000E+07	-2.88405764968E+01	-9.86077541079E+01
2.19650000000E+07	-2.92376001634E+01	-9.84608409756E+01
2.21600000000E+07	-2.95417782759E+01	-9.76059706433E+01
2.23550000000E+07	-2.96534520065E+01	-9.76113269924E+01
2.25500000000E+07	-3.00192228976E+01	-9.83282932349E+01
2.27450000000E+07	-3.01139194382E+01	-9.73034740975E+01
2.29400000000E+07	-3.04409523918E+01	-9.71111590306E+01
2.31350000000E+07	-3.06132497768E+01	-9.62832031974E+01
2.33300000000E+07	-3.11220298642E+01	-9.67125408677E+01
2.35250000000E+07	-3.12069106994E+01	-9.56440419023E+01
2.37200000000E+07	-3.15684255745E+01	-9.51573960418E+01
2.39150000000E+07	-3.18298362604E+01	-9.47679341547E+01
2.41100000000E+07	-3.20154935045E+01	-9.44929624278E+01
2.43050000000E+07	-3.24791037763E+01	-9.40023049517E+01
2.45000000000E+07	-3.26612831660E+01	-9.23895884781E+01
2.46950000000E+07	-3.30585682749E+01	-9.10140096996E+01
2.48900000000E+07	-3.32091382652E+01	-8.92585622680E+01
2.50850000000E+07	-3.35670651846E+01	-8.99167998423E+01
2.52800000000E+07	-3.39241459150E+01	-8.82956751907E+01
2.54750000000E+07	-3.38420390221E+01	-8.74425411488E+01
2.56700000000E+07	-3.43223139811E+01	-8.73313746358E+01
2.58650000000E+07	-3.45378131014E+01	-8.47836771565E+01
2.60600000000E+07	-3.49066568957E+01	-8.18482264953E+01
2.62550000000E+07	-3.53113470835E+01	-8.22558571331E+01
2.64500000000E+07	-3.56229554683E+01	-8.00116179606E+01
2.66450000000E+07	-3.59488940316E+01	-7.89286179681E+01
2.68400000000E+07	-3.59708821550E+01	-7.62071464773E+01
2.70350000000E+07	-3.64272507447E+01	-7.61198245903E+01
2.72300000000E+07	-3.67393625385E+01	-7.35954228793E+01
2.74250000000E+07	-3.66737736152E+01	-6.96151380345E+01
2.76200000000E+07	-3.68224839244E+01	-6.99769569481E+01
2.78150000000E+07	-3.71594233841E+01	-6.55572777857E+01
2.80100000000E+07	-3.74771255620E+01	-6.40994058814E+01
2.82050000000E+07	-3.77731356645E+01	-6.12748468468E+01
2.84000000000E+07	-3.80491984918E+01	-5.89496077797E+01
2.85950000000E+07	-3.81276700964E+01	-5.66427184593E+01
2.87900000000E+07	-3.84955188003E+01	-5.03486885446E+01
2.89850000000E+07	-3.83281141219E+01	-4.84665941176E+01
2.91800000000E+07	-3.84579445781E+01	-4.69989739560E+01
2.93750000000E+07	-3.81089079277E+01	-4.34114366357E+01
2.95700000000E+07	-3.84540553890E+01	-4.14422189068E+01
2.97650000000E+07	-3.83456414445E+01	-3.67813784307E+01
2.99600000000E+07	-3.80846971084E+01	-3.48463636638E+01
3.01550000000E+07	-3.81371199820E+01	-3.34909063472E+01
3.03500000000E+07	-3.80711795041E+01	-2.81078014590E+01
3.05450000000E+07	-3.79434973291E+01	-2.77669205625E+01
3.07400000000E+07	-3.78889673819E+01	-2.56962775081E+01
3.09350000000E+07	-3.77254676347E+01	-2.19141737988E+01
3.11300000000E+07	-3.77116032546E+01	-2.07039605095E+01
3.13250000000E+07	-3.76235220163E+01	-1.73678176593E+01
3.15200000000E+07	-3.72023199815E+01	-1.65322941236E+01
3.17150000000E+07	-3.71006184380E+01	-1.41281495770E+01
3.19100000000E+07	-3.69775833866E+01	-1.31530983044E+01
3.21050000000E+07	-3.66160461855E+01	-1.20521666692E+01
3.23000000000E+07	-3.64053480341E+01	-1.10761467821E+01
3.24950000000E+07	-3.64427760546E+01	-7.39148952881E+00
3.26900000000E+07	-3.60506119314E+01	-8.64412991090E+00
3.28850000000E+07	-3.56436755242E+01	-4.97468015633E+00
3.30800000000E+07	-3.55700948921E+01	-4.49603493113E+00
3.32750000000E+07	-3.52365846762E+01	-5.60399942198E+00
3.34700000000E+07	-3.52678302081E+01	-4.03088559689E+00
3.36650000000E+07	-3.49268597749E+01	-2.80729274835E+00
3.38600000000E+07	-3.47166101122E+01	-2.81171736323E+00
3.40550000000E+07	-3.47189808978E+01	-5.43682668637E-01
3.42500000000E+07	-3.43396043290E+01	1.43241642811E-01
3.44450000000E+07	-3.41887243261E+01	-4.72979537018E-01
3.46400000000E+07	-3.42032149891E+01	1.26958571472E+00
3.48350000000E+07	-3.39189219690E+01	1.79732385899E+00
3.50300000000E+07	-3.36698200229E+01	3.00381607450E+00
3.52250000000E+07	-3.34440446014E+01	2.90960951064E+00
3.54200000000E+07	-3.34124396859E+01	2.51959220166E+00
3.56150000000E+07	-3.31461280018E+01	2.34839963133E+00
3.58100000000E+07	-3.29745611592E+01	2.24124953564E+00
3.60050000000E+07	-3.28444519892E+01	3.71996990133E+00
3.62000000000E+07	-3.27228289684E+01	5.21671106218E+00
3.63950000000E+07	-3.23815857226E+01	3.18899495002E+00
3.65900000000E+07	-3.23142388523E+01	4.68256024569E+00
3.67850000000E+07	-3.22342564439E+01	3.52844413083E+00
3.69800000000E+07	-3.20819555412E+01	3.26750761847E+00
3.71750000000E+07	-3.18131049450E+01	3.91090314176E+00
3.73700000000E+07	-3.19778416912E+01	5.13723221031E+00
3.75650000000E+07	-3.18108670067E+01	5.80955613932E+00
3.77600000000E+07	-3.16103269845E+01	4.63646261837E+00
3.79550000000E+07	-3.15359424785E+01	4.35063242073E+00
3.81500000000E+07	-3.14014178553E+01	4.28380844280E+00
3.83450000000E+07	-3.12567671194E+01	4.77580923541E+00
3.85400000000E+07	-3.11898287639E+01	4.13948276188E+00
3.87350000000E+07	-3.08689777711E+01	4.41607696305E+00
3.89300000000E+07	-3.08944758270E+01	5.05162139579E+00
3.91250000000E+07	-3.08299747972E+01	4.45909548737E+00
3.93200000000E+07	-3.07110789893E+01	4.29395883945E+00
3.95150000000E+07	-3.04891209067E+01	4.22867038601E+00
3.97100000000E+07	-3.04624168726E+01	4.32453953852E+00
3.99050000000E+07	-3.04343561095E+01	4.76198502809E+00
4.01000000000E+07	-3.03398780522E+01	4.78437655178E+00
4.02950000000E+07	-3.01412358758E+01	4.45427130034E+00
4.04900000000E+07	-3.01194522867E+01	4.99891416759E+00
4.06850000000E+07	-2.98757779824E+01	3.86776374619E+00
4.08800000000E+07	-2.98148994975E+01	3.57143409879E+00
4.10750000000E+07	-2.98129108260E+01	3.52018230482E+00
4.12700000000E+07	-2.98345667727E+01	3.50017975606E+00
4.14650000000E+07	-2.97003563577E+01	3.65880680722E+00
4.16600000000E+07	-2.97178175710E+01	2.79387570466E+00
4.18550000000E+07	-2.95031786413E+01	3.25154715040E+00
4.20500000000E+07	-2.93702085286E+01	2.70129920786E+00
4.22450000000E+07	-2.92366320179E+01	2.05555479860E+00
4.24400000000E+07	-2.93088529641E+01	1.69459992227E+00
4.26350000000E+07	-2.92100271423E+01	2.06238260881E+00
4.28300000000E+07	-2.91663762462E+01	1.86879779488E+00
4.30250000000E+07	-2.90403073019E+01	1.72263722701E+00
4.32200000000E+07	-2.89289849733E+01	1.59340681000E+00
4.34150000000E+07	-2.88903221854E+01	1.58224105309E+00
4.36100000000E+07	-2.88578696676E+01	5.65040164751E-01
4.38050000000E+07	-2.87928049887E+01	2.69407904933E-01
4.40000000000E+07	-2.87834527551E+01	1.97351205753E-01
4.41950000000E+07	-2.88169934512E+01	5.21452507824E-04
4.43900000000E+07	-2.86584390484E+01	-5.35833921603E-01
4.45850000000E+07	-2.86608564180E+01	-2.45662057492E-01
4.47800000000E+07	-2.84618166164E+01	-7.31668653377E-01
4.49750000000E+07	-2.85194457611E+01	-7.96967753290E-01
4.51700000000E+07	-2.84091346343E+01	-1.14281886716E+00
4.53650000000E+07	-2.84355106495E+01	-2.59841662376E+00
4.55600000000E+07	-2.82181459114E+01	-1.66519635792E+00
4.57550000000E+07	-2.82728010064E+01	-1.78828094423E+00
4.59500000000E+07	-2.82760462421E+01	-1.94574040067E+00
4.61450000000E+07	-2.82097675448E+01	-2.28995928349E+00
4.63400000000E+07	-2.81433647268E+01	-2.65198237431E+00
4.65350000000E+07	-2.81481267526E+01	-3.62119281870E+00
4.67300000000E+07	-2.81449266939E+01	-3.60398993184E+00
4.69250000000E+07	-2.80722383004E+01	-3.87555378060E+00
4.71200000000E+07	-2.81281112082E+01	-3.73481874027E+00
4.73150000000E+07	-2.79477571280E+01	-5.22835221791E+00
4.75100000000E+07	-2.80360780741E+01	-4.90139977820E+00
4.77050000000E+07	-2.78840003369E+01	-5.78618454148E+00
4.79000000000E+07	-2.79156191559E+01	-5.55321823361E+00
4.80950000000E+07	-2.79318408776E+01	-6.24673341822E+00
4.82900000000E+07	-2.77951172625E+01	-5.59202573794E+00
4.84850000000E+07	-2.78186411014E+01	-6.81947680713E+00
4.86800000000E+07	-2.77662951800E+01	-6.89158483582E+00
4.88750000000E+07	-2.78139523834E+01	-7.20106964066E+00
4.90700000000E+07	-2.77682911572E+01	-7.63479296520E+00
4.92650000000E+07	-2.77374195253E+01	-7.82385436335E+00
4.94600000000E+07	-2.77097327326E+01	-8.26966142780E+00
4.96550000000E+07	-2.77050075982E+01	-8.79152587927E+00
4.98500000000E+07	-2.76191672136E+01	-8.49018161215E+00
5.00450000000E+07	-2.76220567950E+01	-9.23302804540E+00
5.02400000000E+07	-2.75855073025E+01	-9.43384539840E+00
5.04350000000E+07	-2.75860687222E+01	-1.00352534882E+01
5.06300000000E+07	-2.75035404476E+01	-1.05660752372E+01
5.08250000000E+07	-2.75617764975E+01	-1.09250247029E+01
5.10200000000E+07	-2.75914530557E+01	-1.13487579697E+01
5.12150000000E+07	-2.75694491215E+01	-1.13482089836E+01
5.14100000000E+07	-2.75997052848E+01	-1.21855936121E+01
5.16050000000E+07	-2.75102252992E+01	-1.23996362671E+01
5.18000000000E+07	-2.74856563178E+01	-1.24595924186E+01
5.19950000000E+07	-2.75092569372E+01	-1.31040989902E+01
5.21900000000E+07	-2.75015796782E+01	-1.35626368819E+01
5.23850000000E+07	-2.74510812409E+01	-1.48519243041E+01
5.25800000000E+07	-2.75673564497E+01	-1.47404894279E+01
5.27750000000E+07	-2.75995708801E+01	-1.50986976302E+01
5.29700000000E+07	-2.75684087435E+01	-1.53349370117E+01
5.31650000000E+07	-2.74576660260E+01	-1.55646243869E+01
5.33600000000E+07	-2.76017118827E+01	-1.62389679067E+01
5.35550000000E+07	-2.75189894384E+01	-1.67511005960E+01
5.37500000000E+07	-2.75473891571E+01	-1.69850597252E+01
5.39450000000E+07	-2.76797379902E+01	-1.77372843877E+01
5.41400000000E+07	-2.75561544253E+01	-1.83327419191E+01
5.43350000000E+07	-2.76133253968E+01	-1.82514542326E+01
5.45300000000E+07	-2.76308697168E+01	-1.90396011301E+01
5.47250000000E+07	-2.76525704428E+01	-1.91432657584E+01
5.49200000000E+07	-2.76246661805E+01	-1.98357213575E+01
5.51150000000E+07	-2.76899502146E+01	-2.04758342123E+01
5.53100000000E+07	-2.77024071027E+01	-2.07042516925E+01
5.55050000000E+07	-2.77565888726E+01	-2.17419348492E+01
5.57000000000E+07	-2.76998962676E+01	-2.11091050134E+01
5.58950000000E+07	-2.78012836810E+01	-2.22626003839E+01
5.60900000000E+07	-2.77380548818E+01	-2.23384194208E+01
5.62850000000E+07	-2.78536915631E+01	-2.27210787195E+01
5.64800000000E+07	-2.77943000111E+01	-2.25065642482E+01
5.66750000000E+07	-2.78635273175E+01	-2.31099774069E+01
5.68700000000E+07	-2.78127125206E+01	-2.42216057982E+01
5.70650000000E+07	-2.78980702293E+01	-2.41455569922E+01
5.72600000000E+07	-2.79597943698E+01	-2.39758855310E+01
5.74550000000E+07	-2.79804997237E+01	-2.53402876353E+01
5.76500000000E+07	-2.79540178250E+01	-2.63676356123E+01
5.78450000000E+07	-2.80451563049E+01	-2.63085209313E+01
5.80400000000E+07	-2.81150905990E+01	-2.66645739239E+01
5.82350000000E+07	-2.80590675398E+01	-2.75768535668E+01
5.84300000000E+07	-2.81630461676E+01	-2.74345760907E+01
5.86250000000E+07	-2.81519273096E+01	-2.82154344477E+01
5.88200000000E+07	-2.81848038094E+01	-2.90220137945E+01
5.90150000000E+07	-2.81261240555E+01	-2.88640932792E+01
5.92100000000E+07	-2.82449691229E+01	-2.88435765900E+01
5.94050000000E+07	-2.82779752501E+01	-2.96930342391E+01
5.96000000000E+07	-2.83055546534E+01	-2.99335778620E+01
5.97950000000E+07	-2.83608688405E+01	-3.13491929269E+01
5.99900000000E+07	-2.84567801759E+01	-3.09710221626E+01
6.01850000000E+07	-2.84784343384E+01	-3.16738675760E+01
6.03800000000E+07	-2.86184496152E+01	-3.23432155263E+01
6.05750000000E+07	-2.84878341943E+01	-3.25507097138E+01
6.07700000000E+07	-2.85155133731E+01	-3.28803080170E+01
6.09650000000E+07	-2.86845364412E+01	-3.33446924983E+01
6.11600000000E+07	-2.88035807271E+01	-3.46332592337E+01
6.13550000000E+07	-2.86444792307E+01	-3.47770814120E+01
6.15500000000E+07	-2.89259663675E+01	-3.51531086386E+01
6.17450000000E+07	-2.88331712398E+01	-3.54304250404E+01
6.19400000000E+07	-2.89610376902E+01	-3.58068005587E+01
6.21350000000E+07	-2.89364727881E+01	-3.71866615450E+01
6.23300000000E+07	-2.90988761262E+01	-3.74160564374E+01
6.25250000000E+07	-2.90668538539E+01	-3.76849870397E+01
6.27200000000E+07	-2.91272475440E+01	-3.82912399772E+01
6.29150000000E+07	-2.91538100085E+01	-3.88994551386E+01
6.31100000000E+07	-2.92740041289E+01	-3.97497705029E+01
6.33050000000E+07	-2.92876115032E+01	-4.07246582373E+01
6.35000000000E+07	-2.94876564831E+01	-4.03459271560E+01
6.36950000000E+07	-2.94242964157E+01	-4.12204610783E+01
6.38900000000E+07	-2.96394006219E+01	-4.12902421481E+01
6.40850000000E+07	-2.96484738675E+01	-4.20738580158E+01
6.42800000000E+07	-2.96846628743E+01	-4.19293195188E+01
6.44750000000E+07	-2.97851010323E+01	-4.28119471904E+01
6.46700000000E+07	-2.98819275302E+01	-4.46291742065E+01
6.48650000000E+07	-2.99393932157E+01	-4.50392245868E+01
6.50600000000E+07	-3.01895663878E+01	-4.43934320743E+01
6.52550000000E+07	-3.01218005403E+01	-4.47080077929E+01
6.54500000000E+07	-3.02775109247E+01	-4.61399708438E+01
6.56450000000E+07	-3.03126794247E+01	-4.60420147726E+01
6.58400000000E+07	-3.05486296508E+01	-4.66708623545E+01
6.60350000000E+07	-3.04749743827E+01	-4.73961645266E+01
6.62300000000E+07	-3.06067453850E+01	-4.79866358168E+01
6.64250000000E+07	-3.07885383309E+01	-4.87991881586E+01
6.66200000000E+07	-3.06819108096E+01	-4.83107913981E+01
6.68150000000E+07	-3.09596436692E+01	-5.01242859695E+01
6.70100000000E+07	-3.10561549992E+01	-5.05817171908E+01
6.72050000000E+07	-3.11122323750E+01	-5.23423916599E+01
6.74000000000E+07	-3.13635159663E+01	-5.24078275062E+01
6.75950000000E+07	-3.13549424210E+01	-5.27266813031E+01
6.77900000000E+07	-3.14310435409E+01	-5.35968722197E+01
6.79850000000E+07	-3.16683686090E+01	-5.49035594069E+01
6.81800000000E+07	-3.19657061381E+01	-5.51665432270E+01
6.83750000000E+07	-3.18806861902E+01	-5.66425894117E+01
6.85700000000E+07	-3.19981428028E+01	-5.60372234777E+01
6.87650000000E+07	-3.22583637018E+01	-5.71514288942E+01
6.89600000000E+07	-3.23083744447E+01	-5.81208927508E+01
6.91550000000E+07	-3.24536356699E+01	-5.92705216330E+01
6.93500000000E+07	-3.24677425506E+01	-6.03999722923E+01
6.95450000000E+07	-3.25597079039E+01	-6.03301354299E+01
6.97400000000E+07	-3.28219375149E+01	-6.13483882249E+01
6.99350000000E+07	-3.27766048755E+01	-6.14969246580E+01
7.01300000000E+07	-3.31965758659E+01	-6.34609387315E+01
7.03250000000E+07	-3.31402176647E+01	-6.17857198335E+01
7.05200000000E+07	-3.34154496578E+01	-6.40586187851E+01
7.07150000000E+07	-3.37004240237E+01	-6.57548423604E+01
7.09100000000E+07	-3.36315427364E+01	-6.54580961839E+01
7.11050000000E+07	-3.39810883139E+01	-6.77972192472E+01
7.13000000000E+07	-3.41659018900E+01	-6.84650389126E+01
7.14950000000E+07	-3.43869954729E+01	-6.94120582428E+01
7.16900000000E+07	-3.45486194055E+01	-7.12877509843E+01
7.18850000000E+07	-3.48114235582E+01	-7.19154338778E+01
7.20800000000E+07	-3.51088506291E+01	-7.22538205933E+01
7.22750000000E+07	-3.49178547858E+01	-7.18834339946E+01
7.24700000000E+07	-3.51377430960E+01	-7.48907328440E+01
7.26650000000E+07	-3.55590462600E+01	-7.54355419972E+01
7.28600000000E+07	-3.57530242823E+01	-7.72928079052E+01
