# Hz S DB R 50
! CMT, M5045, 22160017, 22.4.3/2
! Date: 1/21/2023 19:50:09
! Data: Format (Calibration Info)
! Freq	S11:dB/Ang(F1)
5.00000000000E+06	-9.92015042965E+00	-7.53407193236E+01
5.19500000000E+06	-1.02954476951E+01	-7.61949626222E+01
5.39000000000E+06	-1.06173198526E+01	-7.70399219225E+01
5.58500000000E+06	-1.09622861442E+01	-7.77300781156E+01
5.78000000000E+06	-1.12734027293E+01	-7.84624684287E+01
5.97500000000E+06	-1.16182893195E+01	-7.91073907296E+01
6.17000000000E+06	-1.18918461767E+01	-7.95764801846E+01
6.36500000000E+06	-1.21767218931E+01	-8.02990517225E+01
6.56000000000E+06	-1.24868028344E+01	-8.07402251015E+01
6.75500000000E+06	-1.27877428851E+01	-8.11914901529E+01
6.95000000000E+06	-1.30236187744E+01	-8.18138142236E+01
7.14500000000E+06	-1.33092800795E+01	-8.21349948163E+01
7.34000000000E+06	-1.35628800686E+01	-8.26102523085E+01
7.53500000000E+06	-1.38259452650E+01	-8.27712218299E+01
7.73000000000E+06	-1.41024328278E+01	-8.31416914802E+01
7.92500000000E+06	-1.42920353400E+01	-8.35126279577E+01
8.12000000000E+06	-1.45742225080E+01	-8.38513424019E+01
8.31500000000E+06	-1.48288146724E+01	-8.43644075821E+01
8.51000000000E+06	-1.50562666882E+01	-8.47236229145E+01
8.70500000000E+06	-1.52935047560E+01	-8.48903812335E+01
8.90000000000E+06	-1.54779907735E+01	-8.52727699917E+01
9.09500000000E+06	-1.57281012564E+01	-8.56318347219E+01
9.29000000000E+06	-1.59458622127E+01	-8.57047814344E+01
9.48500000000E+06	-1.61526361808E+01	-8.60346268155E+01
9.68000000000E+06	-1.63984037458E+01	-8.63737078472E+01
9.87500000000E+06	-1.66407127440E+01	-8.64482360393E+01
1.00700000000E+07	-1.68461849626E+01	-8.68805653043E+01
1.02650000000E+07	-1.70264724357E+01	-8.70396531367E+01
1.04600000000E+07	-1.72671907002E+01	-8.71705880280E+01
1.06550000000E+07	-1.74137176301E+01	-8.75202536879E+01
1.08500000000E+07	-1.76103635514E+01	-8.75162796907E+01
1.10450000000E+07	-1.78142294206E+01	-8.79521115015E+01
1.12400000000E+07	-1.80182828521E+01	-8.80808543924E+01
1.14350000000E+07	-1.82175454987E+01	-8.80802432040E+01
1.16300000000E+07	-1.83935852545E+01	-8.86779809892E+01
1.18250000000E+07	-1.85834568618E+01	-8.89015994305E+01
1.20200000000E+07	-1.87330772579E+01	-8.89212367356E+01
1.22150000000E+07	-1.89682050965E+01	-8.90906137265E+01
1.24100000000E+07	-1.91053394145E+01	-8.92900320524E+01
1.26050000000E+07	-1.93854221505E+01	-8.94441560661E+01
1.28000000000E+07	-1.95411201352E+01	-8.96664887657E+01
1.29950000000E+07	-1.97302828312E+01	-8.97296360023E+01
1.31900000000E+07	-1.98919908646E+01	-8.97074819071E+01
1.33850000000E+07	-2.00837398450E+01	-9.00423255006E+01
1.35800000000E+07	-2.02072511619E+01	-9.01713090144E+01
1.37750000000E+07	-2.04260039698E+01	-9.02172771756E+01
1.39700000000E+07	-2.06110851040E+01	-9.03862421659E+01
1.41650000000E+07	-2.08329732198E+01	-9.05278586382E+01
1.43600000000E+07	-2.10051121523E+01	-9.06853708635E+01
1.45550000000E+07	-2.12323583983E+01	-9.08771116295E+01
1.47500000000E+07	-2.13768336361E+01	-9.06818216280E+01
1.49450000000E+07	-2.15358691356E+01	-9.08718555582E+01
1.51400000000E+07	-2.17056807058E+01	-9.04464194992E+01
1.53350000000E+07	-2.19299745112E+01	-9.11724270783E+01
1.55300000000E+07	-2.21079952970E+01	-9.12304871044E+01
1.57250000000E+07	-2.22567371120E+01	-9.11664547908E+01
1.59200000000E+07	-2.23741567511E+01	-9.10828685912E+01
1.61150000000E+07	-2.26509982757E+01	-9.07112758800E+01
1.63100000000E+07	-2.27980054595E+01	-9.09519815696E+01
1.65050000000E+07	-2.29952988321E+01	-9.12622707766E+01
1.67000000000E+07	-2.31130805314E+01	-9.05753445467E+01
1.68950000000E+07	-2.34315680645E+01	-9.09155747241E+01
1.70900000000E+07	-2.35345193463E+01	-9.15287366168E+01
1.72850000000E+07	-2.37145534728E+01	-9.05160639841E+01
1.74800000000E+07	-2.38455995917E+01	-9.05616859176E+01
1.76750000000E+07	-2.39676508180E+01	-9.07119533594E+01
1.78700000000E+07	-2.41989308061E+01	-9.07412611043E+01
1.80650000000E+07	-2.44151980596E+01	-9.09270713896E+01
1.82600000000E+07	-2.45579431400E+01	-9.05113588038E+01
1.84550000000E+07	-2.47399080479E+01	-9.03601178730E+01
1.86500000000E+07	-2.49163865250E+01	-9.04816798701E+01
1.88450000000E+07	-2.50777182940E+01	-9.00020386632E+01
1.90400000000E+07	-2.53240459936E+01	-9.05270627635E+01
1.92350000000E+07	-2.54498103775E+01	-8.95673396039E+01
1.94300000000E+07	-2.56072325122E+01	-8.99073360917E+01
1.96250000000E+07	-2.58563421712E+01	-8.97719695146E+01
1.98200000000E+07	-2.60219596406E+01	-8.95095206923E+01
2.00150000000E+07	-2.62446074642E+01	-8.89367008091E+01
2.02100000000E+07	-2.64557092513E+01	-8.85875116850E+01
2.04050000000E+07	-2.66203664845E+01	-8.91216226901E+01
2.06000000000E+07	-2.68102927899E+01	-8.84424726773E+01
2.07950000000E+07	-2.69723466352E+01	-8.76500679345E+01
2.09900000000E+07	-2.71600081084E+01	-8.79570453897E+01
2.11850000000E+07	-2.73080676936E+01	-8.72582611345E+01
2.13800000000E+07	-2.75808936084E+01	-8.69395542579E+01
2.15750000000E+07	-2.77018645327E+01	-8.68392713271E+01
2.17700000000E+07	-2.78787336197E+01	-8.67885211117E+01
2.19650000000E+07	-2.81848126469E+01	-8.57277375091E+01
2.21600000000E+07	-2.82530492967E+01	-8.46359119790E+01
2.23550000000E+07	-2.84845462875E+01	-8.51534404262E+01
2.25500000000E+07	-2.86448944223E+01	-8.47548641739E+01
2.27450000000E+07	-2.89434639659E+01	-8.45100240973E+01
2.29400000000E+07	-2.90866981423E+01	-8.39142870345E+01
2.31350000000E+07	-2.91468627270E+01	-8.31987283362E+01
2.33300000000E+07	-2.93007377557E+01	-8.19739684283E+01
2.35250000000E+07	-2.94797975912E+01	-8.08797898223E+01
2.37200000000E+07	-3.00414965242E+01	-8.12291191545E+01
2.39150000000E+07	-3.01775720504E+01	-8.01673666130E+01
2.41100000000E+07	-3.02822513439E+01	-7.95423894013E+01
2.43050000000E+07	-3.04408290371E+01	-7.94914047433E+01
2.45000000000E+07	-3.07001115556E+01	-7.79219251424E+01
2.46950000000E+07	-3.07246378727E+01	-7.76065620172E+01
2.48900000000E+07	-3.09927254398E+01	-7.70668077965E+01
2.50850000000E+07	-3.12673406737E+01	-7.50851451477E+01
2.52800000000E+07	-3.11789949188E+01	-7.49979810539E+01
2.54750000000E+07	-3.14884183101E+01	-7.32538758546E+01
2.56700000000E+07	-3.16929452040E+01	-7.21715642019E+01
2.58650000000E+07	-3.17348812226E+01	-7.19230692937E+01
2.60600000000E+07	-3.17612938880E+01	-7.03979320844E+01
2.62550000000E+07	-3.21493578055E+01	-6.97256885818E+01
2.64500000000E+07	-3.23242561253E+01	-6.82033853632E+01
2.66450000000E+07	-3.23031729140E+01	-6.74779552004E+01
2.68400000000E+07	-3.27658535848E+01	-6.50616471700E+01
2.70350000000E+07	-3.27782997767E+01	-6.44575934007E+01
2.72300000000E+07	-3.28955846764E+01	-6.36604069864E+01
2.74250000000E+07	-3.30631713860E+01	-6.16568529713E+01
2.76200000000E+07	-3.31991161717E+01	-5.92146034106E+01
2.78150000000E+07	-3.33611951533E+01	-5.84752800854E+01
2.80100000000E+07	-3.34749606409E+01	-5.69222493148E+01
2.82050000000E+07	-3.37629462307E+01	-5.67680263708E+01
2.84000000000E+07	-3.35589877453E+01	-5.40319236088E+01
2.85950000000E+07	-3.36447430145E+01	-5.30286012144E+01
2.87900000000E+07	-3.36627069257E+01	-5.03662162074E+01
2.89850000000E+07	-3.36872393181E+01	-4.96775981753E+01
2.91800000000E+07	-3.36737127580E+01	-4.90678170109E+01
2.93750000000E+07	-3.39016774177E+01	-4.68905364184E+01
2.95700000000E+07	-3.37992017841E+01	-4.53539841325E+01
2.97650000000E+07	-3.39334942144E+01	-4.33168730066E+01
2.99600000000E+07	-3.37820643800E+01	-4.12016268081E+01
3.01550000000E+07	-3.36493559481E+01	-4.19136719910E+01
3.03500000000E+07	-3.38329150219E+01	-3.69231375124E+01
3.05450000000E+07	-3.36383237552E+01	-3.66764036273E+01
3.07400000000E+07	-3.37885755940E+01	-3.61285122887E+01
3.09350000000E+07	-3.37962168554E+01	-3.53087125851E+01
3.11300000000E+07	-3.36217273873E+01	-3.25882883109E+01
3.13250000000E+07	-3.36526538102E+01	-3.12947533453E+01
3.15200000000E+07	-3.34283293132E+01	-3.10834067884E+01
3.17150000000E+07	-3.34402803529E+01	-2.94308859520E+01
3.19100000000E+07	-3.34243663003E+01	-2.86664133260E+01
3.21050000000E+07	-3.35183732403E+01	-2.80371797346E+01
3.23000000000E+07	-3.33931915577E+01	-2.60428194690E+01
3.24950000000E+07	-3.32815170680E+01	-2.53056304343E+01
3.26900000000E+07	-3.31533870774E+01	-2.27173876100E+01
3.28850000000E+07	-3.28958452988E+01	-2.37862468708E+01
3.30800000000E+07	-3.28633575728E+01	-2.17063432263E+01
3.32750000000E+07	-3.28447876345E+01	-2.02467128652E+01
3.34700000000E+07	-3.26722364001E+01	-1.97208115398E+01
3.36650000000E+07	-3.26881682944E+01	-1.90855988775E+01
3.38600000000E+07	-3.26127591876E+01	-1.90240930930E+01
3.40550000000E+07	-3.25621155484E+01	-1.81887524339E+01
3.42500000000E+07	-3.24716577574E+01	-1.77799653164E+01
3.44450000000E+07	-3.21928859154E+01	-1.64752029654E+01
3.46400000000E+07	-3.23276175807E+01	-1.56971314541E+01
3.48350000000E+07	-3.19758505188E+01	-1.44996174807E+01
3.50300000000E+07	-3.20726230540E+01	-1.55473725247E+01
3.52250000000E+07	-3.19122198151E+01	-1.36008867803E+01
3.54200000000E+07	-3.15939705542E+01	-1.26435210920E+01
3.56150000000E+07	-3.16585826793E+01	-1.28208253713E+01
3.58100000000E+07	-3.15207242681E+01	-1.27063170857E+01
3.60050000000E+07	-3.16321879362E+01	-1.21601513501E+01
3.62000000000E+07	-3.12905852927E+01	-1.12900943195E+01
3.63950000000E+07	-3.14078997376E+01	-1.06673817229E+01
3.65900000000E+07	-3.10316400050E+01	-1.09770221246E+01
3.67850000000E+07	-3.10894601280E+01	-1.14139861678E+01
3.69800000000E+07	-3.09240251614E+01	-9.84365305886E+00
3.71750000000E+07	-3.09100179052E+01	-1.00322606864E+01
3.73700000000E+07	-3.06393450973E+01	-1.01679885574E+01
3.75650000000E+07	-3.07271165792E+01	-8.41624486074E+00
3.77600000000E+07	-3.06262251259E+01	-9.01695992810E+00
3.79550000000E+07	-3.05409838699E+01	-9.09977621951E+00
3.81500000000E+07	-3.05038119322E+01	-8.67650253885E+00
3.83450000000E+07	-3.02384674841E+01	-8.96900613317E+00
3.85400000000E+07	-3.03075315859E+01	-8.79611370970E+00
3.87350000000E+07	-3.00805924271E+01	-8.00160117183E+00
3.89300000000E+07	-3.00013887048E+01	-7.75329761545E+00
3.91250000000E+07	-2.99136891527E+01	-8.02560824189E+00
3.93200000000E+07	-2.98595717046E+01	-7.98037583174E+00
3.95150000000E+07	-2.98590904768E+01	-7.99131011192E+00
3.97100000000E+07	-2.96634301377E+01	-7.71199196043E+00
3.99050000000E+07	-2.95844186786E+01	-8.12130367270E+00
4.01000000000E+07	-2.94348483425E+01	-8.29673089477E+00
4.02950000000E+07	-2.94822928758E+01	-7.55218770317E+00
4.04900000000E+07	-2.94058639028E+01	-7.84821389695E+00
4.06850000000E+07	-2.93833771753E+01	-7.37837428520E+00
4.08800000000E+07	-2.92874691160E+01	-7.30128607614E+00
4.10750000000E+07	-2.92076203312E+01	-8.17270394305E+00
4.12700000000E+07	-2.90082007085E+01	-7.71687872977E+00
4.14650000000E+07	-2.91379842347E+01	-7.58977011983E+00
4.16600000000E+07	-2.88859767040E+01	-7.18832962792E+00
4.18550000000E+07	-2.89057092804E+01	-8.09489607998E+00
4.20500000000E+07	-2.88670924639E+01	-8.51825148924E+00
4.22450000000E+07	-2.87605849076E+01	-7.84380680367E+00
4.24400000000E+07	-2.86639341520E+01	-7.58336943230E+00
4.26350000000E+07	-2.85055749377E+01	-8.55295827465E+00
4.28300000000E+07	-2.86830022991E+01	-7.90174678170E+00
4.30250000000E+07	-2.86111761983E+01	-8.41857904044E+00
4.32200000000E+07	-2.85965530331E+01	-9.01384831489E+00
4.34150000000E+07	-2.83994325180E+01	-8.43379785431E+00
4.36100000000E+07	-2.83530986229E+01	-8.73022199553E+00
4.38050000000E+07	-2.83697766313E+01	-8.52992266008E+00
4.40000000000E+07	-2.81935696024E+01	-1.00404783330E+01
4.41950000000E+07	-2.82370627866E+01	-8.87694162310E+00
4.43900000000E+07	-2.80654672423E+01	-9.71306455226E+00
4.45850000000E+07	-2.80820056506E+01	-9.75452348618E+00
4.47800000000E+07	-2.80716919989E+01	-1.02307958119E+01
4.49750000000E+07	-2.79885140005E+01	-1.02063945163E+01
4.51700000000E+07	-2.79361566770E+01	-1.06927595750E+01
4.53650000000E+07	-2.78534487414E+01	-1.01291360257E+01
4.55600000000E+07	-2.79017478191E+01	-1.03360030276E+01
4.57550000000E+07	-2.77060142331E+01	-1.09632108655E+01
4.59500000000E+07	-2.78607847297E+01	-1.13069771971E+01
4.61450000000E+07	-2.77086553198E+01	-1.17094538756E+01
4.63400000000E+07	-2.76812791015E+01	-1.11323467670E+01
4.65350000000E+07	-2.77343414227E+01	-1.23827026980E+01
4.67300000000E+07	-2.77209767688E+01	-1.16705875274E+01
4.69250000000E+07	-2.77080333724E+01	-1.22008000584E+01
4.71200000000E+07	-2.75826254126E+01	-1.29185004200E+01
4.73150000000E+07	-2.75247518151E+01	-1.29349162049E+01
4.75100000000E+07	-2.74874063853E+01	-1.30891983149E+01
4.77050000000E+07	-2.74824699836E+01	-1.31415681025E+01
4.79000000000E+07	-2.73846966855E+01	-1.37965006675E+01
4.80950000000E+07	-2.73758641483E+01	-1.46425538257E+01
4.82900000000E+07	-2.73455512997E+01	-1.45769543421E+01
4.84850000000E+07	-2.72288024648E+01	-1.43543710081E+01
4.86800000000E+07	-2.73623255331E+01	-1.50341242705E+01
4.88750000000E+07	-2.73244906168E+01	-1.55887944519E+01
4.90700000000E+07	-2.72900743922E+01	-1.52941843150E+01
4.92650000000E+07	-2.72101095665E+01	-1.63840925673E+01
4.94600000000E+07	-2.72338921738E+01	-1.59756005752E+01
4.96550000000E+07	-2.72796645045E+01	-1.61045038676E+01
4.98500000000E+07	-2.72107199124E+01	-1.68411299083E+01
5.00450000000E+07	-2.71907496818E+01	-1.70754259487E+01
5.02400000000E+07	-2.70765016897E+01	-1.74411860230E+01
5.04350000000E+07	-2.71449706734E+01	-1.83509970173E+01
5.06300000000E+07	-2.71734182838E+01	-1.80320531032E+01
5.08250000000E+07	-2.70749938163E+01	-1.88757818726E+01
5.10200000000E+07	-2.70504091611E+01	-1.85420975428E+01
5.12150000000E+07	-2.69981342186E+01	-1.98720349125E+01
5.14100000000E+07	-2.70205019175E+01	-1.93292780450E+01
5.16050000000E+07	-2.70101110188E+01	-1.93319621109E+01
5.18000000000E+07	-2.70564148634E+01	-2.02647431622E+01
5.19950000000E+07	-2.70584306963E+01	-2.08105602754E+01
5.21900000000E+07	-2.70055409481E+01	-2.07650229390E+01
5.23850000000E+07	-2.70390829643E+01	-2.12477882458E+01
5.25800000000E+07	-2.71317739770E+01	-2.14766401181E+01
5.27750000000E+07	-2.69483616614E+01	-2.21358724868E+01
5.29700000000E+07	-2.69568137258E+01	-2.23330580653E+01
5.31650000000E+07	-2.69002084336E+01	-2.28417360157E+01
5.33600000000E+07	-2.69336070288E+01	-2.31499918861E+01
5.35550000000E+07	-2.70238092637E+01	-2.33084358297E+01
5.37500000000E+07	-2.70859431185E+01	-2.48396078954E+01
5.39450000000E+07	-2.70381257080E+01	-2.45848357871E+01
5.41400000000E+07	-2.71141111253E+01	-2.45886599929E+01
5.43350000000E+07	-2.69616281681E+01	-2.52457585570E+01
5.45300000000E+07	-2.70072934252E+01	-2.53495179378E+01
5.47250000000E+07	-2.69591532608E+01	-2.53516337232E+01
5.49200000000E+07	-2.71145456127E+01	-2.58639658576E+01
5.51150000000E+07	-2.71384626572E+01	-2.67939197136E+01
5.53100000000E+07	-2.70260218210E+01	-2.70599327976E+01
5.55050000000E+07	-2.70649705300E+01	-2.82078323309E+01
5.57000000000E+07	-2.70473392509E+01	-2.82249672119E+01
5.58950000000E+07	-2.70936284032E+01	-2.88525738219E+01
5.60900000000E+07	-2.71271133212E+01	-2.86377307952E+01
5.62850000000E+07	-2.71127622800E+01	-2.95400116938E+01
5.64800000000E+07	-2.70450213244E+01	-2.92157708473E+01
5.66750000000E+07	-2.70709677513E+01	-2.98496478710E+01
5.68700000000E+07	-2.70847714668E+01	-3.07737961334E+01
5.70650000000E+07	-2.71907429292E+01	-3.11274152017E+01
5.72600000000E+07	-2.71702237111E+01	-3.22022100085E+01
5.74550000000E+07	-2.71377043675E+01	-3.15681350120E+01
5.76500000000E+07	-2.72111729867E+01	-3.20045213094E+01
5.78450000000E+07	-2.71646038540E+01	-3.27380929430E+01
5.80400000000E+07	-2.72243482588E+01	-3.30520943228E+01
5.82350000000E+07	-2.72091139629E+01	-3.35157784362E+01
5.84300000000E+07	-2.72440427018E+01	-3.37553799683E+01
5.86250000000E+07	-2.73358357603E+01	-3.47672131560E+01
5.88200000000E+07	-2.74061918893E+01	-3.47795238507E+01
5.90150000000E+07	-2.72889521939E+01	-3.55182970433E+01
5.92100000000E+07	-2.74015938334E+01	-3.57816796061E+01
5.94050000000E+07	-2.74203214294E+01	-3.57488713442E+01
5.96000000000E+07	-2.74918857090E+01	-3.68002422669E+01
5.97950000000E+07	-2.75219988099E+01	-3.67565356381E+01
5.99900000000E+07	-2.74343229552E+01	-3.72094226309E+01
6.01850000000E+07	-2.76228827347E+01	-3.80707733145E+01
6.03800000000E+07	-2.75831047137E+01	-3.91456710067E+01
6.05750000000E+07	-2.75814348131E+01	-3.89550361134E+01
6.07700000000E+07	-2.77305461075E+01	-3.97575880801E+01
6.09650000000E+07	-2.76598675096E+01	-3.96673198396E+01
6.11600000000E+07	-2.76906900646E+01	-4.09944974522E+01
6.13550000000E+07	-2.77852444540E+01	-4.15223895598E+01
6.15500000000E+07	-2.76854750886E+01	-4.12530717578E+01
6.17450000000E+07	-2.78535105889E+01	-4.24031588554E+01
6.19400000000E+07	-2.79706675354E+01	-4.22630747335E+01
6.21350000000E+07	-2.80144893418E+01	-4.31571622047E+01
6.23300000000E+07	-2.80211273252E+01	-4.38503016605E+01
6.25250000000E+07	-2.80071565876E+01	-4.43296878837E+01
6.27200000000E+07	-2.80591756984E+01	-4.52638841778E+01
6.29150000000E+07	-2.81948889213E+01	-4.48746783492E+01
6.31100000000E+07	-2.81973390607E+01	-4.59841028764E+01
6.33050000000E+07	-2.81168946527E+01	-4.58233349451E+01
6.35000000000E+07	-2.82056059438E+01	-4.63545238129E+01
6.36950000000E+07	-2.82377009687E+01	-4.81371794054E+01
6.38900000000E+07	-2.83455684147E+01	-4.78618482234E+01
6.40850000000E+07	-2.84861597734E+01	-4.78650551827E+01
6.42800000000E+07	-2.83882119850E+01	-4.96801713406E+01
6.44750000000E+07	-2.86528749316E+01	-4.94799203135E+01
6.46700000000E+07	-2.85193240827E+01	-4.94862862155E+01
6.48650000000E+07	-2.86917170383E+01	-5.01343817083E+01
6.50600000000E+07	-2.86407297928E+01	-5.13640605692E+01
6.52550000000E+07	-2.87054561084E+01	-5.19461876788E+01
6.54500000000E+07	-2.87807477072E+01	-5.24171155186E+01
6.56450000000E+07	-2.88622717027E+01	-5.39061791061E+01
6.58400000000E+07	-2.89469196397E+01	-5.35948090903E+01
6.60350000000E+07	-2.90643584541E+01	-5.40615751371E+01
6.62300000000E+07	-2.90678947220E+01	-5.47764874005E+01
6.64250000000E+07	-2.92057168913E+01	-5.55406091771E+01
6.66200000000E+07	-2.92224472915E+01	-5.63040627515E+01
6.68150000000E+07	-2.93238911226E+01	-5.64890510759E+01
6.70100000000E+07	-2.94896817489E+01	-5.71494177523E+01
6.72050000000E+07	-2.93674951481E+01	-5.79743312789E+01
6.74000000000E+07	-2.95639140158E+01	-5.88704249005E+01
6.75950000000E+07	-2.96438105188E+01	-5.99105228621E+01
6.77900000000E+07	-2.95530848949E+01	-6.00610868182E+01
6.79850000000E+07	-2.96248653439E+01	-6.02653575684E+01
6.81800000000E+07	-2.97797625310E+01	-6.11715828091E+01
6.83750000000E+07	-2.97974789581E+01	-6.17812836026E+01
6.85700000000E+07	-2.98564527217E+01	-6.30479449006E+01
6.87650000000E+07	-2.99736706329E+01	-6.37136224025E+01
6.89600000000E+07	-3.01599597253E+01	-6.32353119048E+01
6.91550000000E+07	-3.02358195238E+01	-6.45618152810E+01
6.93500000000E+07	-3.02711230184E+01	-6.50350480950E+01
6.95450000000E+07	-3.06085591904E+01	-6.59072824933E+01
6.97400000000E+07	-3.05321434043E+01	-6.67373040950E+01
6.99350000000E+07	-3.06562914441E+01	-6.76979221114E+01
7.01300000000E+07	-3.07523411454E+01	-6.80606543292E+01
7.03250000000E+07	-3.07730865172E+01	-6.91650727945E+01
7.05200000000E+07	-3.10392843164E+01	-6.96890586110E+01
7.07150000000E+07	-3.08770744705E+01	-7.12741993443E+01
7.09100000000E+07	-3.10919774913E+01	-7.12223920018E+01
7.11050000000E+07	-3.11858479572E+01	-7.27226405168E+01
7.13000000000E+07	-3.13308267204E+01	-7.30936927101E+01
7.14950000000E+07	-3.14190868035E+01	-7.50955937172E+01
7.16900000000E+07	-3.14835512997E+01	-7.51130375052E+01
7.18850000000E+07	-3.17813891324E+01	-7.63899197402E+01
7.20800000000E+07	-3.18636227188E+01	-7.66457098562E+01
7.22750000000E+07	-3.20477456209E+01	-7.76233213476E+01
7.24700000000E+07	-3.19863769921E+01	-7.87775384775E+01
7.26650000000E+07	-3.20920711951E+01	-8.01148285835E+01
