# Hz S DB R 50
! CMT, M5045, 22160017, 22.4.3/2
! Date: 1/21/2023 20:37:28
! Data: Format (Calibration Info)
! Freq	S11:dB/Ang(F1)
5.00000000000E+06	-9.69220883660E+00	-7.80241574996E+01
5.19500000000E+06	-1.00469680185E+01	-7.92089628643E+01
5.39000000000E+06	-1.03921332907E+01	-8.00095789635E+01
5.58500000000E+06	-1.07007479107E+01	-8.09444075306E+01
5.78000000000E+06	-1.10678416465E+01	-8.19559972541E+01
5.97500000000E+06	-1.13376767518E+01	-8.26592403418E+01
6.17000000000E+06	-1.16520348066E+01	-8.36344067902E+01
6.36500000000E+06	-1.19658071870E+01	-8.43816822393E+01
6.56000000000E+06	-1.22308479261E+01	-8.50173927964E+01
6.75500000000E+06	-1.25156685198E+01	-8.57683163498E+01
6.95000000000E+06	-1.28325207689E+01	-8.64012136400E+01
7.14500000000E+06	-1.30784045169E+01	-8.71108726378E+01
7.34000000000E+06	-1.33665611672E+01	-8.76653025533E+01
7.53500000000E+06	-1.36057715396E+01	-8.84315226688E+01
7.73000000000E+06	-1.38795995330E+01	-8.89028251195E+01
7.92500000000E+06	-1.41188661315E+01	-8.93663341422E+01
8.12000000000E+06	-1.43962446044E+01	-9.01623874519E+01
8.31500000000E+06	-1.46203555315E+01	-9.05672086106E+01
8.51000000000E+06	-1.48649927858E+01	-9.11555046710E+01
8.70500000000E+06	-1.51327446431E+01	-9.16414704294E+01
8.90000000000E+06	-1.53529235650E+01	-9.23226893604E+01
9.09500000000E+06	-1.55858359048E+01	-9.27110137723E+01
9.29000000000E+06	-1.58202528868E+01	-9.31471813852E+01
9.48500000000E+06	-1.60659964352E+01	-9.35565272567E+01
9.68000000000E+06	-1.62830430474E+01	-9.42635096684E+01
9.87500000000E+06	-1.65437581735E+01	-9.45882480709E+01
1.00700000000E+07	-1.67409685510E+01	-9.51008196959E+01
1.02650000000E+07	-1.69853093397E+01	-9.56516582876E+01
1.04600000000E+07	-1.72445396819E+01	-9.61343782347E+01
1.06550000000E+07	-1.74624798374E+01	-9.65020938357E+01
1.08500000000E+07	-1.76822387188E+01	-9.69707194111E+01
1.10450000000E+07	-1.78474884930E+01	-9.72289238905E+01
1.12400000000E+07	-1.80723299064E+01	-9.79840468008E+01
1.14350000000E+07	-1.82861187416E+01	-9.81536773257E+01
1.16300000000E+07	-1.85084807167E+01	-9.85237389690E+01
1.18250000000E+07	-1.87015195462E+01	-9.92380875190E+01
1.20200000000E+07	-1.89409601557E+01	-9.97885842784E+01
1.22150000000E+07	-1.91448088112E+01	-1.00206500699E+02
1.24100000000E+07	-1.93559059716E+01	-1.00404785414E+02
1.26050000000E+07	-1.95674262240E+01	-1.00807642372E+02
1.28000000000E+07	-1.97850191618E+01	-1.01415757603E+02
1.29950000000E+07	-1.99650607962E+01	-1.01761850220E+02
1.31900000000E+07	-2.01864133192E+01	-1.02155485776E+02
1.33850000000E+07	-2.03605882131E+01	-1.02507907197E+02
1.35800000000E+07	-2.06577917229E+01	-1.02686928131E+02
1.37750000000E+07	-2.08609334404E+01	-1.03343615795E+02
1.39700000000E+07	-2.10345629651E+01	-1.03342117822E+02
1.41650000000E+07	-2.12581970823E+01	-1.03887536787E+02
1.43600000000E+07	-2.15000076935E+01	-1.04161032384E+02
1.45550000000E+07	-2.16576297854E+01	-1.04472680493E+02
1.47500000000E+07	-2.18781156850E+01	-1.05190431463E+02
1.49450000000E+07	-2.21295692599E+01	-1.05406862381E+02
1.51400000000E+07	-2.22972489371E+01	-1.05653654352E+02
1.53350000000E+07	-2.25694566731E+01	-1.06093044579E+02
1.55300000000E+07	-2.27579703753E+01	-1.05788861986E+02
1.57250000000E+07	-2.30060567814E+01	-1.06816918155E+02
1.59200000000E+07	-2.32314100834E+01	-1.06627740143E+02
1.61150000000E+07	-2.34972182166E+01	-1.07299011305E+02
1.63100000000E+07	-2.36979898271E+01	-1.07429341056E+02
1.65050000000E+07	-2.38906852182E+01	-1.08020221554E+02
1.67000000000E+07	-2.41579160249E+01	-1.08074978400E+02
1.68950000000E+07	-2.43310089844E+01	-1.08218455738E+02
1.70900000000E+07	-2.46189006541E+01	-1.08554248514E+02
1.72850000000E+07	-2.47026449563E+01	-1.08886464248E+02
1.74800000000E+07	-2.51003788726E+01	-1.08445752817E+02
1.76750000000E+07	-2.53474369825E+01	-1.09253264546E+02
1.78700000000E+07	-2.55934872432E+01	-1.08950757831E+02
1.80650000000E+07	-2.58288700164E+01	-1.09249931308E+02
1.82600000000E+07	-2.60844843700E+01	-1.09728805298E+02
1.84550000000E+07	-2.62960641620E+01	-1.09595370254E+02
1.86500000000E+07	-2.65535415449E+01	-1.10635829376E+02
1.88450000000E+07	-2.68482895359E+01	-1.10117315830E+02
1.90400000000E+07	-2.71476352518E+01	-1.10596439473E+02
1.92350000000E+07	-2.73293619684E+01	-1.11191511888E+02
1.94300000000E+07	-2.76790961588E+01	-1.11195419666E+02
1.96250000000E+07	-2.78804445297E+01	-1.11575985896E+02
1.98200000000E+07	-2.83183175157E+01	-1.11362092873E+02
2.00150000000E+07	-2.84801405049E+01	-1.11786613309E+02
2.02100000000E+07	-2.88506756070E+01	-1.11761294244E+02
2.04050000000E+07	-2.90941176801E+01	-1.12705360507E+02
2.06000000000E+07	-2.93571124492E+01	-1.11419679206E+02
2.07950000000E+07	-2.97453399561E+01	-1.11916315532E+02
2.09900000000E+07	-3.00507032729E+01	-1.12931800650E+02
2.11850000000E+07	-3.03614270738E+01	-1.12380637279E+02
2.13800000000E+07	-3.06880977359E+01	-1.12444615778E+02
2.15750000000E+07	-3.09786704503E+01	-1.11977724369E+02
2.17700000000E+07	-3.13575751004E+01	-1.12225057920E+02
2.19650000000E+07	-3.16227737401E+01	-1.11068215012E+02
2.21600000000E+07	-3.22196489829E+01	-1.12092657985E+02
2.23550000000E+07	-3.24893897579E+01	-1.12140616619E+02
2.25500000000E+07	-3.29352681533E+01	-1.11149523040E+02
2.27450000000E+07	-3.33062607588E+01	-1.09764597512E+02
2.29400000000E+07	-3.36766257395E+01	-1.11177079739E+02
2.31350000000E+07	-3.40002663388E+01	-1.10149708985E+02
2.33300000000E+07	-3.47866751413E+01	-1.08016858215E+02
2.35250000000E+07	-3.50805966657E+01	-1.08501493388E+02
2.37200000000E+07	-3.55579201690E+01	-1.08885605086E+02
2.39150000000E+07	-3.60339911028E+01	-1.07771368146E+02
2.41100000000E+07	-3.67588591048E+01	-1.05565709944E+02
2.43050000000E+07	-3.71413333538E+01	-1.06955614095E+02
2.45000000000E+07	-3.74256175571E+01	-1.05192762228E+02
2.46950000000E+07	-3.83741570602E+01	-1.04500552047E+02
2.48900000000E+07	-3.88007791416E+01	-1.00501756805E+02
2.50850000000E+07	-3.94067944428E+01	-1.01339519195E+02
2.52800000000E+07	-4.02506920916E+01	-9.53759740967E+01
2.54750000000E+07	-4.04760172230E+01	-9.20119227071E+01
2.56700000000E+07	-4.12126703405E+01	-8.98575362372E+01
2.58650000000E+07	-4.21280612948E+01	-8.65607660500E+01
2.60600000000E+07	-4.29385003147E+01	-7.85296771423E+01
2.62550000000E+07	-4.36074966294E+01	-7.68862091443E+01
2.64500000000E+07	-4.36120766359E+01	-7.01226586762E+01
2.66450000000E+07	-4.50923136893E+01	-6.56142514449E+01
2.68400000000E+07	-4.45997651135E+01	-5.78738289218E+01
2.70350000000E+07	-4.48297979422E+01	-4.66812661641E+01
2.72300000000E+07	-4.50469451358E+01	-3.94105314247E+01
2.74250000000E+07	-4.46019115771E+01	-2.80226699088E+01
2.76200000000E+07	-4.52155563517E+01	-2.18061494355E+01
2.78150000000E+07	-4.36133554460E+01	-1.55875073015E+01
2.80100000000E+07	-4.36400671939E+01	-1.30582027854E+01
2.82050000000E+07	-4.27040380882E+01	-5.87928884916E+00
2.84000000000E+07	-4.22353180485E+01	-4.10967901017E+00
2.85950000000E+07	-4.15982471093E+01	7.88041905483E-01
2.87900000000E+07	-4.07988150365E+01	3.92274620698E+00
2.89850000000E+07	-4.07275488588E+01	6.63510421135E+00
2.91800000000E+07	-3.99147265843E+01	9.83352977005E+00
2.93750000000E+07	-3.94643247604E+01	7.89143062060E+00
2.95700000000E+07	-3.90122185754E+01	1.09687199405E+01
2.97650000000E+07	-3.87325512734E+01	1.08346046294E+01
2.99600000000E+07	-3.78481071406E+01	1.39826219902E+01
3.01550000000E+07	-3.74190427211E+01	1.31443995366E+01
3.03500000000E+07	-3.71772657550E+01	1.55368735048E+01
3.05450000000E+07	-3.68518590123E+01	1.60262121103E+01
3.07400000000E+07	-3.60595838477E+01	1.59933383843E+01
3.09350000000E+07	-3.60922988839E+01	1.71420786649E+01
3.11300000000E+07	-3.55511779003E+01	1.71166114111E+01
3.13250000000E+07	-3.54001108702E+01	1.82153487723E+01
3.15200000000E+07	-3.49937285283E+01	1.64811482577E+01
3.17150000000E+07	-3.46007120095E+01	1.82996762883E+01
3.19100000000E+07	-3.45835759951E+01	1.89023889946E+01
3.21050000000E+07	-3.43382616547E+01	1.90781536931E+01
3.23000000000E+07	-3.39427608247E+01	1.97952080457E+01
3.24950000000E+07	-3.37053194569E+01	1.94257360024E+01
3.26900000000E+07	-3.34414600437E+01	1.82391932656E+01
3.28850000000E+07	-3.32269080434E+01	1.78090415142E+01
3.30800000000E+07	-3.29862760559E+01	1.96623464998E+01
3.32750000000E+07	-3.28613254941E+01	1.79231752489E+01
3.34700000000E+07	-3.26990210262E+01	1.78155305184E+01
3.36650000000E+07	-3.23967599483E+01	1.79151453994E+01
3.38600000000E+07	-3.20585893193E+01	1.85433791069E+01
3.40550000000E+07	-3.20109812460E+01	1.78699685424E+01
3.42500000000E+07	-3.16169685584E+01	1.70832678160E+01
3.44450000000E+07	-3.16389987513E+01	1.87740739331E+01
3.46400000000E+07	-3.12789278476E+01	1.84838999788E+01
3.48350000000E+07	-3.12151751857E+01	1.70654072620E+01
3.50300000000E+07	-3.10229013255E+01	1.80036420538E+01
3.52250000000E+07	-3.08810768753E+01	1.77016271865E+01
3.54200000000E+07	-3.08133972847E+01	1.75183342634E+01
3.56150000000E+07	-3.06561099119E+01	1.74477879857E+01
3.58100000000E+07	-3.03255478848E+01	1.62154578277E+01
3.60050000000E+07	-3.02683720722E+01	1.60666196540E+01
3.62000000000E+07	-3.02591786495E+01	1.58685673807E+01
3.63950000000E+07	-2.98965035605E+01	1.56168891934E+01
3.65900000000E+07	-2.98309412429E+01	1.55843891393E+01
3.67850000000E+07	-2.98558358823E+01	1.48075473788E+01
3.69800000000E+07	-2.96518125384E+01	1.42743264448E+01
3.71750000000E+07	-2.94564011050E+01	1.47751620941E+01
3.73700000000E+07	-2.94598608195E+01	1.36183449707E+01
3.75650000000E+07	-2.91962482656E+01	1.44228589720E+01
3.77600000000E+07	-2.91171056046E+01	1.39982902831E+01
3.79550000000E+07	-2.90408906790E+01	1.28682700543E+01
3.81500000000E+07	-2.89500891971E+01	1.26051363234E+01
3.83450000000E+07	-2.89294188535E+01	1.24042412471E+01
3.85400000000E+07	-2.86202005173E+01	1.19226699229E+01
3.87350000000E+07	-2.86928551120E+01	1.13999002257E+01
3.89300000000E+07	-2.85895876022E+01	1.14464987304E+01
3.91250000000E+07	-2.84412257095E+01	1.17160056825E+01
3.93200000000E+07	-2.84764375541E+01	1.14028943683E+01
3.95150000000E+07	-2.82450399301E+01	1.04496990379E+01
3.97100000000E+07	-2.80454892575E+01	9.75878450732E+00
3.99050000000E+07	-2.80990584102E+01	9.60494264482E+00
4.01000000000E+07	-2.79695696431E+01	9.89286384160E+00
4.02950000000E+07	-2.79426341390E+01	9.21554483933E+00
4.04900000000E+07	-2.79260336621E+01	8.88855871851E+00
4.06850000000E+07	-2.77997645556E+01	8.42242346441E+00
4.08800000000E+07	-2.77282591279E+01	8.37604830376E+00
4.10750000000E+07	-2.76332872035E+01	8.07489405592E+00
4.12700000000E+07	-2.75275430885E+01	6.82663320996E+00
4.14650000000E+07	-2.74752591870E+01	6.97341247159E+00
4.16600000000E+07	-2.73970418246E+01	6.32097932892E+00
4.18550000000E+07	-2.72852419533E+01	6.16344731780E+00
4.20500000000E+07	-2.73680001479E+01	4.93785095352E+00
4.22450000000E+07	-2.71577935464E+01	4.95156770590E+00
4.24400000000E+07	-2.71662782897E+01	4.73234807967E+00
4.26350000000E+07	-2.71014323932E+01	4.68792460609E+00
4.28300000000E+07	-2.70393892009E+01	4.09047643642E+00
4.30250000000E+07	-2.70296056234E+01	3.22595266981E+00
4.32200000000E+07	-2.69855703965E+01	2.95551143391E+00
4.34150000000E+07	-2.69158544797E+01	3.33242243662E+00
4.36100000000E+07	-2.68024460668E+01	2.74666954163E+00
4.38050000000E+07	-2.67447704621E+01	1.55061068369E+00
4.40000000000E+07	-2.67398111699E+01	1.05871720910E+00
4.41950000000E+07	-2.66609817879E+01	7.49899036511E-01
4.43900000000E+07	-2.66030885162E+01	6.16388838356E-01
4.45850000000E+07	-2.65884096581E+01	1.67539668023E-02
4.47800000000E+07	-2.65460675156E+01	-1.50957004672E-01
4.49750000000E+07	-2.64016227833E+01	-2.60650289431E-01
4.51700000000E+07	-2.64538913870E+01	-7.40817345167E-01
4.53650000000E+07	-2.63802088009E+01	-1.69681989918E+00
4.55600000000E+07	-2.64180722617E+01	-1.89848919475E+00
4.57550000000E+07	-2.63846820488E+01	-2.65003921203E+00
4.59500000000E+07	-2.62991307189E+01	-2.89305437056E+00
4.61450000000E+07	-2.63347150809E+01	-3.87445419818E+00
4.63400000000E+07	-2.62189946552E+01	-3.48558313014E+00
4.65350000000E+07	-2.62176196113E+01	-4.46362826871E+00
4.67300000000E+07	-2.61912844426E+01	-4.47306636697E+00
4.69250000000E+07	-2.61468419060E+01	-5.12204803313E+00
4.71200000000E+07	-2.61361274522E+01	-5.63463165034E+00
4.73150000000E+07	-2.61253697643E+01	-5.93210488028E+00
4.75100000000E+07	-2.60201736384E+01	-6.20618038949E+00
4.77050000000E+07	-2.59839610566E+01	-6.88389723579E+00
4.79000000000E+07	-2.60053355863E+01	-7.11475643117E+00
4.80950000000E+07	-2.59559558392E+01	-7.28098480089E+00
4.82900000000E+07	-2.60082115853E+01	-8.17928685591E+00
4.84850000000E+07	-2.59700554011E+01	-8.54107388271E+00
4.86800000000E+07	-2.58926588953E+01	-9.57379068345E+00
4.88750000000E+07	-2.58148868276E+01	-9.78179577209E+00
4.90700000000E+07	-2.58682912621E+01	-1.04913630772E+01
4.92650000000E+07	-2.57729861045E+01	-1.07402477359E+01
4.94600000000E+07	-2.58170761214E+01	-1.13609345566E+01
4.96550000000E+07	-2.58584792028E+01	-1.10588411580E+01
4.98500000000E+07	-2.58328389459E+01	-1.21978884610E+01
5.00450000000E+07	-2.57629412584E+01	-1.27623616502E+01
5.02400000000E+07	-2.57471766648E+01	-1.32957263882E+01
5.04350000000E+07	-2.57340089999E+01	-1.35218767688E+01
5.06300000000E+07	-2.57722376383E+01	-1.39467623133E+01
5.08250000000E+07	-2.57078000102E+01	-1.45766867603E+01
5.10200000000E+07	-2.57551730930E+01	-1.49571892828E+01
5.12150000000E+07	-2.57088954972E+01	-1.52979752545E+01
5.14100000000E+07	-2.57166852674E+01	-1.57943500115E+01
5.16050000000E+07	-2.56987745422E+01	-1.67624444718E+01
5.18000000000E+07	-2.57013318607E+01	-1.75901565368E+01
5.19950000000E+07	-2.56547524421E+01	-1.75867011601E+01
5.21900000000E+07	-2.56917491984E+01	-1.84427981678E+01
5.23850000000E+07	-2.56330387268E+01	-1.85342134377E+01
5.25800000000E+07	-2.56557433078E+01	-1.91101460225E+01
5.27750000000E+07	-2.56318341679E+01	-1.93151485251E+01
5.29700000000E+07	-2.56416128661E+01	-2.07161409680E+01
5.31650000000E+07	-2.56954840436E+01	-2.13364123182E+01
5.33600000000E+07	-2.56625410377E+01	-2.15527956518E+01
5.35550000000E+07	-2.56869934065E+01	-2.22923905415E+01
5.37500000000E+07	-2.56720754567E+01	-2.29053695933E+01
5.39450000000E+07	-2.56114480635E+01	-2.30059932044E+01
5.41400000000E+07	-2.56750796858E+01	-2.33571215744E+01
5.43350000000E+07	-2.57027142461E+01	-2.44738320270E+01
5.45300000000E+07	-2.57354628624E+01	-2.51861758233E+01
5.47250000000E+07	-2.57232441803E+01	-2.51381994170E+01
5.49200000000E+07	-2.57010734263E+01	-2.57241339688E+01
5.51150000000E+07	-2.57500647599E+01	-2.65086245793E+01
5.53100000000E+07	-2.57491289624E+01	-2.67331096245E+01
5.55050000000E+07	-2.58061479473E+01	-2.78441850103E+01
5.57000000000E+07	-2.58236250869E+01	-2.79372640826E+01
5.58950000000E+07	-2.57251788319E+01	-2.90681767221E+01
5.60900000000E+07	-2.57854630866E+01	-2.89528534039E+01
5.62850000000E+07	-2.58589168242E+01	-2.93639226741E+01
5.64800000000E+07	-2.59363495442E+01	-3.01102587481E+01
5.66750000000E+07	-2.57910498279E+01	-3.02980799192E+01
5.68700000000E+07	-2.59318882707E+01	-3.13185859512E+01
5.70650000000E+07	-2.58746744980E+01	-3.19354881948E+01
5.72600000000E+07	-2.59949267718E+01	-3.28805140431E+01
5.74550000000E+07	-2.59750761381E+01	-3.35003585327E+01
5.76500000000E+07	-2.60276618574E+01	-3.35213397128E+01
5.78450000000E+07	-2.59632147241E+01	-3.40724337583E+01
5.80400000000E+07	-2.60850956472E+01	-3.56004281080E+01
5.82350000000E+07	-2.60979113056E+01	-3.57037666972E+01
5.84300000000E+07	-2.60956894401E+01	-3.60226994781E+01
5.86250000000E+07	-2.61541264226E+01	-3.71177029601E+01
5.88200000000E+07	-2.62292592469E+01	-3.78301070115E+01
5.90150000000E+07	-2.62701919734E+01	-3.77318705021E+01
5.92100000000E+07	-2.62725762438E+01	-3.83686636079E+01
5.94050000000E+07	-2.62578401381E+01	-3.94106109624E+01
5.96000000000E+07	-2.62598206390E+01	-3.93281848176E+01
5.97950000000E+07	-2.63566227309E+01	-4.07683376587E+01
5.99900000000E+07	-2.63981265591E+01	-4.10324655779E+01
6.01850000000E+07	-2.63652801679E+01	-4.14021543367E+01
6.03800000000E+07	-2.64870375868E+01	-4.25833861023E+01
6.05750000000E+07	-2.65171782534E+01	-4.34653600740E+01
6.07700000000E+07	-2.65520165859E+01	-4.35724555990E+01
6.09650000000E+07	-2.65215398686E+01	-4.42329466462E+01
6.11600000000E+07	-2.65359642100E+01	-4.47490188577E+01
6.13550000000E+07	-2.65092839606E+01	-4.56294311074E+01
6.15500000000E+07	-2.66789113696E+01	-4.66186470630E+01
6.17450000000E+07	-2.67215263367E+01	-4.68914822463E+01
6.19400000000E+07	-2.67452655534E+01	-4.84691718624E+01
6.21350000000E+07	-2.68181219326E+01	-4.87218381040E+01
6.23300000000E+07	-2.67979742650E+01	-4.89521942091E+01
6.25250000000E+07	-2.68979991947E+01	-4.99787962935E+01
6.27200000000E+07	-2.69816138330E+01	-5.02522217312E+01
6.29150000000E+07	-2.69526822935E+01	-5.12874343770E+01
6.31100000000E+07	-2.69592560572E+01	-5.20439934201E+01
6.33050000000E+07	-2.69915190830E+01	-5.21533643310E+01
6.35000000000E+07	-2.71880271373E+01	-5.31666188753E+01
6.36950000000E+07	-2.72009043808E+01	-5.37232075990E+01
6.38900000000E+07	-2.72066824773E+01	-5.52900012902E+01
6.40850000000E+07	-2.73540506654E+01	-5.55417390806E+01
6.42800000000E+07	-2.73976036159E+01	-5.63133861477E+01
6.44750000000E+07	-2.73555004022E+01	-5.69706478891E+01
6.46700000000E+07	-2.73737326146E+01	-5.77323821972E+01
6.48650000000E+07	-2.74538415708E+01	-5.81806401471E+01
6.50600000000E+07	-2.75920558627E+01	-5.89598231962E+01
6.52550000000E+07	-2.75525808017E+01	-5.97089587192E+01
6.54500000000E+07	-2.75872329174E+01	-6.08153313924E+01
6.56450000000E+07	-2.77016109838E+01	-6.14854436772E+01
6.58400000000E+07	-2.77758347389E+01	-6.25528679903E+01
6.60350000000E+07	-2.78880215196E+01	-6.42037158360E+01
6.62300000000E+07	-2.78322056548E+01	-6.43804172514E+01
6.64250000000E+07	-2.80170341159E+01	-6.48554408355E+01
6.66200000000E+07	-2.80516107214E+01	-6.61323354890E+01
6.68150000000E+07	-2.81266237989E+01	-6.67577257410E+01
6.70100000000E+07	-2.81284899807E+01	-6.75895170454E+01
6.72050000000E+07	-2.81086391622E+01	-6.77840456443E+01
6.74000000000E+07	-2.83544357274E+01	-6.90474023359E+01
6.75950000000E+07	-2.83914121493E+01	-6.99794190468E+01
6.77900000000E+07	-2.84174671817E+01	-7.15420469211E+01
6.79850000000E+07	-2.86289931262E+01	-7.22287808476E+01
6.81800000000E+07	-2.86058224219E+01	-7.33522679999E+01
6.83750000000E+07	-2.86736315123E+01	-7.45818093217E+01
6.85700000000E+07	-2.87626551861E+01	-7.56678768097E+01
6.87650000000E+07	-2.87192866489E+01	-7.65043681181E+01
6.89600000000E+07	-2.89459032394E+01	-7.75516230852E+01
6.91550000000E+07	-2.89562200974E+01	-7.75775610038E+01
6.93500000000E+07	-2.90863218550E+01	-7.97147478673E+01
6.95450000000E+07	-2.89859944480E+01	-8.00099012460E+01
6.97400000000E+07	-2.92413345499E+01	-8.05848635845E+01
6.99350000000E+07	-2.92079825984E+01	-8.23928243106E+01
7.01300000000E+07	-2.92167461927E+01	-8.28415731597E+01
7.03250000000E+07	-2.93016769125E+01	-8.42572498241E+01
7.05200000000E+07	-2.95573548037E+01	-8.51054611373E+01
7.07150000000E+07	-2.94828261324E+01	-8.75635253878E+01
7.09100000000E+07	-2.96124097801E+01	-8.65433307602E+01
7.11050000000E+07	-2.96241066640E+01	-8.86503762266E+01
7.13000000000E+07	-2.97597940170E+01	-8.95584107279E+01
7.14950000000E+07	-2.97998779250E+01	-9.06191053290E+01
7.16900000000E+07	-2.98816502220E+01	-9.22550464218E+01
7.18850000000E+07	-3.00436790359E+01	-9.30776502074E+01
7.20800000000E+07	-2.99439296041E+01	-9.51371968533E+01
7.22750000000E+07	-3.02110399487E+01	-9.65319971403E+01
7.24700000000E+07	-3.02030327667E+01	-9.62271519241E+01
7.26650000000E+07	-3.03333127325E+01	-9.88904083886E+01
7.28600000000E+07	-3.04206816438E+01	-1.00211755824E+02
