# Hz S DB R 50
! CMT, M5045, 22160017, 22.4.3/2
! Date: 1/21/2023 20:13:46
! Data: Format (Calibration Info)
! Freq	S11:dB/Ang(F1)
5.00000000000E+06	-9.86848806854E+00	-7.58879533400E+01
5.19500000000E+06	-1.02129805206E+01	-7.66676794997E+01
5.39000000000E+06	-1.05094907506E+01	-7.74355923414E+01
5.58500000000E+06	-1.08622422736E+01	-7.82919097423E+01
5.78000000000E+06	-1.11656168409E+01	-7.90031261065E+01
5.97500000000E+06	-1.14741106408E+01	-7.98880785030E+01
6.17000000000E+06	-1.17826541619E+01	-8.04256179937E+01
6.36500000000E+06	-1.20912736398E+01	-8.08225130356E+01
6.56000000000E+06	-1.23363113284E+01	-8.15368301601E+01
6.75500000000E+06	-1.26678489481E+01	-8.20639773533E+01
6.95000000000E+06	-1.28806152622E+01	-8.26116319672E+01
7.14500000000E+06	-1.31718459499E+01	-8.30443543801E+01
7.34000000000E+06	-1.34351956083E+01	-8.33838022112E+01
7.53500000000E+06	-1.36921717099E+01	-8.39776241017E+01
7.73000000000E+06	-1.39562307736E+01	-8.43960578041E+01
7.92500000000E+06	-1.41704811480E+01	-8.47258521606E+01
8.12000000000E+06	-1.43968509883E+01	-8.52045493800E+01
8.31500000000E+06	-1.46460278295E+01	-8.56934871635E+01
8.51000000000E+06	-1.48741618913E+01	-8.59670301725E+01
8.70500000000E+06	-1.50777078334E+01	-8.62438564336E+01
8.90000000000E+06	-1.53445882596E+01	-8.66922558631E+01
9.09500000000E+06	-1.55386559708E+01	-8.69651732115E+01
9.29000000000E+06	-1.57716718584E+01	-8.74605750331E+01
9.48500000000E+06	-1.60015365172E+01	-8.77293485343E+01
9.68000000000E+06	-1.61811050860E+01	-8.82003142738E+01
9.87500000000E+06	-1.64162749026E+01	-8.83309509445E+01
1.00700000000E+07	-1.66035463317E+01	-8.88029662890E+01
1.02650000000E+07	-1.68243435787E+01	-8.89920388199E+01
1.04600000000E+07	-1.70422224835E+01	-8.94960549073E+01
1.06550000000E+07	-1.72213490075E+01	-8.93448967030E+01
1.08500000000E+07	-1.74536612865E+01	-8.99931863814E+01
1.10450000000E+07	-1.75947257991E+01	-9.01308144255E+01
1.12400000000E+07	-1.77630486712E+01	-9.02429989621E+01
1.14350000000E+07	-1.79830424648E+01	-9.06584598245E+01
1.16300000000E+07	-1.81500690860E+01	-9.10582388555E+01
1.18250000000E+07	-1.83063240182E+01	-9.10046747131E+01
1.20200000000E+07	-1.85447782754E+01	-9.15138841918E+01
1.22150000000E+07	-1.87545637606E+01	-9.15970459009E+01
1.24100000000E+07	-1.89033245822E+01	-9.21311417254E+01
1.26050000000E+07	-1.90780198775E+01	-9.23303483701E+01
1.28000000000E+07	-1.92183694443E+01	-9.25339928966E+01
1.29950000000E+07	-1.94120350135E+01	-9.31368157505E+01
1.31900000000E+07	-1.96779323766E+01	-9.30496585356E+01
1.33850000000E+07	-1.97762781010E+01	-9.31280383171E+01
1.35800000000E+07	-1.99868079497E+01	-9.37001261089E+01
1.37750000000E+07	-2.01382224320E+01	-9.36977713440E+01
1.39700000000E+07	-2.03122350058E+01	-9.39244008581E+01
1.41650000000E+07	-2.04823160950E+01	-9.38309327173E+01
1.43600000000E+07	-2.06866233533E+01	-9.40880923745E+01
1.45550000000E+07	-2.08145174003E+01	-9.46936455567E+01
1.47500000000E+07	-2.09769854586E+01	-9.46363960540E+01
1.49450000000E+07	-2.12133845722E+01	-9.47266754068E+01
1.51400000000E+07	-2.13624777607E+01	-9.49335488933E+01
1.53350000000E+07	-2.16163292448E+01	-9.48332141533E+01
1.55300000000E+07	-2.17474251223E+01	-9.51282458036E+01
1.57250000000E+07	-2.19252324842E+01	-9.57647735109E+01
1.59200000000E+07	-2.21665616857E+01	-9.54525390250E+01
1.61150000000E+07	-2.23367202814E+01	-9.57377426568E+01
1.63100000000E+07	-2.23974032370E+01	-9.60719842476E+01
1.65050000000E+07	-2.26000074261E+01	-9.59106126904E+01
1.67000000000E+07	-2.27684838229E+01	-9.60560761545E+01
1.68950000000E+07	-2.29602947554E+01	-9.60606958053E+01
1.70900000000E+07	-2.31033263449E+01	-9.64529840711E+01
1.72850000000E+07	-2.32888868529E+01	-9.68803171010E+01
1.74800000000E+07	-2.34730096032E+01	-9.67110703629E+01
1.76750000000E+07	-2.36245205076E+01	-9.63944562692E+01
1.78700000000E+07	-2.38142003278E+01	-9.64697969307E+01
1.80650000000E+07	-2.40276899070E+01	-9.65391865372E+01
1.82600000000E+07	-2.41750107068E+01	-9.68559059308E+01
1.84550000000E+07	-2.43448933998E+01	-9.66217252772E+01
1.86500000000E+07	-2.45635625189E+01	-9.68064283000E+01
1.88450000000E+07	-2.46673527171E+01	-9.66304808276E+01
1.90400000000E+07	-2.48926375237E+01	-9.69520120400E+01
1.92350000000E+07	-2.51435494287E+01	-9.68248875156E+01
1.94300000000E+07	-2.52181195604E+01	-9.68301675343E+01
1.96250000000E+07	-2.54694210487E+01	-9.66565516907E+01
1.98200000000E+07	-2.56428058567E+01	-9.73721428072E+01
2.00150000000E+07	-2.58614700569E+01	-9.66172234079E+01
2.02100000000E+07	-2.59941576731E+01	-9.71028863132E+01
2.04050000000E+07	-2.61894985195E+01	-9.64035832769E+01
2.06000000000E+07	-2.63080557125E+01	-9.71564811553E+01
2.07950000000E+07	-2.66757835874E+01	-9.68629284576E+01
2.09900000000E+07	-2.68199204341E+01	-9.68630074922E+01
2.11850000000E+07	-2.67736018672E+01	-9.68233826032E+01
2.13800000000E+07	-2.71783826133E+01	-9.65558812183E+01
2.15750000000E+07	-2.73396700933E+01	-9.63464879140E+01
2.17700000000E+07	-2.74827809491E+01	-9.67666204874E+01
2.19650000000E+07	-2.76297522428E+01	-9.62466213438E+01
2.21600000000E+07	-2.78281556917E+01	-9.60404572794E+01
2.23550000000E+07	-2.81863723927E+01	-9.56268651924E+01
2.25500000000E+07	-2.82592936517E+01	-9.64764097195E+01
2.27450000000E+07	-2.85047752737E+01	-9.52646382263E+01
2.29400000000E+07	-2.86893951576E+01	-9.54248310787E+01
2.31350000000E+07	-2.89489009337E+01	-9.53652503999E+01
2.33300000000E+07	-2.90128061942E+01	-9.52298475337E+01
2.35250000000E+07	-2.92336047675E+01	-9.52738465244E+01
2.37200000000E+07	-2.94165716219E+01	-9.54609100052E+01
2.39150000000E+07	-2.96616175855E+01	-9.42524403774E+01
2.41100000000E+07	-2.98464118700E+01	-9.41881242975E+01
2.43050000000E+07	-3.00830632637E+01	-9.30129514498E+01
2.45000000000E+07	-3.04048931571E+01	-9.26462428135E+01
2.46950000000E+07	-3.05251546151E+01	-9.27357695430E+01
2.48900000000E+07	-3.06717675000E+01	-9.20050395785E+01
2.50850000000E+07	-3.09813070718E+01	-9.15710999933E+01
2.52800000000E+07	-3.11772395084E+01	-9.08673471462E+01
2.54750000000E+07	-3.13670548462E+01	-9.11987034689E+01
2.56700000000E+07	-3.16965560483E+01	-9.04468921241E+01
2.58650000000E+07	-3.19246322772E+01	-8.83718902656E+01
2.60600000000E+07	-3.21617446503E+01	-8.92441961038E+01
2.62550000000E+07	-3.22219747665E+01	-8.77365642735E+01
2.64500000000E+07	-3.25406995111E+01	-8.70794465281E+01
2.66450000000E+07	-3.28497784678E+01	-8.55542378599E+01
2.68400000000E+07	-3.31038229211E+01	-8.47450855183E+01
2.70350000000E+07	-3.31321231165E+01	-8.46810415661E+01
2.72300000000E+07	-3.34971526733E+01	-8.32952100941E+01
2.74250000000E+07	-3.36678974690E+01	-8.28820750522E+01
2.76200000000E+07	-3.39197465538E+01	-8.21000819847E+01
2.78150000000E+07	-3.42089414303E+01	-8.04148860488E+01
2.80100000000E+07	-3.43804098287E+01	-7.91049766632E+01
2.82050000000E+07	-3.45381815741E+01	-7.82315751750E+01
2.84000000000E+07	-3.48352303074E+01	-7.69334650196E+01
2.85950000000E+07	-3.49306988949E+01	-7.41220667327E+01
2.87900000000E+07	-3.51083178878E+01	-7.47498593234E+01
2.89850000000E+07	-3.53430482179E+01	-7.26960697535E+01
2.91800000000E+07	-3.55548474398E+01	-7.34019623152E+01
2.93750000000E+07	-3.59618863540E+01	-7.07252457743E+01
2.95700000000E+07	-3.59091667505E+01	-6.81598549920E+01
2.97650000000E+07	-3.59124275905E+01	-6.68298283014E+01
2.99600000000E+07	-3.61196690140E+01	-6.40349739994E+01
3.01550000000E+07	-3.64316590328E+01	-6.08007632926E+01
3.03500000000E+07	-3.64735035866E+01	-6.05341520519E+01
3.05450000000E+07	-3.65615655916E+01	-5.71182460193E+01
3.07400000000E+07	-3.64597894548E+01	-5.67649748407E+01
3.09350000000E+07	-3.67006541761E+01	-5.42881850074E+01
3.11300000000E+07	-3.70665933602E+01	-5.32783024635E+01
3.13250000000E+07	-3.69018917669E+01	-5.14402551705E+01
3.15200000000E+07	-3.70212389723E+01	-4.83013267782E+01
3.17150000000E+07	-3.70955844722E+01	-4.79200102493E+01
3.19100000000E+07	-3.68976881432E+01	-4.59579176228E+01
3.21050000000E+07	-3.68590215531E+01	-4.40613741602E+01
3.23000000000E+07	-3.72675253982E+01	-4.13900726104E+01
3.24950000000E+07	-3.67413059136E+01	-4.02931522179E+01
3.26900000000E+07	-3.67712335738E+01	-3.71111937982E+01
3.28850000000E+07	-3.69154147513E+01	-3.47739405830E+01
3.30800000000E+07	-3.67102167003E+01	-3.42143056851E+01
3.32750000000E+07	-3.65140267867E+01	-3.28678819159E+01
3.34700000000E+07	-3.66640187128E+01	-3.15510078447E+01
3.36650000000E+07	-3.64303696347E+01	-3.16807256560E+01
3.38600000000E+07	-3.62634760605E+01	-2.58201824874E+01
3.40550000000E+07	-3.63602380979E+01	-2.57234308149E+01
3.42500000000E+07	-3.61165403447E+01	-2.53261753713E+01
3.44450000000E+07	-3.63545973971E+01	-2.52530563765E+01
3.46400000000E+07	-3.59806287257E+01	-2.16023918680E+01
3.48350000000E+07	-3.57998960844E+01	-2.06284694160E+01
3.50300000000E+07	-3.55165714268E+01	-2.02676698862E+01
3.52250000000E+07	-3.53594354279E+01	-1.79932078457E+01
3.54200000000E+07	-3.54341675718E+01	-1.83706860629E+01
3.56150000000E+07	-3.51910259860E+01	-1.76547479315E+01
3.58100000000E+07	-3.50922590072E+01	-1.75420608343E+01
3.60050000000E+07	-3.52415324472E+01	-1.52445353549E+01
3.62000000000E+07	-3.48027876051E+01	-1.53162633553E+01
3.63950000000E+07	-3.46129052569E+01	-1.35916264550E+01
3.65900000000E+07	-3.47371165301E+01	-1.42116234254E+01
3.67850000000E+07	-3.45255835041E+01	-1.17168185559E+01
3.69800000000E+07	-3.43423320908E+01	-1.11520875630E+01
3.71750000000E+07	-3.44775410303E+01	-1.13934448424E+01
3.73700000000E+07	-3.40775896025E+01	-9.96989258255E+00
3.75650000000E+07	-3.40338400348E+01	-9.20199919446E+00
3.77600000000E+07	-3.37852433863E+01	-8.96324036362E+00
3.79550000000E+07	-3.36531812383E+01	-8.76876002318E+00
3.81500000000E+07	-3.34198849300E+01	-9.08540317022E+00
3.83450000000E+07	-3.33059803649E+01	-9.25836309607E+00
3.85400000000E+07	-3.32276473815E+01	-8.08383604821E+00
3.87350000000E+07	-3.31017520494E+01	-9.03353001715E+00
3.89300000000E+07	-3.29728250116E+01	-7.28390835502E+00
3.91250000000E+07	-3.31477377903E+01	-7.95620669412E+00
3.93200000000E+07	-3.29803792112E+01	-6.92736001286E+00
3.95150000000E+07	-3.26070057913E+01	-7.44085918526E+00
3.97100000000E+07	-3.26967452387E+01	-6.91296198245E+00
3.99050000000E+07	-3.26730925629E+01	-6.68750284634E+00
4.01000000000E+07	-3.22832537404E+01	-6.08133738283E+00
4.02950000000E+07	-3.22419618449E+01	-6.63386788418E+00
4.04900000000E+07	-3.22331300874E+01	-5.06455792174E+00
4.06850000000E+07	-3.21297724892E+01	-5.29933255885E+00
4.08800000000E+07	-3.21987613443E+01	-5.91773789154E+00
4.10750000000E+07	-3.18273454563E+01	-5.44551556524E+00
4.12700000000E+07	-3.19545975556E+01	-5.32918511368E+00
4.14650000000E+07	-3.16556602134E+01	-6.73724403144E+00
4.16600000000E+07	-3.17775777731E+01	-6.12613411848E+00
4.18550000000E+07	-3.15840165543E+01	-7.21215882633E+00
4.20500000000E+07	-3.14054981523E+01	-5.73916233845E+00
4.22450000000E+07	-3.14439186775E+01	-5.65178112831E+00
4.24400000000E+07	-3.13548751218E+01	-6.37107982687E+00
4.26350000000E+07	-3.13364552828E+01	-6.18263265385E+00
4.28300000000E+07	-3.11248129684E+01	-6.41193199545E+00
4.30250000000E+07	-3.12541576754E+01	-6.47484773787E+00
4.32200000000E+07	-3.10148339285E+01	-5.78834137068E+00
4.34150000000E+07	-3.11162064977E+01	-6.23115536212E+00
4.36100000000E+07	-3.07210209774E+01	-5.79135700401E+00
4.38050000000E+07	-3.07691612655E+01	-5.90752323318E+00
4.40000000000E+07	-3.06825335520E+01	-6.47036789950E+00
4.41950000000E+07	-3.07480506242E+01	-5.91703748762E+00
4.43900000000E+07	-3.05494098269E+01	-7.53420897368E+00
4.45850000000E+07	-3.04984632304E+01	-7.60658059402E+00
4.47800000000E+07	-3.04404574626E+01	-6.85913809022E+00
4.49750000000E+07	-3.05706596861E+01	-7.43356292042E+00
4.51700000000E+07	-3.03582335549E+01	-8.08448207951E+00
4.53650000000E+07	-3.04058444306E+01	-8.46548202736E+00
4.55600000000E+07	-3.02621217987E+01	-7.61872069170E+00
4.57550000000E+07	-3.01972246129E+01	-8.60295554863E+00
4.59500000000E+07	-3.01697842854E+01	-8.04296526535E+00
4.61450000000E+07	-3.00896027212E+01	-8.26808975617E+00
4.63400000000E+07	-3.01568776303E+01	-8.89052587837E+00
4.65350000000E+07	-2.99809490924E+01	-8.51630916384E+00
4.67300000000E+07	-2.99788202163E+01	-9.22626499669E+00
4.69250000000E+07	-2.98727566952E+01	-9.25734654530E+00
4.71200000000E+07	-2.98629488425E+01	-9.46158249447E+00
4.73150000000E+07	-2.98807911022E+01	-1.00757526277E+01
4.75100000000E+07	-2.97908564294E+01	-1.04137240730E+01
4.77050000000E+07	-2.97105760692E+01	-1.03490614020E+01
4.79000000000E+07	-2.97719690747E+01	-1.15397824404E+01
4.80950000000E+07	-2.97010277160E+01	-1.13171695567E+01
4.82900000000E+07	-2.97470576604E+01	-1.16206393446E+01
4.84850000000E+07	-2.95591140019E+01	-1.08793849989E+01
4.86800000000E+07	-2.96439393615E+01	-1.18398502171E+01
4.88750000000E+07	-2.95759906443E+01	-1.26973752459E+01
4.90700000000E+07	-2.95361003165E+01	-1.30934260134E+01
4.92650000000E+07	-2.95762924439E+01	-1.26533969605E+01
4.94600000000E+07	-2.94687118858E+01	-1.36852742502E+01
4.96550000000E+07	-2.95357858002E+01	-1.34333726272E+01
4.98500000000E+07	-2.95031262660E+01	-1.33444270244E+01
5.00450000000E+07	-2.94538872617E+01	-1.48356037241E+01
5.02400000000E+07	-2.92979367121E+01	-1.40095953365E+01
5.04350000000E+07	-2.93669677536E+01	-1.53932757900E+01
5.06300000000E+07	-2.93912621679E+01	-1.47331199732E+01
5.08250000000E+07	-2.93933251327E+01	-1.55323366002E+01
5.10200000000E+07	-2.93053366708E+01	-1.63835145659E+01
5.12150000000E+07	-2.92834325552E+01	-1.60923635228E+01
5.14100000000E+07	-2.93641786265E+01	-1.64268980667E+01
5.16050000000E+07	-2.92624802536E+01	-1.73042082892E+01
5.18000000000E+07	-2.92217025718E+01	-1.73887034674E+01
5.19950000000E+07	-2.93341215285E+01	-1.77216794047E+01
5.21900000000E+07	-2.92554994627E+01	-1.81990483418E+01
5.23850000000E+07	-2.91430275084E+01	-1.88229114530E+01
5.25800000000E+07	-2.94204538547E+01	-1.86014195681E+01
5.27750000000E+07	-2.91797549972E+01	-1.97300414482E+01
5.29700000000E+07	-2.92332596626E+01	-1.98055562709E+01
5.31650000000E+07	-2.92400982078E+01	-2.09073059113E+01
5.33600000000E+07	-2.92717661946E+01	-2.06123418110E+01
5.35550000000E+07	-2.92941561798E+01	-2.17214042104E+01
5.37500000000E+07	-2.92991595856E+01	-2.12217325801E+01
5.39450000000E+07	-2.93046948856E+01	-2.17521377371E+01
5.41400000000E+07	-2.91468099733E+01	-2.23208837617E+01
5.43350000000E+07	-2.93910829471E+01	-2.27221458847E+01
5.45300000000E+07	-2.92380743987E+01	-2.34404388505E+01
5.47250000000E+07	-2.92774429994E+01	-2.36784310129E+01
5.49200000000E+07	-2.92911021654E+01	-2.43095372256E+01
5.51150000000E+07	-2.93947549397E+01	-2.43186052538E+01
5.53100000000E+07	-2.94878817449E+01	-2.48293783265E+01
5.55050000000E+07	-2.94103617400E+01	-2.51408708709E+01
5.57000000000E+07	-2.94321118001E+01	-2.53449170665E+01
5.58950000000E+07	-2.94972084394E+01	-2.63722387172E+01
5.60900000000E+07	-2.95220114416E+01	-2.75708495645E+01
5.62850000000E+07	-2.94944222982E+01	-2.74369629181E+01
5.64800000000E+07	-2.94934253009E+01	-2.79633638961E+01
5.66750000000E+07	-2.94732740077E+01	-2.84841777253E+01
5.68700000000E+07	-2.96835420839E+01	-2.83153242359E+01
5.70650000000E+07	-2.96871232340E+01	-2.93137654766E+01
5.72600000000E+07	-2.94865069163E+01	-2.92463990050E+01
5.74550000000E+07	-2.96427535583E+01	-2.96551495289E+01
5.76500000000E+07	-2.97218276012E+01	-2.93647079476E+01
5.78450000000E+07	-2.96647054736E+01	-3.11376812399E+01
5.80400000000E+07	-2.98394765580E+01	-3.14129749149E+01
5.82350000000E+07	-2.97796935745E+01	-3.15745517860E+01
5.84300000000E+07	-2.97420223286E+01	-3.21642117056E+01
5.86250000000E+07	-2.98709598276E+01	-3.23018734318E+01
5.88200000000E+07	-2.99195288051E+01	-3.25904213748E+01
5.90150000000E+07	-2.99862053044E+01	-3.30194185913E+01
5.92100000000E+07	-2.99951127170E+01	-3.46796956139E+01
5.94050000000E+07	-3.01223586408E+01	-3.47355283272E+01
5.96000000000E+07	-3.00742681380E+01	-3.47572630240E+01
5.97950000000E+07	-3.00802775108E+01	-3.54743571325E+01
5.99900000000E+07	-3.01627822150E+01	-3.57135559325E+01
6.01850000000E+07	-3.02486515418E+01	-3.69303851609E+01
6.03800000000E+07	-3.03443474205E+01	-3.75018934362E+01
6.05750000000E+07	-3.02265431051E+01	-3.74618157083E+01
6.07700000000E+07	-3.03477383001E+01	-3.86496531462E+01
6.09650000000E+07	-3.03389710464E+01	-3.89919131397E+01
6.11600000000E+07	-3.05179629460E+01	-3.97599758670E+01
6.13550000000E+07	-3.04423788888E+01	-3.93628283806E+01
6.15500000000E+07	-3.06134497349E+01	-4.03027620541E+01
6.17450000000E+07	-3.05557802184E+01	-4.10375844177E+01
6.19400000000E+07	-3.07265776077E+01	-4.20532693490E+01
6.21350000000E+07	-3.07890459960E+01	-4.20062714934E+01
6.23300000000E+07	-3.08431371180E+01	-4.30525993025E+01
6.25250000000E+07	-3.08972084416E+01	-4.30807660254E+01
6.27200000000E+07	-3.09701439768E+01	-4.36755347702E+01
6.29150000000E+07	-3.10588015326E+01	-4.46591173828E+01
6.31100000000E+07	-3.10717903070E+01	-4.62485629052E+01
6.33050000000E+07	-3.09467711331E+01	-4.48885188693E+01
6.35000000000E+07	-3.12295790660E+01	-4.61711118130E+01
6.36950000000E+07	-3.13850280271E+01	-4.56168269241E+01
6.38900000000E+07	-3.12846351813E+01	-4.83942279424E+01
6.40850000000E+07	-3.15322013567E+01	-4.87621047866E+01
6.42800000000E+07	-3.15807898067E+01	-4.92534351467E+01
6.44750000000E+07	-3.15494089360E+01	-4.98245843245E+01
6.46700000000E+07	-3.17147264443E+01	-5.02184279523E+01
6.48650000000E+07	-3.18116036594E+01	-5.11317293192E+01
6.50600000000E+07	-3.18231487872E+01	-5.07968961232E+01
6.52550000000E+07	-3.20721712501E+01	-5.33069832432E+01
6.54500000000E+07	-3.19969292847E+01	-5.26128474164E+01
6.56450000000E+07	-3.21915926011E+01	-5.32863101216E+01
6.58400000000E+07	-3.21365204417E+01	-5.38586776454E+01
6.60350000000E+07	-3.24308136062E+01	-5.56263817984E+01
6.62300000000E+07	-3.23573560360E+01	-5.65637580551E+01
6.64250000000E+07	-3.26181180637E+01	-5.76305235367E+01
6.66200000000E+07	-3.26785119632E+01	-5.76052771957E+01
6.68150000000E+07	-3.29113279792E+01	-5.77190173078E+01
6.70100000000E+07	-3.28827880331E+01	-5.96435621475E+01
6.72050000000E+07	-3.29292626757E+01	-5.98263511650E+01
6.74000000000E+07	-3.30174407987E+01	-6.04016826918E+01
6.75950000000E+07	-3.32622467551E+01	-6.17292842342E+01
6.77900000000E+07	-3.32677848618E+01	-6.25705841316E+01
6.79850000000E+07	-3.35758331958E+01	-6.31148715693E+01
6.81800000000E+07	-3.35818384699E+01	-6.43492312296E+01
6.83750000000E+07	-3.37391200591E+01	-6.52393109446E+01
6.85700000000E+07	-3.39254170651E+01	-6.59095881854E+01
6.87650000000E+07	-3.38732486446E+01	-6.78481101487E+01
6.89600000000E+07	-3.40166247615E+01	-6.77025511800E+01
6.91550000000E+07	-3.41515500938E+01	-6.81054378348E+01
6.93500000000E+07	-3.41591228903E+01	-6.82328640869E+01
6.95450000000E+07	-3.45370823514E+01	-7.15224882222E+01
6.97400000000E+07	-3.46790186500E+01	-7.18544379971E+01
6.99350000000E+07	-3.48484634736E+01	-7.33951023899E+01
7.01300000000E+07	-3.47999984970E+01	-7.62338772175E+01
7.03250000000E+07	-3.48643132799E+01	-7.58765586923E+01
7.05200000000E+07	-3.50231233116E+01	-7.60666070976E+01
7.07150000000E+07	-3.49974148422E+01	-7.83190222200E+01
7.09100000000E+07	-3.53783178414E+01	-7.96879825570E+01
7.11050000000E+07	-3.56707574741E+01	-8.00598511471E+01
7.13000000000E+07	-3.55544843950E+01	-8.08147917424E+01
7.14950000000E+07	-3.59032501441E+01	-8.54804659806E+01
7.16900000000E+07	-3.60941621268E+01	-8.66950312770E+01
7.18850000000E+07	-3.60542960535E+01	-8.53787317295E+01
7.20800000000E+07	-3.64464954041E+01	-8.83357033857E+01
7.22750000000E+07	-3.65326317442E+01	-8.89367534293E+01
7.24700000000E+07	-3.68464835906E+01	-9.18717323277E+01
7.26650000000E+07	-3.70260097074E+01	-9.21230261109E+01
