# Hz S DB R 50
! CMT, M5045, 22160017, 22.4.3/2
! Date: 1/21/2023 19:54:05
! Data: Format (Calibration Info)
! Freq	S11:dB/Ang(F1)
5.00000000000E+06	-9.80360153598E+00	-7.57151898100E+01
5.19500000000E+06	-1.01660385778E+01	-7.65771539122E+01
5.39000000000E+06	-1.05206796107E+01	-7.75899155486E+01
5.58500000000E+06	-1.08423616974E+01	-7.83815283974E+01
5.78000000000E+06	-1.11397489541E+01	-7.92330207810E+01
5.97500000000E+06	-1.15017861886E+01	-7.97199957990E+01
6.17000000000E+06	-1.17726625454E+01	-8.04991980476E+01
6.36500000000E+06	-1.20600018224E+01	-8.12029461349E+01
6.56000000000E+06	-1.23803336017E+01	-8.17767809230E+01
6.75500000000E+06	-1.26698152057E+01	-8.25493810222E+01
6.95000000000E+06	-1.29219304108E+01	-8.29202262335E+01
7.14500000000E+06	-1.32266595111E+01	-8.34367968378E+01
7.34000000000E+06	-1.34824146827E+01	-8.38320153573E+01
7.53500000000E+06	-1.37703052546E+01	-8.42950799922E+01
7.73000000000E+06	-1.39903474516E+01	-8.47682563721E+01
7.92500000000E+06	-1.42266025277E+01	-8.52885260132E+01
8.12000000000E+06	-1.45155321268E+01	-8.56102213551E+01
8.31500000000E+06	-1.47506748816E+01	-8.61504939450E+01
8.51000000000E+06	-1.50163934873E+01	-8.63787760199E+01
8.70500000000E+06	-1.52525198778E+01	-8.68392576369E+01
8.90000000000E+06	-1.55223668458E+01	-8.69850767709E+01
9.09500000000E+06	-1.57264750146E+01	-8.75199426609E+01
9.29000000000E+06	-1.59733115282E+01	-8.78112445175E+01
9.48500000000E+06	-1.62033168539E+01	-8.81297675205E+01
9.68000000000E+06	-1.64305589256E+01	-8.84529929242E+01
9.87500000000E+06	-1.66617699824E+01	-8.87335573625E+01
1.00700000000E+07	-1.68989027823E+01	-8.89108842056E+01
1.02650000000E+07	-1.70923207008E+01	-8.94069032271E+01
1.04600000000E+07	-1.73041010528E+01	-8.95329559483E+01
1.06550000000E+07	-1.75367613748E+01	-8.98578333487E+01
1.08500000000E+07	-1.77686437365E+01	-9.05015830061E+01
1.10450000000E+07	-1.79875147384E+01	-9.07033566681E+01
1.12400000000E+07	-1.81764161599E+01	-9.06762735849E+01
1.14350000000E+07	-1.84059939658E+01	-9.11519093813E+01
1.16300000000E+07	-1.86245810875E+01	-9.15385672154E+01
1.18250000000E+07	-1.88111219528E+01	-9.17563496334E+01
1.20200000000E+07	-1.90862600654E+01	-9.21236548733E+01
1.22150000000E+07	-1.92423328955E+01	-9.21957274798E+01
1.24100000000E+07	-1.94660582580E+01	-9.23203686265E+01
1.26050000000E+07	-1.96737498472E+01	-9.28851362504E+01
1.28000000000E+07	-1.99054852624E+01	-9.27472172797E+01
1.29950000000E+07	-2.01269867824E+01	-9.31904660358E+01
1.31900000000E+07	-2.03027248870E+01	-9.31088732964E+01
1.33850000000E+07	-2.05701786946E+01	-9.31457111310E+01
1.35800000000E+07	-2.07279396276E+01	-9.31927800863E+01
1.37750000000E+07	-2.09731312802E+01	-9.36456966373E+01
1.39700000000E+07	-2.11858911264E+01	-9.38883837069E+01
1.41650000000E+07	-2.13611934616E+01	-9.35440467054E+01
1.43600000000E+07	-2.16289576172E+01	-9.37552185015E+01
1.45550000000E+07	-2.18293628543E+01	-9.39919980651E+01
1.47500000000E+07	-2.20633395184E+01	-9.36357120484E+01
1.49450000000E+07	-2.23070576490E+01	-9.38531495973E+01
1.51400000000E+07	-2.24334277308E+01	-9.40148193861E+01
1.53350000000E+07	-2.27444357164E+01	-9.37919448231E+01
1.55300000000E+07	-2.28448510743E+01	-9.40476361586E+01
1.57250000000E+07	-2.30907566843E+01	-9.39192844954E+01
1.59200000000E+07	-2.33522397280E+01	-9.44501688061E+01
1.61150000000E+07	-2.35064580560E+01	-9.35558563872E+01
1.63100000000E+07	-2.36744486953E+01	-9.39234708127E+01
1.65050000000E+07	-2.40872225608E+01	-9.38431209811E+01
1.67000000000E+07	-2.41811343105E+01	-9.38694411616E+01
1.68950000000E+07	-2.44704966117E+01	-9.37054602993E+01
1.70900000000E+07	-2.46936517148E+01	-9.35863910276E+01
1.72850000000E+07	-2.49100293189E+01	-9.31321146978E+01
1.74800000000E+07	-2.51353172702E+01	-9.32530396894E+01
1.76750000000E+07	-2.53765127558E+01	-9.25021319938E+01
1.78700000000E+07	-2.56100424910E+01	-9.25808146711E+01
1.80650000000E+07	-2.57395758013E+01	-9.19721323279E+01
1.82600000000E+07	-2.60331204350E+01	-9.19820849543E+01
1.84550000000E+07	-2.63222309122E+01	-9.17500510505E+01
1.86500000000E+07	-2.64778205647E+01	-9.16004529266E+01
1.88450000000E+07	-2.68203731843E+01	-9.07894529437E+01
1.90400000000E+07	-2.70470769120E+01	-9.10019730680E+01
1.92350000000E+07	-2.71701743308E+01	-9.02329878567E+01
1.94300000000E+07	-2.73746654984E+01	-8.93883188267E+01
1.96250000000E+07	-2.76813499527E+01	-8.97658132696E+01
1.98200000000E+07	-2.79877115304E+01	-8.87118626223E+01
2.00150000000E+07	-2.81185345856E+01	-8.84358585802E+01
2.02100000000E+07	-2.84407353887E+01	-8.71401770622E+01
2.04050000000E+07	-2.86562438843E+01	-8.68533563909E+01
2.06000000000E+07	-2.88585024849E+01	-8.68046623631E+01
2.07950000000E+07	-2.91518186546E+01	-8.54570024376E+01
2.09900000000E+07	-2.94525311088E+01	-8.46669936012E+01
2.11850000000E+07	-2.98133913885E+01	-8.29103890188E+01
2.13800000000E+07	-2.99371245354E+01	-8.25279596699E+01
2.15750000000E+07	-3.01079010755E+01	-8.17928254699E+01
2.17700000000E+07	-3.03174975943E+01	-8.09985148265E+01
2.19650000000E+07	-3.05767787316E+01	-7.90233007130E+01
2.21600000000E+07	-3.08811127006E+01	-7.80462447944E+01
2.23550000000E+07	-3.11299002329E+01	-7.71643944640E+01
2.25500000000E+07	-3.13252303743E+01	-7.63524064685E+01
2.27450000000E+07	-3.16666735211E+01	-7.39572491340E+01
2.29400000000E+07	-3.19217535025E+01	-7.28617493160E+01
2.31350000000E+07	-3.21558917070E+01	-7.18848418760E+01
2.33300000000E+07	-3.21342085203E+01	-7.01093851044E+01
2.35250000000E+07	-3.24271841214E+01	-6.72483630500E+01
2.37200000000E+07	-3.25768724757E+01	-6.58719944114E+01
2.39150000000E+07	-3.30212999939E+01	-6.27594540747E+01
2.41100000000E+07	-3.29305993242E+01	-6.15101759168E+01
2.43050000000E+07	-3.31503152212E+01	-6.00312732903E+01
2.45000000000E+07	-3.31217037365E+01	-5.84276247918E+01
2.46950000000E+07	-3.34451578971E+01	-5.51087121182E+01
2.48900000000E+07	-3.35041890506E+01	-5.31511632495E+01
2.50850000000E+07	-3.36929685340E+01	-5.19273089953E+01
2.52800000000E+07	-3.35078036274E+01	-4.91317390743E+01
2.54750000000E+07	-3.37212782184E+01	-4.68356224432E+01
2.56700000000E+07	-3.38615654393E+01	-4.54013614915E+01
2.58650000000E+07	-3.40869368372E+01	-4.13593530668E+01
2.60600000000E+07	-3.37345425469E+01	-3.93948965239E+01
2.62550000000E+07	-3.36595798622E+01	-3.83882730091E+01
2.64500000000E+07	-3.38331201005E+01	-3.65404890100E+01
2.66450000000E+07	-3.35735644596E+01	-3.44417302464E+01
2.68400000000E+07	-3.38603683715E+01	-3.25316409225E+01
2.70350000000E+07	-3.35158227398E+01	-2.87512561991E+01
2.72300000000E+07	-3.34371734777E+01	-2.82543378316E+01
2.74250000000E+07	-3.32030581503E+01	-2.51349300642E+01
2.76200000000E+07	-3.31547194374E+01	-2.57676770394E+01
2.78150000000E+07	-3.30045313231E+01	-2.30805490563E+01
2.80100000000E+07	-3.28863903416E+01	-2.13503140455E+01
2.82050000000E+07	-3.29053206667E+01	-1.90143823804E+01
2.84000000000E+07	-3.26261901190E+01	-1.84846004039E+01
2.85950000000E+07	-3.24836633825E+01	-1.69745066012E+01
2.87900000000E+07	-3.22340266401E+01	-1.58593415339E+01
2.89850000000E+07	-3.22662612775E+01	-1.46182126781E+01
2.91800000000E+07	-3.17784109012E+01	-1.33088509943E+01
2.93750000000E+07	-3.18422814867E+01	-1.24724823902E+01
2.95700000000E+07	-3.17565750516E+01	-1.11541523383E+01
2.97650000000E+07	-3.14019605650E+01	-9.89494256424E+00
2.99600000000E+07	-3.13508153040E+01	-9.35422985735E+00
3.01550000000E+07	-3.11189117888E+01	-9.45926608274E+00
3.03500000000E+07	-3.10595841163E+01	-9.20240639660E+00
3.05450000000E+07	-3.07194651419E+01	-7.55988808144E+00
3.07400000000E+07	-3.06902519621E+01	-6.66104761437E+00
3.09350000000E+07	-3.04612853091E+01	-6.27225337069E+00
3.11300000000E+07	-3.03048387559E+01	-4.79034882527E+00
3.13250000000E+07	-3.02636303010E+01	-5.35906746577E+00
3.15200000000E+07	-2.99893214714E+01	-4.78207541360E+00
3.17150000000E+07	-2.99339417930E+01	-4.25055450920E+00
3.19100000000E+07	-2.97444302340E+01	-3.28827657496E+00
3.21050000000E+07	-2.96115711676E+01	-3.36337201584E+00
3.23000000000E+07	-2.95221754497E+01	-4.42694119018E+00
3.24950000000E+07	-2.92817144693E+01	-2.81863279177E+00
3.26900000000E+07	-2.91790108966E+01	-2.64047831179E+00
3.28850000000E+07	-2.90731728558E+01	-1.77231336490E+00
3.30800000000E+07	-2.89126730930E+01	-2.10110496082E+00
3.32750000000E+07	-2.88310560536E+01	-2.15011673568E+00
3.34700000000E+07	-2.86193257360E+01	-1.36597446854E+00
3.36650000000E+07	-2.85572948353E+01	-2.44721581911E+00
3.38600000000E+07	-2.83672620205E+01	-2.12332591978E+00
3.40550000000E+07	-2.82990836367E+01	-2.24979893138E+00
3.42500000000E+07	-2.81294255169E+01	-1.06330234628E+00
3.44450000000E+07	-2.80709000503E+01	-1.26988943683E+00
3.46400000000E+07	-2.78647028636E+01	-1.57655237581E+00
3.48350000000E+07	-2.78468903777E+01	-1.40899587397E+00
3.50300000000E+07	-2.77549780345E+01	-1.59157447879E+00
3.52250000000E+07	-2.75741217113E+01	-1.38584537583E+00
3.54200000000E+07	-2.74787387500E+01	-1.85651351512E+00
3.56150000000E+07	-2.74419027823E+01	-1.46954104558E+00
3.58100000000E+07	-2.71452207462E+01	-2.05964529685E+00
3.60050000000E+07	-2.71659241777E+01	-1.71219866067E+00
3.62000000000E+07	-2.69734427761E+01	-1.63501396581E+00
3.63950000000E+07	-2.69725656972E+01	-2.26892927690E+00
3.65900000000E+07	-2.69700621101E+01	-1.92097732113E+00
3.67850000000E+07	-2.67115137951E+01	-2.49121430408E+00
3.69800000000E+07	-2.67309096340E+01	-2.40203427269E+00
3.71750000000E+07	-2.65366888662E+01	-2.10075585473E+00
3.73700000000E+07	-2.64790728152E+01	-2.81008723923E+00
3.75650000000E+07	-2.64677453767E+01	-2.19734597958E+00
3.77600000000E+07	-2.62641658606E+01	-3.35844818894E+00
3.79550000000E+07	-2.63851235203E+01	-3.61168644005E+00
3.81500000000E+07	-2.62210226697E+01	-2.97340699365E+00
3.83450000000E+07	-2.61945472732E+01	-3.63185052350E+00
3.85400000000E+07	-2.60456675863E+01	-3.74577327716E+00
3.87350000000E+07	-2.58902706045E+01	-3.78975353356E+00
3.89300000000E+07	-2.58702933037E+01	-4.08101219238E+00
3.91250000000E+07	-2.57457877597E+01	-4.25590858773E+00
3.93200000000E+07	-2.57585001241E+01	-4.19025826563E+00
3.95150000000E+07	-2.56373091679E+01	-4.33059554863E+00
3.97100000000E+07	-2.56250898292E+01	-4.86555575235E+00
3.99050000000E+07	-2.55574246616E+01	-4.40500241206E+00
4.01000000000E+07	-2.54314706389E+01	-5.28641341781E+00
4.02950000000E+07	-2.55035589972E+01	-5.70573836826E+00
4.04900000000E+07	-2.53309747022E+01	-5.85658810743E+00
4.06850000000E+07	-2.53424701807E+01	-5.81591149981E+00
4.08800000000E+07	-2.51558144369E+01	-6.62012122868E+00
4.10750000000E+07	-2.51791781441E+01	-6.52357022999E+00
4.12700000000E+07	-2.50740745808E+01	-6.75161013209E+00
4.14650000000E+07	-2.49853824922E+01	-6.59144191492E+00
4.16600000000E+07	-2.50125597849E+01	-7.15126027799E+00
4.18550000000E+07	-2.49800290970E+01	-6.97451384732E+00
4.20500000000E+07	-2.48248804719E+01	-7.77525418866E+00
4.22450000000E+07	-2.48023507632E+01	-7.96640813700E+00
4.24400000000E+07	-2.47680310052E+01	-8.16021579737E+00
4.26350000000E+07	-2.47123285273E+01	-8.41513907276E+00
4.28300000000E+07	-2.46502460982E+01	-9.14120279186E+00
4.30250000000E+07	-2.46195590450E+01	-8.75273551326E+00
4.32200000000E+07	-2.45879222304E+01	-8.94322344639E+00
4.34150000000E+07	-2.44967176668E+01	-9.72774403084E+00
4.36100000000E+07	-2.44910567290E+01	-1.00468481770E+01
4.38050000000E+07	-2.44048146763E+01	-1.07635991978E+01
4.40000000000E+07	-2.43956990474E+01	-1.04529494543E+01
4.41950000000E+07	-2.42823673913E+01	-1.10055808536E+01
4.43900000000E+07	-2.42015007321E+01	-1.07538409825E+01
4.45850000000E+07	-2.42160627266E+01	-1.14960748086E+01
4.47800000000E+07	-2.41688709185E+01	-1.18476333420E+01
4.49750000000E+07	-2.41044471249E+01	-1.24942306671E+01
4.51700000000E+07	-2.40472945609E+01	-1.26579195864E+01
4.53650000000E+07	-2.40562588827E+01	-1.30847352451E+01
4.55600000000E+07	-2.39619871621E+01	-1.28736191677E+01
4.57550000000E+07	-2.39738851238E+01	-1.36069279514E+01
4.59500000000E+07	-2.39723835072E+01	-1.34152644842E+01
4.61450000000E+07	-2.38971782541E+01	-1.43899043790E+01
4.63400000000E+07	-2.38897606265E+01	-1.38990554895E+01
4.65350000000E+07	-2.37404354504E+01	-1.45306396858E+01
4.67300000000E+07	-2.37351825832E+01	-1.48522157473E+01
4.69250000000E+07	-2.36866006661E+01	-1.59954712964E+01
4.71200000000E+07	-2.36908778781E+01	-1.62420613087E+01
4.73150000000E+07	-2.35608608537E+01	-1.59008792244E+01
4.75100000000E+07	-2.35820244591E+01	-1.67686971692E+01
4.77050000000E+07	-2.36023797417E+01	-1.68436197970E+01
4.79000000000E+07	-2.36072398361E+01	-1.78209157251E+01
4.80950000000E+07	-2.35056785157E+01	-1.76293486898E+01
4.82900000000E+07	-2.34938636777E+01	-1.82751249267E+01
4.84850000000E+07	-2.34424863317E+01	-1.88425448514E+01
4.86800000000E+07	-2.33678845317E+01	-1.91525039215E+01
4.88750000000E+07	-2.34473452227E+01	-1.94481800287E+01
4.90700000000E+07	-2.33809283453E+01	-1.97085384318E+01
4.92650000000E+07	-2.32970793595E+01	-2.03906421250E+01
4.94600000000E+07	-2.33096560519E+01	-2.10288821283E+01
4.96550000000E+07	-2.32350838982E+01	-2.09536644900E+01
4.98500000000E+07	-2.32438847950E+01	-2.12856312838E+01
5.00450000000E+07	-2.32193212314E+01	-2.17409274948E+01
5.02400000000E+07	-2.31748032898E+01	-2.17993923905E+01
5.04350000000E+07	-2.31623618494E+01	-2.27218320047E+01
5.06300000000E+07	-2.31781691050E+01	-2.27326683807E+01
5.08250000000E+07	-2.30930612106E+01	-2.33586718529E+01
5.10200000000E+07	-2.31660873011E+01	-2.36917737794E+01
5.12150000000E+07	-2.31085305120E+01	-2.45109291767E+01
5.14100000000E+07	-2.30326337159E+01	-2.44256059099E+01
5.16050000000E+07	-2.29845313250E+01	-2.49407968956E+01
5.18000000000E+07	-2.30748392737E+01	-2.52460364598E+01
5.19950000000E+07	-2.30346360376E+01	-2.58989932431E+01
5.21900000000E+07	-2.30443144589E+01	-2.63183855387E+01
5.23850000000E+07	-2.29996606497E+01	-2.64061726006E+01
5.25800000000E+07	-2.30108100566E+01	-2.70472207334E+01
5.27750000000E+07	-2.29770105900E+01	-2.72882226763E+01
5.29700000000E+07	-2.29340665036E+01	-2.80438352368E+01
5.31650000000E+07	-2.29032381678E+01	-2.85471125222E+01
5.33600000000E+07	-2.29421564464E+01	-2.90374376073E+01
5.35550000000E+07	-2.28188510556E+01	-2.93302396156E+01
5.37500000000E+07	-2.28971724035E+01	-2.89947681917E+01
5.39450000000E+07	-2.28752353592E+01	-3.05063307219E+01
5.41400000000E+07	-2.28107217855E+01	-3.03133501579E+01
5.43350000000E+07	-2.28330982092E+01	-3.07672599360E+01
5.45300000000E+07	-2.28268801417E+01	-3.15150625523E+01
5.47250000000E+07	-2.28129499831E+01	-3.20925989934E+01
5.49200000000E+07	-2.27659212389E+01	-3.26764922487E+01
5.51150000000E+07	-2.28039361063E+01	-3.29229165047E+01
5.53100000000E+07	-2.27652414779E+01	-3.34024030920E+01
5.55050000000E+07	-2.27787840652E+01	-3.37132988199E+01
5.57000000000E+07	-2.27411828607E+01	-3.44366770822E+01
5.58950000000E+07	-2.27847128864E+01	-3.46267323567E+01
5.60900000000E+07	-2.27037570696E+01	-3.53794813526E+01
5.62850000000E+07	-2.26728175273E+01	-3.58358436180E+01
5.64800000000E+07	-2.26947437179E+01	-3.60237759886E+01
5.66750000000E+07	-2.27093059112E+01	-3.60961437183E+01
5.68700000000E+07	-2.27101657297E+01	-3.73872521757E+01
5.70650000000E+07	-2.26763409026E+01	-3.70368648060E+01
5.72600000000E+07	-2.26863391251E+01	-3.77489923018E+01
5.74550000000E+07	-2.26657190655E+01	-3.82761495326E+01
5.76500000000E+07	-2.26819608693E+01	-3.91715216105E+01
5.78450000000E+07	-2.26706316621E+01	-3.92388813069E+01
5.80400000000E+07	-2.26694438082E+01	-4.02493803437E+01
5.82350000000E+07	-2.26377321138E+01	-4.01593113853E+01
5.84300000000E+07	-2.26534531697E+01	-4.08380173050E+01
5.86250000000E+07	-2.26689555050E+01	-4.12883653656E+01
5.88200000000E+07	-2.26748462470E+01	-4.13336731873E+01
5.90150000000E+07	-2.26959582355E+01	-4.25218257354E+01
5.92100000000E+07	-2.26147897127E+01	-4.29585587503E+01
5.94050000000E+07	-2.26195968999E+01	-4.32269625050E+01
5.96000000000E+07	-2.26523082550E+01	-4.40632097612E+01
5.97950000000E+07	-2.26320514869E+01	-4.44761602971E+01
5.99900000000E+07	-2.26899146708E+01	-4.51353557792E+01
6.01850000000E+07	-2.26581406111E+01	-4.54010431754E+01
6.03800000000E+07	-2.26514517694E+01	-4.59709113246E+01
6.05750000000E+07	-2.26278196423E+01	-4.62089958625E+01
6.07700000000E+07	-2.25967242454E+01	-4.67988552948E+01
6.09650000000E+07	-2.26348775986E+01	-4.71869852986E+01
6.11600000000E+07	-2.25978728379E+01	-4.80658927759E+01
6.13550000000E+07	-2.26850351049E+01	-4.84192622204E+01
6.15500000000E+07	-2.26315906322E+01	-4.90393142353E+01
6.17450000000E+07	-2.26601601736E+01	-4.95665193331E+01
6.19400000000E+07	-2.26867558773E+01	-5.00056672150E+01
6.21350000000E+07	-2.26821816583E+01	-5.02981894049E+01
6.23300000000E+07	-2.26787300586E+01	-5.10821074206E+01
6.25250000000E+07	-2.26868603640E+01	-5.18025152902E+01
6.27200000000E+07	-2.26961846292E+01	-5.17165706741E+01
6.29150000000E+07	-2.26854953628E+01	-5.25183688684E+01
6.31100000000E+07	-2.26946023901E+01	-5.32191549265E+01
6.33050000000E+07	-2.27207691932E+01	-5.37584294532E+01
6.35000000000E+07	-2.26833759305E+01	-5.40458669356E+01
6.36950000000E+07	-2.27030813582E+01	-5.48827182311E+01
6.38900000000E+07	-2.27004718305E+01	-5.54216396945E+01
6.40850000000E+07	-2.27078299137E+01	-5.60190046918E+01
6.42800000000E+07	-2.27562300533E+01	-5.64839026879E+01
6.44750000000E+07	-2.27315128707E+01	-5.67430801156E+01
6.46700000000E+07	-2.27269871717E+01	-5.75824811034E+01
6.48650000000E+07	-2.27228685805E+01	-5.81799873330E+01
6.50600000000E+07	-2.27814885630E+01	-5.83986902127E+01
6.52550000000E+07	-2.28004580314E+01	-5.93496989998E+01
6.54500000000E+07	-2.27828642798E+01	-5.96128085908E+01
6.56450000000E+07	-2.28001332536E+01	-6.04516701652E+01
6.58400000000E+07	-2.27651839868E+01	-6.08736321390E+01
6.60350000000E+07	-2.28242917304E+01	-6.14150362589E+01
6.62300000000E+07	-2.28671946197E+01	-6.22384299612E+01
6.64250000000E+07	-2.28551770336E+01	-6.25786742413E+01
6.66200000000E+07	-2.28434550053E+01	-6.33194408720E+01
6.68150000000E+07	-2.28427903952E+01	-6.39182700195E+01
6.70100000000E+07	-2.28428748423E+01	-6.41884974803E+01
6.72050000000E+07	-2.28728891230E+01	-6.50251771569E+01
6.74000000000E+07	-2.29068102241E+01	-6.57123472723E+01
6.75950000000E+07	-2.29322605589E+01	-6.57758425802E+01
6.77900000000E+07	-2.29379551764E+01	-6.68579649863E+01
6.79850000000E+07	-2.28864962116E+01	-6.75094665288E+01
6.81800000000E+07	-2.29791006461E+01	-6.77756207052E+01
6.83750000000E+07	-2.29308749312E+01	-6.83295537714E+01
6.85700000000E+07	-2.29574868853E+01	-6.94581829893E+01
6.87650000000E+07	-2.29774459239E+01	-6.97111488617E+01
6.89600000000E+07	-2.30199663734E+01	-7.05127895593E+01
6.91550000000E+07	-2.30030335006E+01	-7.06352029892E+01
6.93500000000E+07	-2.30350691804E+01	-7.14073623961E+01
6.95450000000E+07	-2.30366214701E+01	-7.21915925769E+01
6.97400000000E+07	-2.31049457632E+01	-7.26882939546E+01
6.99350000000E+07	-2.31389311608E+01	-7.30451964325E+01
7.01300000000E+07	-2.31214574700E+01	-7.41491303776E+01
7.03250000000E+07	-2.31123431366E+01	-7.45918463172E+01
7.05200000000E+07	-2.30927827089E+01	-7.48173043418E+01
7.07150000000E+07	-2.31199804183E+01	-7.54444799927E+01
7.09100000000E+07	-2.31624700862E+01	-7.64284389462E+01
7.11050000000E+07	-2.31789380982E+01	-7.67973351400E+01
7.13000000000E+07	-2.31703118014E+01	-7.79885095202E+01
7.14950000000E+07	-2.31675697045E+01	-7.83519070040E+01
7.16900000000E+07	-2.31808987292E+01	-7.87837230604E+01
7.18850000000E+07	-2.32149993607E+01	-7.93323515130E+01
7.20800000000E+07	-2.32477929450E+01	-7.98386148341E+01
7.22750000000E+07	-2.32240409684E+01	-8.12256910006E+01
7.24700000000E+07	-2.33036925416E+01	-8.15914154480E+01
7.26650000000E+07	-2.32976519957E+01	-8.23160798948E+01
