# Hz S DB R 50
! CMT, M5045, 22160017, 22.4.3/2
! Date: 1/21/2023 20:09:25
! Data: Format (Calibration Info)
! Freq	S11:dB/Ang(F1)
5.00000000000E+06	-9.91456992326E+00	-7.80133383878E+01
5.19500000000E+06	-1.02540942490E+01	-7.89986748692E+01
5.39000000000E+06	-1.06041766669E+01	-8.00076117915E+01
5.58500000000E+06	-1.09555675954E+01	-8.08425124826E+01
5.78000000000E+06	-1.12634729877E+01	-8.17208009108E+01
5.97500000000E+06	-1.15882317635E+01	-8.24918028494E+01
6.17000000000E+06	-1.19001783404E+01	-8.32471433892E+01
6.36500000000E+06	-1.22113323883E+01	-8.41218395095E+01
6.56000000000E+06	-1.25142783076E+01	-8.45512759732E+01
6.75500000000E+06	-1.28179134891E+01	-8.53062225365E+01
6.95000000000E+06	-1.30850330476E+01	-8.58827374416E+01
7.14500000000E+06	-1.33878777202E+01	-8.65385195210E+01
7.34000000000E+06	-1.36141895048E+01	-8.71790796690E+01
7.53500000000E+06	-1.39089986465E+01	-8.76442073874E+01
7.73000000000E+06	-1.41992631657E+01	-8.83562263558E+01
7.92500000000E+06	-1.44590844206E+01	-8.86858672749E+01
8.12000000000E+06	-1.46782457780E+01	-8.92798309810E+01
8.31500000000E+06	-1.49633712314E+01	-8.96767133877E+01
8.51000000000E+06	-1.52233187756E+01	-9.01794582744E+01
8.70500000000E+06	-1.55031489870E+01	-9.06550410425E+01
8.90000000000E+06	-1.57361373621E+01	-9.09511408305E+01
9.09500000000E+06	-1.59754651804E+01	-9.15010715753E+01
9.29000000000E+06	-1.62086704739E+01	-9.22065707619E+01
9.48500000000E+06	-1.64369402071E+01	-9.26223337154E+01
9.68000000000E+06	-1.66797850782E+01	-9.29894132067E+01
9.87500000000E+06	-1.69237258813E+01	-9.31791678660E+01
1.00700000000E+07	-1.71688876463E+01	-9.34328396445E+01
1.02650000000E+07	-1.74157586492E+01	-9.42120204500E+01
1.04600000000E+07	-1.76500435257E+01	-9.45692033790E+01
1.06550000000E+07	-1.78203319971E+01	-9.50591856640E+01
1.08500000000E+07	-1.80793859832E+01	-9.53688471227E+01
1.10450000000E+07	-1.83033266592E+01	-9.57610072384E+01
1.12400000000E+07	-1.85320311487E+01	-9.59200903972E+01
1.14350000000E+07	-1.87432027058E+01	-9.65885861772E+01
1.16300000000E+07	-1.89788937458E+01	-9.70634938380E+01
1.18250000000E+07	-1.91678739305E+01	-9.73469256331E+01
1.20200000000E+07	-1.93605201158E+01	-9.74770950890E+01
1.22150000000E+07	-1.97306666623E+01	-9.81795570347E+01
1.24100000000E+07	-1.98691904979E+01	-9.82059812110E+01
1.26050000000E+07	-2.01092406865E+01	-9.84071900155E+01
1.28000000000E+07	-2.03664521764E+01	-9.89021457657E+01
1.29950000000E+07	-2.05229156104E+01	-9.93534081018E+01
1.31900000000E+07	-2.08185879064E+01	-9.93158919056E+01
1.33850000000E+07	-2.10479051466E+01	-9.99420737736E+01
1.35800000000E+07	-2.12719670855E+01	-1.00191806372E+02
1.37750000000E+07	-2.15396349906E+01	-1.00296938327E+02
1.39700000000E+07	-2.17730393816E+01	-1.00669035544E+02
1.41650000000E+07	-2.20051742713E+01	-1.00546988906E+02
1.43600000000E+07	-2.22061368766E+01	-1.01126439056E+02
1.45550000000E+07	-2.24185364111E+01	-1.01117367186E+02
1.47500000000E+07	-2.27065062533E+01	-1.01588144939E+02
1.49450000000E+07	-2.29742981065E+01	-1.01501595848E+02
1.51400000000E+07	-2.31726085420E+01	-1.02088924701E+02
1.53350000000E+07	-2.33840691476E+01	-1.01823254577E+02
1.55300000000E+07	-2.36168645112E+01	-1.02321570383E+02
1.57250000000E+07	-2.39470435767E+01	-1.02141617791E+02
1.59200000000E+07	-2.40898709770E+01	-1.02195421781E+02
1.61150000000E+07	-2.43551779862E+01	-1.02776168188E+02
1.63100000000E+07	-2.46672717401E+01	-1.02586088217E+02
1.65050000000E+07	-2.49344660596E+01	-1.03351673380E+02
1.67000000000E+07	-2.52200670256E+01	-1.02652723219E+02
1.68950000000E+07	-2.53832319162E+01	-1.03003544827E+02
1.70900000000E+07	-2.56537762980E+01	-1.02745494949E+02
1.72850000000E+07	-2.60019891168E+01	-1.02858971932E+02
1.74800000000E+07	-2.62504590040E+01	-1.03398124624E+02
1.76750000000E+07	-2.65785479416E+01	-1.02930792823E+02
1.78700000000E+07	-2.68030646427E+01	-1.02955789124E+02
1.80650000000E+07	-2.71239636783E+01	-1.03243486746E+02
1.82600000000E+07	-2.75007691658E+01	-1.03305114179E+02
1.84550000000E+07	-2.77251969029E+01	-1.02759509409E+02
1.86500000000E+07	-2.79312215656E+01	-1.02896880065E+02
1.88450000000E+07	-2.83034177341E+01	-1.02967047523E+02
1.90400000000E+07	-2.85161439583E+01	-1.02729233917E+02
1.92350000000E+07	-2.90132810186E+01	-1.01733971852E+02
1.94300000000E+07	-2.92734511566E+01	-1.02057007697E+02
1.96250000000E+07	-2.96965457372E+01	-1.01020167985E+02
1.98200000000E+07	-2.98325938263E+01	-1.01197601521E+02
2.00150000000E+07	-3.03251835618E+01	-1.01472377968E+02
2.02100000000E+07	-3.05951013357E+01	-1.00103939350E+02
2.04050000000E+07	-3.08744457220E+01	-9.99135945096E+01
2.06000000000E+07	-3.13217947744E+01	-9.97821636992E+01
2.07950000000E+07	-3.16288952332E+01	-9.80251721103E+01
2.09900000000E+07	-3.20218346017E+01	-9.73830899326E+01
2.11850000000E+07	-3.25702059482E+01	-9.57422454466E+01
2.13800000000E+07	-3.28728445944E+01	-9.57355791016E+01
2.15750000000E+07	-3.34543246847E+01	-9.45563344103E+01
2.17700000000E+07	-3.35627580145E+01	-9.34698827344E+01
2.19650000000E+07	-3.40820418947E+01	-9.26406764665E+01
2.21600000000E+07	-3.47967384352E+01	-9.18803026982E+01
2.23550000000E+07	-3.49914611364E+01	-8.77530126463E+01
2.25500000000E+07	-3.53739747016E+01	-8.50520141504E+01
2.27450000000E+07	-3.58381499507E+01	-8.39844031144E+01
2.29400000000E+07	-3.61781848023E+01	-8.16009925374E+01
2.31350000000E+07	-3.66380376381E+01	-7.76790318012E+01
2.33300000000E+07	-3.68699886977E+01	-7.89818212785E+01
2.35250000000E+07	-3.76279741735E+01	-7.32399643651E+01
2.37200000000E+07	-3.81814807506E+01	-7.24273689325E+01
2.39150000000E+07	-3.84859282179E+01	-6.44486482785E+01
2.41100000000E+07	-3.87261027448E+01	-6.21895703454E+01
2.43050000000E+07	-3.90120401426E+01	-5.88715394819E+01
2.45000000000E+07	-3.89566090677E+01	-5.43061440706E+01
2.46950000000E+07	-3.95927125678E+01	-4.72338493070E+01
2.48900000000E+07	-3.90297410235E+01	-4.22440558223E+01
2.50850000000E+07	-3.88149088846E+01	-3.60743806509E+01
2.52800000000E+07	-3.92453554935E+01	-3.40226961907E+01
2.54750000000E+07	-3.89188897088E+01	-2.99815161787E+01
2.56700000000E+07	-3.90970019468E+01	-2.49927241924E+01
2.58650000000E+07	-3.84399335732E+01	-2.40379939545E+01
2.60600000000E+07	-3.80957318646E+01	-1.43187719834E+01
2.62550000000E+07	-3.80319290934E+01	-1.42318411994E+01
2.64500000000E+07	-3.77475228558E+01	-1.05317709051E+01
2.66450000000E+07	-3.73093695262E+01	-5.02863617706E+00
2.68400000000E+07	-3.70806572266E+01	-3.77312574821E+00
2.70350000000E+07	-3.65155422012E+01	-2.81327629792E+00
2.72300000000E+07	-3.63843538195E+01	2.96256859827E-01
2.74250000000E+07	-3.61563912203E+01	1.58201434330E+00
2.76200000000E+07	-3.55807123987E+01	5.07746470729E-01
2.78150000000E+07	-3.52054934313E+01	2.37651104982E+00
2.80100000000E+07	-3.51677472350E+01	3.69600069669E+00
2.82050000000E+07	-3.44151117969E+01	6.80400309904E+00
2.84000000000E+07	-3.43445126566E+01	6.89710185985E+00
2.85950000000E+07	-3.37874420090E+01	6.78459984429E+00
2.87900000000E+07	-3.36848786908E+01	8.49276836967E+00
2.89850000000E+07	-3.35035853299E+01	1.05098853652E+01
2.91800000000E+07	-3.30614333983E+01	9.53253183239E+00
2.93750000000E+07	-3.30036980499E+01	1.06645182349E+01
2.95700000000E+07	-3.26373631817E+01	1.17304670381E+01
2.97650000000E+07	-3.23815413989E+01	1.12783547927E+01
2.99600000000E+07	-3.21049826190E+01	1.23717240759E+01
3.01550000000E+07	-3.18604469620E+01	1.26948349541E+01
3.03500000000E+07	-3.15701158249E+01	1.26460522778E+01
3.05450000000E+07	-3.12607481438E+01	1.31765771498E+01
3.07400000000E+07	-3.11217322616E+01	1.31734754975E+01
3.09350000000E+07	-3.09102546088E+01	1.30752598441E+01
3.11300000000E+07	-3.06213151157E+01	1.32632997788E+01
3.13250000000E+07	-3.04237254549E+01	1.30249164129E+01
3.15200000000E+07	-3.03323349736E+01	1.38861211479E+01
3.17150000000E+07	-3.00821049308E+01	1.29567904918E+01
3.19100000000E+07	-3.00272006306E+01	1.27345866344E+01
3.21050000000E+07	-2.98248479602E+01	1.37686098160E+01
3.23000000000E+07	-2.95210299604E+01	1.37716690722E+01
3.24950000000E+07	-2.93567855163E+01	1.33147701235E+01
3.26900000000E+07	-2.93516680558E+01	1.36470624234E+01
3.28850000000E+07	-2.91082260458E+01	1.31366156919E+01
3.30800000000E+07	-2.88312273812E+01	1.36254688490E+01
3.32750000000E+07	-2.87740466555E+01	1.37165057961E+01
3.34700000000E+07	-2.87229623177E+01	1.31967607423E+01
3.36650000000E+07	-2.84805640167E+01	1.29822266199E+01
3.38600000000E+07	-2.83536981002E+01	1.31353772750E+01
3.40550000000E+07	-2.82365502148E+01	1.23088440594E+01
3.42500000000E+07	-2.80904945089E+01	1.19440139845E+01
3.44450000000E+07	-2.79324974271E+01	1.26827705185E+01
3.46400000000E+07	-2.78338768786E+01	1.21692408933E+01
3.48350000000E+07	-2.77019461402E+01	1.14502279307E+01
3.50300000000E+07	-2.74855436406E+01	1.17919904155E+01
3.52250000000E+07	-2.75033527884E+01	1.18978126718E+01
3.54200000000E+07	-2.73266277937E+01	1.09482574412E+01
3.56150000000E+07	-2.71782655123E+01	1.06358264557E+01
3.58100000000E+07	-2.70355265292E+01	1.07663170966E+01
3.60050000000E+07	-2.70212954485E+01	1.05598654325E+01
3.62000000000E+07	-2.68798149819E+01	9.79858403622E+00
3.63950000000E+07	-2.69118437390E+01	9.71196127466E+00
3.65900000000E+07	-2.66676533512E+01	9.32465689292E+00
3.67850000000E+07	-2.66593292065E+01	8.92496582129E+00
3.69800000000E+07	-2.64980448089E+01	8.92362218233E+00
3.71750000000E+07	-2.65086137920E+01	8.23506347410E+00
3.73700000000E+07	-2.63730342424E+01	8.16017483646E+00
3.75650000000E+07	-2.62492991272E+01	7.48424274480E+00
3.77600000000E+07	-2.61306150927E+01	7.70896824089E+00
3.79550000000E+07	-2.61780031762E+01	7.58735624283E+00
3.81500000000E+07	-2.60002336922E+01	7.18651914439E+00
3.83450000000E+07	-2.59090011880E+01	6.43590780986E+00
3.85400000000E+07	-2.58508181506E+01	7.26265120025E+00
3.87350000000E+07	-2.57474945920E+01	6.43645950046E+00
3.89300000000E+07	-2.57025496777E+01	6.40517993258E+00
3.91250000000E+07	-2.57002241776E+01	4.69058206109E+00
3.93200000000E+07	-2.56039324077E+01	5.07689354406E+00
3.95150000000E+07	-2.54742011346E+01	4.79877560273E+00
3.97100000000E+07	-2.53779299311E+01	4.31517010399E+00
3.99050000000E+07	-2.53097368872E+01	4.47866785662E+00
4.01000000000E+07	-2.52525208647E+01	3.59508111220E+00
4.02950000000E+07	-2.52341661143E+01	4.03402410913E+00
4.04900000000E+07	-2.51194518068E+01	2.90513345039E+00
4.06850000000E+07	-2.51202123943E+01	2.59247247580E+00
4.08800000000E+07	-2.50135394671E+01	3.34107499018E+00
4.10750000000E+07	-2.50031288858E+01	2.14291553633E+00
4.12700000000E+07	-2.49586707241E+01	2.18636540098E+00
4.14650000000E+07	-2.48139021406E+01	1.61010617330E+00
4.16600000000E+07	-2.48276879168E+01	8.83271189612E-01
4.18550000000E+07	-2.46652356323E+01	6.05151703877E-01
4.20500000000E+07	-2.46449712464E+01	5.12061212252E-01
4.22450000000E+07	-2.45916393844E+01	2.14395194908E-01
4.24400000000E+07	-2.45249866399E+01	-1.76179959896E-01
4.26350000000E+07	-2.45071449235E+01	-3.71171763779E-01
4.28300000000E+07	-2.44621823891E+01	-1.39290834935E+00
4.30250000000E+07	-2.43802610362E+01	-1.26210083606E+00
4.32200000000E+07	-2.43084101196E+01	-1.47000379711E+00
4.34150000000E+07	-2.43188809626E+01	-1.89958290759E+00
4.36100000000E+07	-2.42439243360E+01	-2.37448069869E+00
4.38050000000E+07	-2.41706244580E+01	-2.98861184902E+00
4.40000000000E+07	-2.41505255194E+01	-3.13328550903E+00
4.41950000000E+07	-2.40572396015E+01	-3.76458327056E+00
4.43900000000E+07	-2.41513440978E+01	-3.87638908120E+00
4.45850000000E+07	-2.40372087972E+01	-4.23299934130E+00
4.47800000000E+07	-2.39851433137E+01	-4.45597850881E+00
4.49750000000E+07	-2.39482701897E+01	-4.87902422387E+00
4.51700000000E+07	-2.38896395857E+01	-5.66436087680E+00
4.53650000000E+07	-2.38628252910E+01	-5.98788654455E+00
4.55600000000E+07	-2.38134287735E+01	-6.13252044040E+00
4.57550000000E+07	-2.37943545765E+01	-6.50521942591E+00
4.59500000000E+07	-2.36926867411E+01	-6.71953967740E+00
4.61450000000E+07	-2.36563143191E+01	-7.06081634759E+00
4.63400000000E+07	-2.36190631932E+01	-7.84799658734E+00
4.65350000000E+07	-2.36303414123E+01	-8.04995033459E+00
4.67300000000E+07	-2.35821995128E+01	-8.95044963510E+00
4.69250000000E+07	-2.35314180410E+01	-8.96614699501E+00
4.71200000000E+07	-2.35123749248E+01	-9.46782751457E+00
4.73150000000E+07	-2.34390638754E+01	-9.74840614130E+00
4.75100000000E+07	-2.34584642046E+01	-1.02304069311E+01
4.77050000000E+07	-2.33878800125E+01	-1.02975676839E+01
4.79000000000E+07	-2.33751847179E+01	-1.08266325296E+01
4.80950000000E+07	-2.33446943424E+01	-1.15218159907E+01
4.82900000000E+07	-2.33465591955E+01	-1.15441081414E+01
4.84850000000E+07	-2.33468475819E+01	-1.20882780175E+01
4.86800000000E+07	-2.32673899294E+01	-1.24276280065E+01
4.88750000000E+07	-2.32602698284E+01	-1.35913656750E+01
4.90700000000E+07	-2.31842853924E+01	-1.33891795821E+01
4.92650000000E+07	-2.31670079883E+01	-1.39854352552E+01
4.94600000000E+07	-2.31698332601E+01	-1.45544135530E+01
4.96550000000E+07	-2.31675141860E+01	-1.46420540623E+01
4.98500000000E+07	-2.31114630324E+01	-1.51198365636E+01
5.00450000000E+07	-2.30894800116E+01	-1.62018366862E+01
5.02400000000E+07	-2.31231916499E+01	-1.61609749072E+01
5.04350000000E+07	-2.30530474246E+01	-1.70848348450E+01
5.06300000000E+07	-2.30188979978E+01	-1.70214238949E+01
5.08250000000E+07	-2.29599831284E+01	-1.72915210197E+01
5.10200000000E+07	-2.30196411290E+01	-1.81798548799E+01
5.12150000000E+07	-2.29907676456E+01	-1.83654185997E+01
5.14100000000E+07	-2.29556991183E+01	-1.91734148981E+01
5.16050000000E+07	-2.29404843879E+01	-1.90179738759E+01
5.18000000000E+07	-2.29099266576E+01	-1.98747911262E+01
5.19950000000E+07	-2.28789557798E+01	-2.02629328072E+01
5.21900000000E+07	-2.28765502294E+01	-2.10929882138E+01
5.23850000000E+07	-2.28445941510E+01	-2.13148326377E+01
5.25800000000E+07	-2.28539019836E+01	-2.14516353789E+01
5.27750000000E+07	-2.28677547403E+01	-2.18998625071E+01
5.29700000000E+07	-2.28303096916E+01	-2.25328846196E+01
5.31650000000E+07	-2.27938873616E+01	-2.33793410139E+01
5.33600000000E+07	-2.27946106575E+01	-2.37377616837E+01
5.35550000000E+07	-2.27464151714E+01	-2.40351214086E+01
5.37500000000E+07	-2.27732597310E+01	-2.45427885511E+01
5.39450000000E+07	-2.27788264397E+01	-2.52598240156E+01
5.41400000000E+07	-2.27302423364E+01	-2.56866211256E+01
5.43350000000E+07	-2.27458442747E+01	-2.59367356085E+01
5.45300000000E+07	-2.27258612990E+01	-2.66168317740E+01
5.47250000000E+07	-2.27206871441E+01	-2.69587487260E+01
5.49200000000E+07	-2.27027098013E+01	-2.75944133892E+01
5.51150000000E+07	-2.26706701498E+01	-2.80586625475E+01
5.53100000000E+07	-2.26519906364E+01	-2.83646196444E+01
5.55050000000E+07	-2.26808303030E+01	-2.87667545413E+01
5.57000000000E+07	-2.26262663965E+01	-2.91363750168E+01
5.58950000000E+07	-2.26832433578E+01	-3.02523375535E+01
5.60900000000E+07	-2.26900577407E+01	-3.07554707026E+01
5.62850000000E+07	-2.26570694194E+01	-3.07709379469E+01
5.64800000000E+07	-2.26535457235E+01	-3.11542586228E+01
5.66750000000E+07	-2.26398327621E+01	-3.21337019830E+01
5.68700000000E+07	-2.26411302936E+01	-3.20954538605E+01
5.70650000000E+07	-2.26599986356E+01	-3.32295692394E+01
5.72600000000E+07	-2.26589964928E+01	-3.34451676628E+01
5.74550000000E+07	-2.26590679092E+01	-3.34726471463E+01
5.76500000000E+07	-2.26728351821E+01	-3.46142315521E+01
5.78450000000E+07	-2.26172950135E+01	-3.49484593896E+01
5.80400000000E+07	-2.26953318943E+01	-3.57293585579E+01
5.82350000000E+07	-2.26807255825E+01	-3.55794027378E+01
5.84300000000E+07	-2.26343516677E+01	-3.62865340714E+01
5.86250000000E+07	-2.25944852008E+01	-3.69063180354E+01
5.88200000000E+07	-2.26442780746E+01	-3.75042485654E+01
5.90150000000E+07	-2.27010334277E+01	-3.80292551480E+01
5.92100000000E+07	-2.26597942468E+01	-3.82659593942E+01
5.94050000000E+07	-2.26831904059E+01	-3.89597118585E+01
5.96000000000E+07	-2.26701605575E+01	-3.92339933622E+01
5.97950000000E+07	-2.26481388323E+01	-4.02763583836E+01
5.99900000000E+07	-2.26472259296E+01	-4.06224336587E+01
6.01850000000E+07	-2.26590656379E+01	-4.12707736808E+01
6.03800000000E+07	-2.26498237129E+01	-4.14296022651E+01
6.05750000000E+07	-2.26962089329E+01	-4.20519050859E+01
6.07700000000E+07	-2.27349368420E+01	-4.23590371973E+01
6.09650000000E+07	-2.27173417414E+01	-4.35716108514E+01
6.11600000000E+07	-2.27517565007E+01	-4.38677686152E+01
6.13550000000E+07	-2.26785985752E+01	-4.41774997780E+01
6.15500000000E+07	-2.26619629698E+01	-4.45683058856E+01
6.17450000000E+07	-2.26927783943E+01	-4.54271119000E+01
6.19400000000E+07	-2.27077491296E+01	-4.58792009304E+01
6.21350000000E+07	-2.27118402101E+01	-4.66627507726E+01
6.23300000000E+07	-2.27560474821E+01	-4.71029146007E+01
6.25250000000E+07	-2.27747116279E+01	-4.72473009582E+01
6.27200000000E+07	-2.27886639006E+01	-4.77466374936E+01
6.29150000000E+07	-2.27951330428E+01	-4.89057303269E+01
6.31100000000E+07	-2.27237901492E+01	-4.90526640936E+01
6.33050000000E+07	-2.27683595509E+01	-5.01308412268E+01
6.35000000000E+07	-2.27507428701E+01	-5.03840314466E+01
6.36950000000E+07	-2.28051998305E+01	-5.06984153445E+01
6.38900000000E+07	-2.28694162804E+01	-5.16399252373E+01
6.40850000000E+07	-2.28965706709E+01	-5.19539790217E+01
6.42800000000E+07	-2.28635495087E+01	-5.27225031943E+01
6.44750000000E+07	-2.27943933336E+01	-5.31953487164E+01
6.46700000000E+07	-2.29347033581E+01	-5.31761061187E+01
6.48650000000E+07	-2.28877868041E+01	-5.41189192340E+01
6.50600000000E+07	-2.29001320930E+01	-5.48569303059E+01
6.52550000000E+07	-2.29719537906E+01	-5.52922221435E+01
6.54500000000E+07	-2.29045292393E+01	-5.57682584720E+01
6.56450000000E+07	-2.29572807303E+01	-5.65864311049E+01
6.58400000000E+07	-2.30123121845E+01	-5.73185974602E+01
6.60350000000E+07	-2.30413098114E+01	-5.80889733217E+01
6.62300000000E+07	-2.30195850319E+01	-5.85086340942E+01
6.64250000000E+07	-2.30585901174E+01	-5.89763779862E+01
6.66200000000E+07	-2.30467200927E+01	-5.96172543978E+01
6.68150000000E+07	-2.30597737371E+01	-6.05895792846E+01
6.70100000000E+07	-2.30993681400E+01	-6.08444975269E+01
6.72050000000E+07	-2.31264747717E+01	-6.18784171446E+01
6.74000000000E+07	-2.31282103435E+01	-6.21575529156E+01
6.75950000000E+07	-2.30964960688E+01	-6.27534872178E+01
6.77900000000E+07	-2.31388571581E+01	-6.31887942686E+01
6.79850000000E+07	-2.31575902896E+01	-6.37333962324E+01
6.81800000000E+07	-2.31914294960E+01	-6.44321857291E+01
6.83750000000E+07	-2.32319848542E+01	-6.52430387762E+01
6.85700000000E+07	-2.32340415409E+01	-6.58729328550E+01
6.87650000000E+07	-2.32602529073E+01	-6.68148847247E+01
6.89600000000E+07	-2.32794305105E+01	-6.73470975946E+01
6.91550000000E+07	-2.33116279888E+01	-6.76549506165E+01
6.93500000000E+07	-2.33551542594E+01	-6.86091526778E+01
6.95450000000E+07	-2.33386966347E+01	-6.90875161985E+01
6.97400000000E+07	-2.33942504953E+01	-6.97408740734E+01
6.99350000000E+07	-2.33449162206E+01	-7.03522427038E+01
7.01300000000E+07	-2.34076930994E+01	-7.08303964341E+01
7.03250000000E+07	-2.34074759108E+01	-7.18209143606E+01
7.05200000000E+07	-2.35029815972E+01	-7.23215158187E+01
7.07150000000E+07	-2.34441307967E+01	-7.28970958562E+01
7.09100000000E+07	-2.35487111482E+01	-7.36289888262E+01
7.11050000000E+07	-2.35605680362E+01	-7.40342679269E+01
7.13000000000E+07	-2.35537945944E+01	-7.49892268265E+01
7.14950000000E+07	-2.35432170786E+01	-7.56694005415E+01
7.16900000000E+07	-2.35697424706E+01	-7.63462586107E+01
7.18850000000E+07	-2.36410789167E+01	-7.66534086540E+01
7.20800000000E+07	-2.35869818901E+01	-7.75953706424E+01
7.22750000000E+07	-2.36417353838E+01	-7.81183761998E+01
7.24700000000E+07	-2.36415553114E+01	-7.89680986049E+01
7.26650000000E+07	-2.37008526626E+01	-7.98648052433E+01
7.28600000000E+07	-2.37327548131E+01	-8.02274048055E+01
