# Hz S DB R 50
! CMT, M5045, 22160017, 22.4.3/2
! Date: 1/21/2023 20:22:36
! Data: Format (Calibration Info)
! Freq	S11:dB/Ang(F1)
5.00000000000E+06	-9.72702526663E+00	-7.71763454750E+01
5.19500000000E+06	-1.00648081550E+01	-7.83082453398E+01
5.39000000000E+06	-1.04181937870E+01	-7.92433712551E+01
5.58500000000E+06	-1.07381166991E+01	-8.02930477197E+01
5.78000000000E+06	-1.10599364807E+01	-8.11735926921E+01
5.97500000000E+06	-1.13898305388E+01	-8.20412525377E+01
6.17000000000E+06	-1.16635055226E+01	-8.25154197457E+01
6.36500000000E+06	-1.19915725674E+01	-8.34285400152E+01
6.56000000000E+06	-1.22591501485E+01	-8.39802278350E+01
6.75500000000E+06	-1.25606966268E+01	-8.46726804016E+01
6.95000000000E+06	-1.28524796004E+01	-8.53544174646E+01
7.14500000000E+06	-1.31034086902E+01	-8.60011520893E+01
7.34000000000E+06	-1.33962948824E+01	-8.67664790918E+01
7.53500000000E+06	-1.36760813444E+01	-8.72065596202E+01
7.73000000000E+06	-1.39072939213E+01	-8.78401085586E+01
7.92500000000E+06	-1.41445781523E+01	-8.83408055691E+01
8.12000000000E+06	-1.44116293042E+01	-8.86278510977E+01
8.31500000000E+06	-1.46567722773E+01	-8.93829320603E+01
8.51000000000E+06	-1.49099960688E+01	-9.00024101544E+01
8.70500000000E+06	-1.51376289640E+01	-9.01236317405E+01
8.90000000000E+06	-1.54054045083E+01	-9.06867924448E+01
9.09500000000E+06	-1.56241820776E+01	-9.13490643511E+01
9.29000000000E+06	-1.58364856909E+01	-9.17017393245E+01
9.48500000000E+06	-1.60950774698E+01	-9.22167434528E+01
9.68000000000E+06	-1.63247475364E+01	-9.24687936051E+01
9.87500000000E+06	-1.65557277690E+01	-9.30013279129E+01
1.00700000000E+07	-1.67799989810E+01	-9.34202384103E+01
1.02650000000E+07	-1.69814783657E+01	-9.38891648328E+01
1.04600000000E+07	-1.72320422326E+01	-9.44454059224E+01
1.06550000000E+07	-1.74281877011E+01	-9.47404473507E+01
1.08500000000E+07	-1.76643433340E+01	-9.50628913699E+01
1.10450000000E+07	-1.78977779640E+01	-9.54552091088E+01
1.12400000000E+07	-1.80928569631E+01	-9.57205820003E+01
1.14350000000E+07	-1.82831210358E+01	-9.61269373503E+01
1.16300000000E+07	-1.85339481675E+01	-9.62605714765E+01
1.18250000000E+07	-1.87583184818E+01	-9.72162211303E+01
1.20200000000E+07	-1.89207424063E+01	-9.70447441662E+01
1.22150000000E+07	-1.91133109924E+01	-9.78484982670E+01
1.24100000000E+07	-1.93488811859E+01	-9.81665528056E+01
1.26050000000E+07	-1.95289745523E+01	-9.85481568515E+01
1.28000000000E+07	-1.97705849560E+01	-9.86363167540E+01
1.29950000000E+07	-1.99994306261E+01	-9.90722367949E+01
1.31900000000E+07	-2.01445122198E+01	-9.95134792266E+01
1.33850000000E+07	-2.03896320334E+01	-9.97451179065E+01
1.35800000000E+07	-2.06637151465E+01	-9.97325382358E+01
1.37750000000E+07	-2.08284303802E+01	-1.00258475906E+02
1.39700000000E+07	-2.10443650003E+01	-1.00677479619E+02
1.41650000000E+07	-2.12173882328E+01	-1.01051609409E+02
1.43600000000E+07	-2.14179174826E+01	-1.00952969117E+02
1.45550000000E+07	-2.17049016280E+01	-1.01309338053E+02
1.47500000000E+07	-2.18844474756E+01	-1.02089626249E+02
1.49450000000E+07	-2.20424372281E+01	-1.01828449794E+02
1.51400000000E+07	-2.23832396429E+01	-1.02068246663E+02
1.53350000000E+07	-2.25567068298E+01	-1.02848276216E+02
1.55300000000E+07	-2.27228579829E+01	-1.02754730386E+02
1.57250000000E+07	-2.29041079933E+01	-1.02996385969E+02
1.59200000000E+07	-2.31679880310E+01	-1.03057968958E+02
1.61150000000E+07	-2.34072727564E+01	-1.03302275794E+02
1.63100000000E+07	-2.36398745835E+01	-1.03525789377E+02
1.65050000000E+07	-2.39066140607E+01	-1.03499045373E+02
1.67000000000E+07	-2.40809014598E+01	-1.04020623914E+02
1.68950000000E+07	-2.42692356356E+01	-1.04043922506E+02
1.70900000000E+07	-2.45438515985E+01	-1.04142060538E+02
1.72850000000E+07	-2.46842100238E+01	-1.04825568753E+02
1.74800000000E+07	-2.50218792305E+01	-1.04700060875E+02
1.76750000000E+07	-2.51075090713E+01	-1.04903737153E+02
1.78700000000E+07	-2.54111482739E+01	-1.04708650323E+02
1.80650000000E+07	-2.57093678910E+01	-1.04769888950E+02
1.82600000000E+07	-2.59667503524E+01	-1.05553282267E+02
1.84550000000E+07	-2.60936300840E+01	-1.04944177032E+02
1.86500000000E+07	-2.63690948264E+01	-1.05083010839E+02
1.88450000000E+07	-2.67103866351E+01	-1.05504244020E+02
1.90400000000E+07	-2.69400759023E+01	-1.05155862192E+02
1.92350000000E+07	-2.71523521481E+01	-1.04784985847E+02
1.94300000000E+07	-2.76235151583E+01	-1.05252354192E+02
1.96250000000E+07	-2.78113957147E+01	-1.05192771159E+02
1.98200000000E+07	-2.80428122466E+01	-1.05695209100E+02
2.00150000000E+07	-2.81724477990E+01	-1.05332860544E+02
2.02100000000E+07	-2.85629718920E+01	-1.05578899438E+02
2.04050000000E+07	-2.88454035228E+01	-1.05063615936E+02
2.06000000000E+07	-2.91238727671E+01	-1.05842502222E+02
2.07950000000E+07	-2.93498167701E+01	-1.04665646913E+02
2.09900000000E+07	-2.96300490039E+01	-1.04173436912E+02
2.11850000000E+07	-3.00889342275E+01	-1.04399406609E+02
2.13800000000E+07	-3.01744235253E+01	-1.04537394338E+02
2.15750000000E+07	-3.05815065052E+01	-1.02906339845E+02
2.17700000000E+07	-3.09804219347E+01	-1.04240947891E+02
2.19650000000E+07	-3.11252751054E+01	-1.03571510715E+02
2.21600000000E+07	-3.15779201789E+01	-1.02772761870E+02
2.23550000000E+07	-3.19860905885E+01	-1.03270250372E+02
2.25500000000E+07	-3.22424295520E+01	-1.00990967714E+02
2.27450000000E+07	-3.27390531942E+01	-1.01144759109E+02
2.29400000000E+07	-3.30834478593E+01	-1.00108569665E+02
2.31350000000E+07	-3.32679065932E+01	-1.01103312058E+02
2.33300000000E+07	-3.39856770232E+01	-9.93437667516E+01
2.35250000000E+07	-3.39577371356E+01	-9.80651757310E+01
2.37200000000E+07	-3.43316033863E+01	-9.70083848311E+01
2.39150000000E+07	-3.49352207146E+01	-9.66320673172E+01
2.41100000000E+07	-3.55291983782E+01	-9.51795002441E+01
2.43050000000E+07	-3.57808693265E+01	-9.33557780670E+01
2.45000000000E+07	-3.63383631990E+01	-9.27321692217E+01
2.46950000000E+07	-3.67218013405E+01	-9.09568470675E+01
2.48900000000E+07	-3.73131512442E+01	-8.75531418448E+01
2.50850000000E+07	-3.73040041130E+01	-8.56109426309E+01
2.52800000000E+07	-3.77103724374E+01	-8.52758704921E+01
2.54750000000E+07	-3.88501214161E+01	-7.86414880770E+01
2.56700000000E+07	-3.84483195164E+01	-7.88296920229E+01
2.58650000000E+07	-3.89336635624E+01	-7.43746711540E+01
2.60600000000E+07	-3.97084671910E+01	-6.94971447040E+01
2.62550000000E+07	-3.95540161934E+01	-6.63741825250E+01
2.64500000000E+07	-3.98446674787E+01	-6.30444043520E+01
2.66450000000E+07	-4.04162447858E+01	-5.86696199183E+01
2.68400000000E+07	-4.06474331942E+01	-5.51452540779E+01
2.70350000000E+07	-4.09618518682E+01	-4.66901493110E+01
2.72300000000E+07	-4.05397756233E+01	-4.24696279013E+01
2.74250000000E+07	-4.08180027331E+01	-3.87127309333E+01
2.76200000000E+07	-4.04390683756E+01	-3.33713577340E+01
2.78150000000E+07	-4.04342816375E+01	-3.06339563090E+01
2.80100000000E+07	-4.04365747832E+01	-2.57507572425E+01
2.82050000000E+07	-3.98512101553E+01	-2.03207291713E+01
2.84000000000E+07	-3.91085245682E+01	-1.99427969557E+01
2.85950000000E+07	-3.92249989119E+01	-1.45028080450E+01
2.87900000000E+07	-3.91216890460E+01	-1.31495657817E+01
2.89850000000E+07	-3.90247435444E+01	-8.94470458072E+00
2.91800000000E+07	-3.81687571781E+01	-8.08711135369E+00
2.93750000000E+07	-3.80059511147E+01	-6.00368834423E+00
2.95700000000E+07	-3.77494560213E+01	-4.54745852043E+00
2.97650000000E+07	-3.74111722182E+01	-2.11547120828E+00
2.99600000000E+07	-3.72188189446E+01	-2.00894819418E+00
3.01550000000E+07	-3.64585805981E+01	-2.41849264595E-01
3.03500000000E+07	-3.66942521679E+01	2.11714089840E+00
3.05450000000E+07	-3.58375604035E+01	2.43872279147E+00
3.07400000000E+07	-3.58690360296E+01	3.84714809712E+00
3.09350000000E+07	-3.55545370592E+01	3.80956889874E+00
3.11300000000E+07	-3.54651745173E+01	6.44208848637E+00
3.13250000000E+07	-3.48749546457E+01	6.93187864554E+00
3.15200000000E+07	-3.45641250254E+01	6.52774495773E+00
3.17150000000E+07	-3.43140599238E+01	7.14049210202E+00
3.19100000000E+07	-3.40805627141E+01	8.37319919710E+00
3.21050000000E+07	-3.38071527080E+01	7.92213469405E+00
3.23000000000E+07	-3.36273770568E+01	9.20125956847E+00
3.24950000000E+07	-3.34311304745E+01	9.25587426029E+00
3.26900000000E+07	-3.31852466825E+01	9.33214498779E+00
3.28850000000E+07	-3.30609668786E+01	1.09092895860E+01
3.30800000000E+07	-3.29212752279E+01	9.16836976371E+00
3.32750000000E+07	-3.25581914402E+01	1.14822350929E+01
3.34700000000E+07	-3.22829244351E+01	9.74492862943E+00
3.36650000000E+07	-3.20675901871E+01	1.03646410897E+01
3.38600000000E+07	-3.20003272546E+01	1.12345292075E+01
3.40550000000E+07	-3.19226103883E+01	1.14323527940E+01
3.42500000000E+07	-3.15680666527E+01	1.17990209126E+01
3.44450000000E+07	-3.15438871175E+01	1.11056904951E+01
3.46400000000E+07	-3.14646475369E+01	9.69992673015E+00
3.48350000000E+07	-3.11560390587E+01	1.13098337922E+01
3.50300000000E+07	-3.11635582826E+01	1.04474111935E+01
3.52250000000E+07	-3.09512341483E+01	1.11575823815E+01
3.54200000000E+07	-3.06442133761E+01	1.11622336400E+01
3.56150000000E+07	-3.05055035835E+01	1.01399172970E+01
3.58100000000E+07	-3.02803894021E+01	1.05471866854E+01
3.60050000000E+07	-3.03005925792E+01	9.55055339427E+00
3.62000000000E+07	-3.01028100868E+01	9.70452317381E+00
3.63950000000E+07	-3.01383103973E+01	1.05711086820E+01
3.65900000000E+07	-2.99772346955E+01	9.49408193381E+00
3.67850000000E+07	-2.97907048882E+01	1.08598385192E+01
3.69800000000E+07	-2.95809914506E+01	9.41287382116E+00
3.71750000000E+07	-2.94839315789E+01	9.52290801746E+00
3.73700000000E+07	-2.93457637867E+01	9.01136735031E+00
3.75650000000E+07	-2.92534534966E+01	9.22840281264E+00
3.77600000000E+07	-2.92585793403E+01	9.08923932616E+00
3.79550000000E+07	-2.90339650491E+01	8.67472021283E+00
3.81500000000E+07	-2.90053207646E+01	7.63493023375E+00
3.83450000000E+07	-2.89043415060E+01	8.53237487607E+00
3.85400000000E+07	-2.87231709151E+01	7.54035362288E+00
3.87350000000E+07	-2.87099361399E+01	7.22809838208E+00
3.89300000000E+07	-2.86146067074E+01	6.61129904538E+00
3.91250000000E+07	-2.83618657344E+01	6.25089937205E+00
3.93200000000E+07	-2.84374165293E+01	6.86267201690E+00
3.95150000000E+07	-2.82995443575E+01	6.60553481395E+00
3.97100000000E+07	-2.82026286642E+01	6.02307172101E+00
3.99050000000E+07	-2.81097797015E+01	6.56979579073E+00
4.01000000000E+07	-2.80470629690E+01	5.77228342142E+00
4.02950000000E+07	-2.79905160602E+01	4.82820554099E+00
4.04900000000E+07	-2.78896724360E+01	5.06445930781E+00
4.06850000000E+07	-2.78162328654E+01	4.25194117057E+00
4.08800000000E+07	-2.77803757128E+01	4.07236324691E+00
4.10750000000E+07	-2.76966187579E+01	3.83871366088E+00
4.12700000000E+07	-2.76272767517E+01	3.05681179168E+00
4.14650000000E+07	-2.75471732779E+01	2.70227521380E+00
4.16600000000E+07	-2.74965485735E+01	3.46514764384E+00
4.18550000000E+07	-2.73285350730E+01	2.21741679378E+00
4.20500000000E+07	-2.73298016448E+01	2.28732311151E+00
4.22450000000E+07	-2.72213617069E+01	2.42919760076E+00
4.24400000000E+07	-2.72405707347E+01	1.53020852561E+00
4.26350000000E+07	-2.70417448500E+01	7.68093936580E-01
4.28300000000E+07	-2.71582507313E+01	6.56918970352E-01
4.30250000000E+07	-2.69851374077E+01	5.88270212213E-01
4.32200000000E+07	-2.69734841042E+01	-1.63127152167E-02
4.34150000000E+07	-2.69125563021E+01	-2.78823677789E-01
4.36100000000E+07	-2.68722875877E+01	-9.01971547777E-02
4.38050000000E+07	-2.68167288692E+01	-1.35962253190E+00
4.40000000000E+07	-2.68074352292E+01	-1.17577593106E+00
4.41950000000E+07	-2.67413886346E+01	-1.97364141307E+00
4.43900000000E+07	-2.66839034466E+01	-1.45841956126E+00
4.45850000000E+07	-2.65517529489E+01	-2.87924200648E+00
4.47800000000E+07	-2.65526908409E+01	-2.88197115963E+00
4.49750000000E+07	-2.65011743749E+01	-3.62567997233E+00
4.51700000000E+07	-2.64865221153E+01	-3.58496700631E+00
4.53650000000E+07	-2.64390619883E+01	-4.31774812310E+00
4.55600000000E+07	-2.64564914533E+01	-4.52509620728E+00
4.57550000000E+07	-2.63543469135E+01	-5.06914248130E+00
4.59500000000E+07	-2.63561372014E+01	-5.45013427300E+00
4.61450000000E+07	-2.63366414607E+01	-5.65306538828E+00
4.63400000000E+07	-2.61853265952E+01	-5.93542363722E+00
4.65350000000E+07	-2.61791780631E+01	-7.26562157163E+00
4.67300000000E+07	-2.61668857975E+01	-7.18959533229E+00
4.69250000000E+07	-2.61380490254E+01	-7.19243682420E+00
4.71200000000E+07	-2.61400980036E+01	-7.78776059530E+00
4.73150000000E+07	-2.60859245128E+01	-7.66537158173E+00
4.75100000000E+07	-2.60335782296E+01	-8.75530439309E+00
4.77050000000E+07	-2.61372437344E+01	-9.26277622602E+00
4.79000000000E+07	-2.59982343772E+01	-9.70309334802E+00
4.80950000000E+07	-2.59702918790E+01	-9.40211069963E+00
4.82900000000E+07	-2.59128562376E+01	-1.04404419890E+01
4.84850000000E+07	-2.59363571757E+01	-1.04875063841E+01
4.86800000000E+07	-2.59703799601E+01	-1.07627453026E+01
4.88750000000E+07	-2.58431506453E+01	-1.17337727938E+01
4.90700000000E+07	-2.58606093008E+01	-1.24102421595E+01
4.92650000000E+07	-2.58335379253E+01	-1.24677927726E+01
4.94600000000E+07	-2.58721787132E+01	-1.28087745228E+01
4.96550000000E+07	-2.58969671278E+01	-1.35462210795E+01
4.98500000000E+07	-2.58661597810E+01	-1.38634959958E+01
5.00450000000E+07	-2.57972834091E+01	-1.43589013202E+01
5.02400000000E+07	-2.57869418516E+01	-1.50639328121E+01
5.04350000000E+07	-2.57581719177E+01	-1.55320896758E+01
5.06300000000E+07	-2.58112366272E+01	-1.56142101017E+01
5.08250000000E+07	-2.57026927156E+01	-1.62835526737E+01
5.10200000000E+07	-2.57346312797E+01	-1.66746430521E+01
5.12150000000E+07	-2.57040849989E+01	-1.72965675211E+01
5.14100000000E+07	-2.56798375670E+01	-1.81203322294E+01
5.16050000000E+07	-2.57446729580E+01	-1.81150534145E+01
5.18000000000E+07	-2.56919303928E+01	-1.86747028124E+01
5.19950000000E+07	-2.57191957459E+01	-1.91145898377E+01
5.21900000000E+07	-2.57080469840E+01	-1.97406155684E+01
5.23850000000E+07	-2.57274969951E+01	-2.06833889546E+01
5.25800000000E+07	-2.57168952332E+01	-2.02421420888E+01
5.27750000000E+07	-2.56961184579E+01	-2.13960961140E+01
5.29700000000E+07	-2.57351035055E+01	-2.19747803294E+01
5.31650000000E+07	-2.57136882442E+01	-2.23067996085E+01
5.33600000000E+07	-2.57111235880E+01	-2.24151256809E+01
5.35550000000E+07	-2.56397858748E+01	-2.32040586669E+01
5.37500000000E+07	-2.57481850875E+01	-2.38163954718E+01
5.39450000000E+07	-2.56538964560E+01	-2.41972708128E+01
5.41400000000E+07	-2.57781121212E+01	-2.60389921562E+01
5.43350000000E+07	-2.57819820432E+01	-2.57426016701E+01
5.45300000000E+07	-2.58140856098E+01	-2.58491835437E+01
5.47250000000E+07	-2.57351953536E+01	-2.65882332196E+01
5.49200000000E+07	-2.57881158218E+01	-2.74236077246E+01
5.51150000000E+07	-2.58965668467E+01	-2.77210982738E+01
5.53100000000E+07	-2.57030269656E+01	-2.81039158018E+01
5.55050000000E+07	-2.58612552206E+01	-2.89862715869E+01
5.57000000000E+07	-2.58374449860E+01	-2.92369085779E+01
5.58950000000E+07	-2.59487734526E+01	-2.98346164604E+01
5.60900000000E+07	-2.58181270361E+01	-3.01502176652E+01
5.62850000000E+07	-2.58640946195E+01	-3.10032897256E+01
5.64800000000E+07	-2.58469135515E+01	-3.16235534345E+01
5.66750000000E+07	-2.58526972914E+01	-3.22546349757E+01
5.68700000000E+07	-2.59145635913E+01	-3.22799218620E+01
5.70650000000E+07	-2.59577589600E+01	-3.28791574223E+01
5.72600000000E+07	-2.59775799086E+01	-3.32930506667E+01
5.74550000000E+07	-2.60662316524E+01	-3.40442182916E+01
5.76500000000E+07	-2.59707471544E+01	-3.46206800565E+01
5.78450000000E+07	-2.60273637545E+01	-3.52133122706E+01
5.80400000000E+07	-2.60492018487E+01	-3.53660767992E+01
5.82350000000E+07	-2.61254784889E+01	-3.66584595943E+01
5.84300000000E+07	-2.61145446027E+01	-3.72329593120E+01
5.86250000000E+07	-2.61449312875E+01	-3.76757985922E+01
5.88200000000E+07	-2.61973034430E+01	-3.80016942310E+01
5.90150000000E+07	-2.62258276674E+01	-3.85929583853E+01
5.92100000000E+07	-2.63099416380E+01	-3.91681358643E+01
5.94050000000E+07	-2.62584733017E+01	-3.99586089871E+01
5.96000000000E+07	-2.63014191834E+01	-4.05183548727E+01
5.97950000000E+07	-2.62812125647E+01	-4.10493234834E+01
5.99900000000E+07	-2.63454108014E+01	-4.16919475641E+01
6.01850000000E+07	-2.63213161665E+01	-4.23828003844E+01
6.03800000000E+07	-2.63681318954E+01	-4.27057110083E+01
6.05750000000E+07	-2.65149340111E+01	-4.36935707967E+01
6.07700000000E+07	-2.64360152397E+01	-4.40598465173E+01
6.09650000000E+07	-2.65953106327E+01	-4.45948260949E+01
6.11600000000E+07	-2.65485280139E+01	-4.55672778993E+01
6.13550000000E+07	-2.65924209490E+01	-4.66080675890E+01
6.15500000000E+07	-2.66759460420E+01	-4.66804574657E+01
6.17450000000E+07	-2.67476930892E+01	-4.73644832353E+01
6.19400000000E+07	-2.67527988675E+01	-4.79119424030E+01
6.21350000000E+07	-2.67664577407E+01	-4.84940975726E+01
6.23300000000E+07	-2.68402389591E+01	-4.92730450102E+01
6.25250000000E+07	-2.69280685070E+01	-5.00060849758E+01
6.27200000000E+07	-2.69281108013E+01	-5.09116146963E+01
6.29150000000E+07	-2.69527057236E+01	-5.13013518699E+01
6.31100000000E+07	-2.69149840464E+01	-5.18790396907E+01
6.33050000000E+07	-2.70951756387E+01	-5.28606986686E+01
6.35000000000E+07	-2.71297710459E+01	-5.33207502065E+01
6.36950000000E+07	-2.73082205847E+01	-5.40308574929E+01
6.38900000000E+07	-2.71219430906E+01	-5.52837842310E+01
6.40850000000E+07	-2.73405639446E+01	-5.56046216211E+01
6.42800000000E+07	-2.73230079889E+01	-5.64386796742E+01
6.44750000000E+07	-2.73629456594E+01	-5.71189721583E+01
6.46700000000E+07	-2.75043071349E+01	-5.79329347706E+01
6.48650000000E+07	-2.74543527612E+01	-5.84895229676E+01
6.50600000000E+07	-2.75588706563E+01	-5.94340163023E+01
6.52550000000E+07	-2.76115336106E+01	-5.97678409365E+01
6.54500000000E+07	-2.76752062219E+01	-6.10305318539E+01
6.56450000000E+07	-2.77070008186E+01	-6.19672406907E+01
6.58400000000E+07	-2.77403724317E+01	-6.29718743978E+01
6.60350000000E+07	-2.78290491705E+01	-6.27973991147E+01
6.62300000000E+07	-2.79657983286E+01	-6.42541233631E+01
6.64250000000E+07	-2.79540573907E+01	-6.37006780808E+01
6.66200000000E+07	-2.80722752501E+01	-6.54072240630E+01
6.68150000000E+07	-2.80546340816E+01	-6.61895148571E+01
6.70100000000E+07	-2.82028494843E+01	-6.68864840547E+01
6.72050000000E+07	-2.83060923118E+01	-6.83418345648E+01
6.74000000000E+07	-2.83194170278E+01	-6.90670421214E+01
6.75950000000E+07	-2.83612468701E+01	-6.97301582387E+01
6.77900000000E+07	-2.83953818799E+01	-7.06684743980E+01
6.79850000000E+07	-2.84316588503E+01	-7.16211712297E+01
6.81800000000E+07	-2.85969024078E+01	-7.23316839139E+01
6.83750000000E+07	-2.86526638500E+01	-7.40166825316E+01
6.85700000000E+07	-2.87290558787E+01	-7.40948926516E+01
6.87650000000E+07	-2.87647061017E+01	-7.52156727941E+01
6.89600000000E+07	-2.90297168634E+01	-7.56587502472E+01
6.91550000000E+07	-2.89412983978E+01	-7.76206720380E+01
6.93500000000E+07	-2.89751225496E+01	-7.90880221529E+01
6.95450000000E+07	-2.89907330207E+01	-7.90075116969E+01
6.97400000000E+07	-2.92681173342E+01	-7.98515800924E+01
6.99350000000E+07	-2.91757223351E+01	-8.11497272209E+01
7.01300000000E+07	-2.93287522766E+01	-8.20569599971E+01
7.03250000000E+07	-2.93123654401E+01	-8.37465797518E+01
7.05200000000E+07	-2.95235516668E+01	-8.38702578387E+01
7.07150000000E+07	-2.97108915926E+01	-8.52910229070E+01
7.09100000000E+07	-2.96114441935E+01	-8.65673335545E+01
7.11050000000E+07	-2.96589421147E+01	-8.80433771867E+01
7.13000000000E+07	-2.98097987551E+01	-8.88978250479E+01
7.14950000000E+07	-2.98997006331E+01	-8.91759119746E+01
7.16900000000E+07	-2.99145030070E+01	-9.03001692326E+01
7.18850000000E+07	-2.99290340551E+01	-9.21702211659E+01
7.20800000000E+07	-3.00601760845E+01	-9.29133896810E+01
7.22750000000E+07	-3.00645211603E+01	-9.54984803231E+01
7.24700000000E+07	-3.02671617828E+01	-9.53283085895E+01
7.26650000000E+07	-3.02368811823E+01	-9.72513861682E+01
7.28600000000E+07	-3.04331664444E+01	-9.89981750138E+01
