# Hz S DB R 50
! CMT, M5045, 22160017, 22.4.3/2
! Date: 1/21/2023 19:58:59
! Data: Format (Calibration Info)
! Freq	S11:dB/Ang(F1)
5.00000000000E+06	-9.79759573235E+00	-7.69446323521E+01
5.19500000000E+06	-1.01670262702E+01	-7.78381048825E+01
5.39000000000E+06	-1.04845789447E+01	-7.88690584847E+01
5.58500000000E+06	-1.08375617521E+01	-7.95588586450E+01
5.78000000000E+06	-1.11579178453E+01	-8.04395857217E+01
5.97500000000E+06	-1.14932997305E+01	-8.12450455418E+01
6.17000000000E+06	-1.17513276875E+01	-8.19191049124E+01
6.36500000000E+06	-1.20655192933E+01	-8.26687244847E+01
6.56000000000E+06	-1.23502819579E+01	-8.31987159551E+01
6.75500000000E+06	-1.26527637135E+01	-8.39137223389E+01
6.95000000000E+06	-1.29146215478E+01	-8.43882820112E+01
7.14500000000E+06	-1.32082313528E+01	-8.48648634809E+01
7.34000000000E+06	-1.34922931604E+01	-8.52924658686E+01
7.53500000000E+06	-1.37161112146E+01	-8.58751180090E+01
7.73000000000E+06	-1.39720293055E+01	-8.67300368690E+01
7.92500000000E+06	-1.42089342574E+01	-8.69335609305E+01
8.12000000000E+06	-1.44555966506E+01	-8.73445598235E+01
8.31500000000E+06	-1.46817190956E+01	-8.77427718818E+01
8.51000000000E+06	-1.49569365881E+01	-8.82379568079E+01
8.70500000000E+06	-1.51926595420E+01	-8.85389881743E+01
8.90000000000E+06	-1.54182719641E+01	-8.92898644185E+01
9.09500000000E+06	-1.56712452482E+01	-8.93797587336E+01
9.29000000000E+06	-1.58808000343E+01	-8.99145886336E+01
9.48500000000E+06	-1.61241815845E+01	-9.02676007588E+01
9.68000000000E+06	-1.63108991529E+01	-9.09744274303E+01
9.87500000000E+06	-1.65354512656E+01	-9.08269648964E+01
1.00700000000E+07	-1.67658392492E+01	-9.17041880620E+01
1.02650000000E+07	-1.69559707583E+01	-9.17406368408E+01
1.04600000000E+07	-1.72184236193E+01	-9.25278486260E+01
1.06550000000E+07	-1.74235570841E+01	-9.26173238884E+01
1.08500000000E+07	-1.76230704529E+01	-9.28321976906E+01
1.10450000000E+07	-1.78482975247E+01	-9.32581166988E+01
1.12400000000E+07	-1.80253697654E+01	-9.36849655474E+01
1.14350000000E+07	-1.82188485397E+01	-9.42636038973E+01
1.16300000000E+07	-1.84482720643E+01	-9.39876166957E+01
1.18250000000E+07	-1.86151558278E+01	-9.43510497547E+01
1.20200000000E+07	-1.88250452474E+01	-9.47126320416E+01
1.22150000000E+07	-1.89911704769E+01	-9.49482197677E+01
1.24100000000E+07	-1.92419037711E+01	-9.53805272816E+01
1.26050000000E+07	-1.94468229951E+01	-9.57582066402E+01
1.28000000000E+07	-1.96324997402E+01	-9.56784556493E+01
1.29950000000E+07	-1.98427775288E+01	-9.60791688320E+01
1.31900000000E+07	-2.00315563793E+01	-9.63399766293E+01
1.33850000000E+07	-2.02788343361E+01	-9.67360352979E+01
1.35800000000E+07	-2.03662248090E+01	-9.71463085086E+01
1.37750000000E+07	-2.05964991980E+01	-9.71190663243E+01
1.39700000000E+07	-2.07967957998E+01	-9.76030455769E+01
1.41650000000E+07	-2.09901338338E+01	-9.75438228004E+01
1.43600000000E+07	-2.11855566555E+01	-9.80543587219E+01
1.45550000000E+07	-2.13936245783E+01	-9.82184002322E+01
1.47500000000E+07	-2.16226153026E+01	-9.86072599387E+01
1.49450000000E+07	-2.18103106199E+01	-9.86997115280E+01
1.51400000000E+07	-2.20380047702E+01	-9.87948423529E+01
1.53350000000E+07	-2.21690212783E+01	-9.92710093653E+01
1.55300000000E+07	-2.24102345595E+01	-9.94772637457E+01
1.57250000000E+07	-2.25334318412E+01	-9.94986020148E+01
1.59200000000E+07	-2.27938861780E+01	-9.93887260533E+01
1.61150000000E+07	-2.29570730496E+01	-9.97388545805E+01
1.63100000000E+07	-2.31341202457E+01	-9.98799121779E+01
1.65050000000E+07	-2.33927554541E+01	-1.00103618495E+02
1.67000000000E+07	-2.36058471860E+01	-9.97185730625E+01
1.68950000000E+07	-2.37722119667E+01	-1.00000648069E+02
1.70900000000E+07	-2.40244665116E+01	-1.00030467407E+02
1.72850000000E+07	-2.41995151576E+01	-1.00588680683E+02
1.74800000000E+07	-2.44119159346E+01	-1.00880058865E+02
1.76750000000E+07	-2.46428273994E+01	-1.00846372751E+02
1.78700000000E+07	-2.48787529569E+01	-1.00784673881E+02
1.80650000000E+07	-2.50137121065E+01	-1.00444810134E+02
1.82600000000E+07	-2.52678354617E+01	-1.00901011365E+02
1.84550000000E+07	-2.54330952616E+01	-1.00890473678E+02
1.86500000000E+07	-2.56992868603E+01	-1.01284571812E+02
1.88450000000E+07	-2.59050799792E+01	-1.00891906779E+02
1.90400000000E+07	-2.61620564926E+01	-1.00793788391E+02
1.92350000000E+07	-2.63398395102E+01	-1.01737914379E+02
1.94300000000E+07	-2.65973842853E+01	-1.01070201161E+02
1.96250000000E+07	-2.67603404695E+01	-1.00771439970E+02
1.98200000000E+07	-2.69586205914E+01	-1.00455430797E+02
2.00150000000E+07	-2.73611997171E+01	-1.01051015900E+02
2.02100000000E+07	-2.75223758769E+01	-1.00536654762E+02
2.04050000000E+07	-2.76985004386E+01	-1.01190547720E+02
2.06000000000E+07	-2.80339325839E+01	-1.00897286047E+02
2.07950000000E+07	-2.82457197054E+01	-1.00952402164E+02
2.09900000000E+07	-2.84417659252E+01	-1.00786675648E+02
2.11850000000E+07	-2.86882193964E+01	-1.00656921128E+02
2.13800000000E+07	-2.89235427467E+01	-1.00430139945E+02
2.15750000000E+07	-2.92407208173E+01	-9.93864434887E+01
2.17700000000E+07	-2.93921389077E+01	-9.94040227756E+01
2.19650000000E+07	-2.97482343170E+01	-9.90579819426E+01
2.21600000000E+07	-2.98917477106E+01	-9.87894151249E+01
2.23550000000E+07	-3.01492308043E+01	-9.88114621865E+01
2.25500000000E+07	-3.05123701048E+01	-9.82449839544E+01
2.27450000000E+07	-3.07308041457E+01	-9.76228268879E+01
2.29400000000E+07	-3.11190620096E+01	-9.73632115542E+01
2.31350000000E+07	-3.12712701711E+01	-9.72501108597E+01
2.33300000000E+07	-3.16243715586E+01	-9.53352619235E+01
2.35250000000E+07	-3.18158301221E+01	-9.40073426900E+01
2.37200000000E+07	-3.20837521079E+01	-9.48611229161E+01
2.39150000000E+07	-3.25331222719E+01	-9.47593991264E+01
2.41100000000E+07	-3.28353708937E+01	-9.31033333238E+01
2.43050000000E+07	-3.31057923597E+01	-9.19632296949E+01
2.45000000000E+07	-3.32283158030E+01	-9.24270183841E+01
2.46950000000E+07	-3.34970112424E+01	-9.15667615464E+01
2.48900000000E+07	-3.40299267752E+01	-9.00215972165E+01
2.50850000000E+07	-3.41670951538E+01	-8.96145895382E+01
2.52800000000E+07	-3.46190136543E+01	-8.76291429093E+01
2.54750000000E+07	-3.49023581664E+01	-8.51442859641E+01
2.56700000000E+07	-3.50125572453E+01	-8.09366859978E+01
2.58650000000E+07	-3.53019402584E+01	-8.28574173188E+01
2.60600000000E+07	-3.53034312118E+01	-8.16017883116E+01
2.62550000000E+07	-3.61718159430E+01	-7.85632640056E+01
2.64500000000E+07	-3.63415199669E+01	-7.68676620849E+01
2.66450000000E+07	-3.69280682519E+01	-7.60837344220E+01
2.68400000000E+07	-3.67429678559E+01	-7.33015067134E+01
2.70350000000E+07	-3.68546948600E+01	-7.09992846767E+01
2.72300000000E+07	-3.72299201712E+01	-6.79036622441E+01
2.74250000000E+07	-3.72810405528E+01	-6.45988993544E+01
2.76200000000E+07	-3.74827565845E+01	-6.02879917430E+01
2.78150000000E+07	-3.79864938217E+01	-5.95078233716E+01
2.80100000000E+07	-3.78881595494E+01	-5.42952213971E+01
2.82050000000E+07	-3.82204455153E+01	-5.25971412402E+01
2.84000000000E+07	-3.85011381944E+01	-4.76484812685E+01
2.85950000000E+07	-3.85678662022E+01	-4.56929601641E+01
2.87900000000E+07	-3.79509570864E+01	-4.76027809237E+01
2.89850000000E+07	-3.80235103030E+01	-4.22134672896E+01
2.91800000000E+07	-3.78427669679E+01	-3.74671029370E+01
2.93750000000E+07	-3.83856798528E+01	-3.43489451026E+01
2.95700000000E+07	-3.83744573430E+01	-3.36789570300E+01
2.97650000000E+07	-3.81306158874E+01	-3.01764004214E+01
2.99600000000E+07	-3.78613032196E+01	-2.58853728537E+01
3.01550000000E+07	-3.74668111304E+01	-2.43795729853E+01
3.03500000000E+07	-3.76691348570E+01	-2.24506542037E+01
3.05450000000E+07	-3.73968179843E+01	-2.26098647211E+01
3.07400000000E+07	-3.68850480455E+01	-1.79341343331E+01
3.09350000000E+07	-3.66236347414E+01	-1.64069127623E+01
3.11300000000E+07	-3.65933061521E+01	-1.54683424997E+01
3.13250000000E+07	-3.67409445976E+01	-1.35674204379E+01
3.15200000000E+07	-3.59944801977E+01	-9.77355039908E+00
3.17150000000E+07	-3.59933574850E+01	-1.18782476755E+01
3.19100000000E+07	-3.57394805980E+01	-1.07385666726E+01
3.21050000000E+07	-3.57874636539E+01	-8.29481235620E+00
3.23000000000E+07	-3.52676672060E+01	-6.00870141765E+00
3.24950000000E+07	-3.53840237113E+01	-7.04432581746E+00
3.26900000000E+07	-3.52196701793E+01	-4.91763838101E+00
3.28850000000E+07	-3.45805262340E+01	-3.21063541105E+00
3.30800000000E+07	-3.48000352198E+01	-5.41426177673E+00
3.32750000000E+07	-3.43085411575E+01	-2.15304569955E+00
3.34700000000E+07	-3.41504758645E+01	-2.02249896853E+00
3.36650000000E+07	-3.39909308933E+01	-1.59083568978E+00
3.38600000000E+07	-3.38156627223E+01	-1.25991815643E+00
3.40550000000E+07	-3.35402511628E+01	-3.98784932996E-01
3.42500000000E+07	-3.32658986703E+01	2.20703128174E-01
3.44450000000E+07	-3.32607689595E+01	2.41223935052E-02
3.46400000000E+07	-3.31521136084E+01	5.75317404322E-01
3.48350000000E+07	-3.30591203061E+01	1.91659464667E+00
3.50300000000E+07	-3.27384603118E+01	1.04654794896E+00
3.52250000000E+07	-3.26057392088E+01	9.51560002594E-02
3.54200000000E+07	-3.25926952646E+01	1.57466211871E+00
3.56150000000E+07	-3.22089952737E+01	2.12955467559E+00
3.58100000000E+07	-3.20168856842E+01	2.20402058081E+00
3.60050000000E+07	-3.19992572180E+01	2.20443413746E+00
3.62000000000E+07	-3.17072066479E+01	2.07062206823E+00
3.63950000000E+07	-3.16123369533E+01	3.71471967751E+00
3.65900000000E+07	-3.15460396495E+01	3.00589771506E+00
3.67850000000E+07	-3.14071463632E+01	2.70309303706E+00
3.69800000000E+07	-3.13122756923E+01	2.30949787867E+00
3.71750000000E+07	-3.11057645879E+01	1.24335808751E+00
3.73700000000E+07	-3.08956303265E+01	1.95178514891E+00
3.75650000000E+07	-3.08964229702E+01	2.59687545251E+00
3.77600000000E+07	-3.06892288421E+01	2.86779326288E+00
3.79550000000E+07	-3.07641136324E+01	3.16533787685E+00
3.81500000000E+07	-3.06323600279E+01	2.10592482162E+00
3.83450000000E+07	-3.05026949175E+01	1.93710708455E+00
3.85400000000E+07	-3.03650873722E+01	2.31897026802E+00
3.87350000000E+07	-3.02860670740E+01	1.10916185037E+00
3.89300000000E+07	-3.01639104868E+01	1.89060234032E+00
3.91250000000E+07	-3.01173710117E+01	1.85627722326E+00
3.93200000000E+07	-2.99160989560E+01	2.30220692523E+00
3.95150000000E+07	-2.99018247318E+01	1.56207927028E+00
3.97100000000E+07	-2.96528695684E+01	1.17591486875E+00
3.99050000000E+07	-2.96812485635E+01	7.87926855247E-01
4.01000000000E+07	-2.95650600988E+01	6.84219389772E-01
4.02950000000E+07	-2.94208581814E+01	1.07488415868E+00
4.04900000000E+07	-2.93582755056E+01	5.78726224455E-01
4.06850000000E+07	-2.92602127724E+01	7.16758208477E-01
4.08800000000E+07	-2.92728519232E+01	8.81777581702E-01
4.10750000000E+07	-2.90798394992E+01	1.30168449189E-01
4.12700000000E+07	-2.91785975706E+01	5.94778169405E-01
4.14650000000E+07	-2.90297067119E+01	-1.39726402528E-01
4.16600000000E+07	-2.89570562843E+01	-4.52695975960E-01
4.18550000000E+07	-2.87117928934E+01	-9.60197986515E-01
4.20500000000E+07	-2.88221243138E+01	-1.29290717839E+00
4.22450000000E+07	-2.87406036417E+01	-1.50928421991E+00
4.24400000000E+07	-2.86172410111E+01	-1.67318279400E+00
4.26350000000E+07	-2.85623734491E+01	-2.13717899359E+00
4.28300000000E+07	-2.84835239213E+01	-2.64686967268E+00
4.30250000000E+07	-2.85007261223E+01	-2.03569332578E+00
4.32200000000E+07	-2.82979694450E+01	-2.62709092461E+00
4.34150000000E+07	-2.83132483127E+01	-2.62266425133E+00
4.36100000000E+07	-2.83067786122E+01	-2.91179735103E+00
4.38050000000E+07	-2.81701499058E+01	-3.48151725124E+00
4.40000000000E+07	-2.80904219051E+01	-3.93956863687E+00
4.41950000000E+07	-2.80752692390E+01	-4.28544272291E+00
4.43900000000E+07	-2.80901769257E+01	-3.95320987923E+00
4.45850000000E+07	-2.79409226445E+01	-4.70090900015E+00
4.47800000000E+07	-2.79289495258E+01	-4.96530122905E+00
4.49750000000E+07	-2.78603284501E+01	-5.48855900891E+00
4.51700000000E+07	-2.78535613078E+01	-6.12751452493E+00
4.53650000000E+07	-2.77877865121E+01	-6.52605644800E+00
4.55600000000E+07	-2.77541390046E+01	-6.00816995621E+00
4.57550000000E+07	-2.77375243771E+01	-6.70247383933E+00
4.59500000000E+07	-2.76860358267E+01	-7.34863364892E+00
4.61450000000E+07	-2.76420206970E+01	-7.71552644506E+00
4.63400000000E+07	-2.75932309003E+01	-7.58802644063E+00
4.65350000000E+07	-2.75992909268E+01	-8.36307538284E+00
4.67300000000E+07	-2.74772600266E+01	-8.84710924280E+00
4.69250000000E+07	-2.75716681950E+01	-8.73921428115E+00
4.71200000000E+07	-2.74099909574E+01	-9.31998295416E+00
4.73150000000E+07	-2.74038268187E+01	-1.01858274610E+01
4.75100000000E+07	-2.72905723927E+01	-1.03052589367E+01
4.77050000000E+07	-2.72512285880E+01	-1.12293789650E+01
4.79000000000E+07	-2.73279198328E+01	-1.02105171429E+01
4.80950000000E+07	-2.74460293955E+01	-1.11959423184E+01
4.82900000000E+07	-2.73296222462E+01	-1.15399003116E+01
4.84850000000E+07	-2.72287748432E+01	-1.25879830223E+01
4.86800000000E+07	-2.71448534781E+01	-1.26425489861E+01
4.88750000000E+07	-2.72466186797E+01	-1.29425087595E+01
4.90700000000E+07	-2.71526154648E+01	-1.30173287045E+01
4.92650000000E+07	-2.71258960053E+01	-1.34850284867E+01
4.94600000000E+07	-2.70423002915E+01	-1.44502771892E+01
4.96550000000E+07	-2.69561754376E+01	-1.51942155300E+01
4.98500000000E+07	-2.70401566155E+01	-1.47677480716E+01
5.00450000000E+07	-2.70418635980E+01	-1.49861094415E+01
5.02400000000E+07	-2.70831309384E+01	-1.54253090416E+01
5.04350000000E+07	-2.71168507381E+01	-1.64752659141E+01
5.06300000000E+07	-2.70979953594E+01	-1.68686177637E+01
5.08250000000E+07	-2.70259780896E+01	-1.74725636976E+01
5.10200000000E+07	-2.70096931622E+01	-1.73747392806E+01
5.12150000000E+07	-2.69056698866E+01	-1.82173481787E+01
5.14100000000E+07	-2.70166170031E+01	-1.88130265932E+01
5.16050000000E+07	-2.68792176471E+01	-1.89244805080E+01
5.18000000000E+07	-2.70157777278E+01	-1.92868880260E+01
5.19950000000E+07	-2.69557080564E+01	-1.98768797093E+01
5.21900000000E+07	-2.69287493107E+01	-2.03553211988E+01
5.23850000000E+07	-2.69563469908E+01	-2.05623090829E+01
5.25800000000E+07	-2.68824217639E+01	-2.10371656140E+01
5.27750000000E+07	-2.69428362587E+01	-2.19257760641E+01
5.29700000000E+07	-2.69093763263E+01	-2.22993519299E+01
5.31650000000E+07	-2.69526865652E+01	-2.27596542197E+01
5.33600000000E+07	-2.68839736015E+01	-2.30592457664E+01
5.35550000000E+07	-2.68916569577E+01	-2.38045152967E+01
5.37500000000E+07	-2.69849123897E+01	-2.47012356669E+01
5.39450000000E+07	-2.69883031291E+01	-2.60546535069E+01
5.41400000000E+07	-2.69013925899E+01	-2.61131738221E+01
5.43350000000E+07	-2.69085798853E+01	-2.60374760295E+01
5.45300000000E+07	-2.70373462820E+01	-2.69394179254E+01
5.47250000000E+07	-2.69456699062E+01	-2.67682869957E+01
5.49200000000E+07	-2.69147896953E+01	-2.74916427609E+01
5.51150000000E+07	-2.70551459375E+01	-2.80731707870E+01
5.53100000000E+07	-2.69830317036E+01	-2.83735028889E+01
5.55050000000E+07	-2.69532966738E+01	-2.88678514242E+01
5.57000000000E+07	-2.70458331074E+01	-2.96402272394E+01
5.58950000000E+07	-2.69887809420E+01	-3.00725779887E+01
5.60900000000E+07	-2.71196601774E+01	-3.12319565641E+01
5.62850000000E+07	-2.71293988458E+01	-3.12424993634E+01
5.64800000000E+07	-2.71111688101E+01	-3.16417004118E+01
5.66750000000E+07	-2.70882832724E+01	-3.16177203643E+01
5.68700000000E+07	-2.71779248022E+01	-3.30538210598E+01
5.70650000000E+07	-2.72429610861E+01	-3.34476911522E+01
5.72600000000E+07	-2.72022597501E+01	-3.35994066072E+01
5.74550000000E+07	-2.71765904099E+01	-3.46034046418E+01
5.76500000000E+07	-2.71286817919E+01	-3.48718433070E+01
5.78450000000E+07	-2.72848432569E+01	-3.51837824704E+01
5.80400000000E+07	-2.71888627419E+01	-3.55231900088E+01
5.82350000000E+07	-2.73092469729E+01	-3.68772417228E+01
5.84300000000E+07	-2.73102514375E+01	-3.63184868761E+01
5.86250000000E+07	-2.74030492721E+01	-3.77292493514E+01
5.88200000000E+07	-2.74158750522E+01	-3.76885482551E+01
5.90150000000E+07	-2.74128861371E+01	-3.88084938203E+01
5.92100000000E+07	-2.74605020084E+01	-3.86879928390E+01
5.94050000000E+07	-2.74640674477E+01	-3.95883897532E+01
5.96000000000E+07	-2.74847197280E+01	-4.06962477810E+01
5.97950000000E+07	-2.74892244953E+01	-4.02598757360E+01
5.99900000000E+07	-2.75853735440E+01	-4.18695044021E+01
6.01850000000E+07	-2.76213898390E+01	-4.28757478475E+01
6.03800000000E+07	-2.77325310531E+01	-4.32330122811E+01
6.05750000000E+07	-2.77869539215E+01	-4.34519436680E+01
6.07700000000E+07	-2.76701407970E+01	-4.43194686128E+01
6.09650000000E+07	-2.77766579286E+01	-4.48920334462E+01
6.11600000000E+07	-2.77889942223E+01	-4.54654675237E+01
6.13550000000E+07	-2.79006032464E+01	-4.62518301950E+01
6.15500000000E+07	-2.79301564357E+01	-4.66161904954E+01
6.17450000000E+07	-2.79289503841E+01	-4.71457911591E+01
6.19400000000E+07	-2.79525142682E+01	-4.79014702402E+01
6.21350000000E+07	-2.79518931974E+01	-4.88185202450E+01
6.23300000000E+07	-2.81261269903E+01	-4.94770476825E+01
6.25250000000E+07	-2.81572055142E+01	-4.94359794792E+01
6.27200000000E+07	-2.81975777600E+01	-5.00768413734E+01
6.29150000000E+07	-2.82465442717E+01	-5.15555220439E+01
6.31100000000E+07	-2.83103398353E+01	-5.21367807884E+01
6.33050000000E+07	-2.83679252259E+01	-5.22913388460E+01
6.35000000000E+07	-2.84236951779E+01	-5.32216701330E+01
6.36950000000E+07	-2.84182391104E+01	-5.32539145401E+01
6.38900000000E+07	-2.84020935532E+01	-5.37834934958E+01
6.40850000000E+07	-2.85407133933E+01	-5.48194381792E+01
6.42800000000E+07	-2.87228280516E+01	-5.60404379381E+01
6.44750000000E+07	-2.85417935649E+01	-5.68424514240E+01
6.46700000000E+07	-2.87559005273E+01	-5.71874440117E+01
6.48650000000E+07	-2.87276876351E+01	-5.79382963715E+01
6.50600000000E+07	-2.88821723114E+01	-5.87800521362E+01
6.52550000000E+07	-2.90486359256E+01	-5.99246398679E+01
6.54500000000E+07	-2.90052294464E+01	-5.97831315430E+01
6.56450000000E+07	-2.90755127988E+01	-6.08857588125E+01
6.58400000000E+07	-2.91023498403E+01	-6.20273431782E+01
6.60350000000E+07	-2.91999798667E+01	-6.24225972329E+01
6.62300000000E+07	-2.93165088939E+01	-6.44389030378E+01
6.64250000000E+07	-2.93028258968E+01	-6.45791573166E+01
6.66200000000E+07	-2.94178577443E+01	-6.51074272498E+01
6.68150000000E+07	-2.94340183341E+01	-6.63197183479E+01
6.70100000000E+07	-2.95369072350E+01	-6.66058129300E+01
6.72050000000E+07	-2.95558414351E+01	-6.79539660643E+01
6.74000000000E+07	-2.97381160495E+01	-6.79437835284E+01
6.75950000000E+07	-2.99145251753E+01	-6.98287229898E+01
6.77900000000E+07	-2.97287055168E+01	-7.05008719013E+01
6.79850000000E+07	-2.99095877972E+01	-7.04310475449E+01
6.81800000000E+07	-3.00037310114E+01	-7.19935046710E+01
6.83750000000E+07	-2.99743292972E+01	-7.28709603305E+01
6.85700000000E+07	-3.01077898291E+01	-7.41838834128E+01
6.87650000000E+07	-3.02069120236E+01	-7.45558505988E+01
6.89600000000E+07	-3.01221588782E+01	-7.56711419556E+01
6.91550000000E+07	-3.04571895250E+01	-7.67168209488E+01
6.93500000000E+07	-3.03814758358E+01	-7.77232395884E+01
6.95450000000E+07	-3.03926839403E+01	-7.94365196623E+01
6.97400000000E+07	-3.06272123368E+01	-7.97004159211E+01
6.99350000000E+07	-3.07696382100E+01	-8.04351203063E+01
7.01300000000E+07	-3.06361098496E+01	-8.18019816009E+01
7.03250000000E+07	-3.09362791788E+01	-8.37418613272E+01
7.05200000000E+07	-3.09533945103E+01	-8.42210047825E+01
7.07150000000E+07	-3.10326228436E+01	-8.59469497845E+01
7.09100000000E+07	-3.10350372653E+01	-8.69621046928E+01
7.11050000000E+07	-3.11483471386E+01	-8.79193920552E+01
7.13000000000E+07	-3.13921518769E+01	-8.88419629054E+01
7.14950000000E+07	-3.13541660817E+01	-9.12703867528E+01
7.16900000000E+07	-3.15134465128E+01	-9.11508792673E+01
7.18850000000E+07	-3.14112185589E+01	-9.31189878642E+01
7.20800000000E+07	-3.15159412420E+01	-9.30653243646E+01
7.22750000000E+07	-3.17332598911E+01	-9.47423816535E+01
7.24700000000E+07	-3.18215990458E+01	-9.70680019193E+01
7.26650000000E+07	-3.18575117072E+01	-9.81286609728E+01
7.28600000000E+07	-3.18254141930E+01	-9.94616979079E+01
