# Hz S DB R 50
! CMT, M5045, 22160017, 22.4.3/2
! Date: 1/21/2023 20:18:10
! Data: Format (Calibration Info)
! Freq	S11:dB/Ang(F1)
5.00000000000E+06	-9.83370421370E+00	-7.70090541535E+01
5.19500000000E+06	-1.01912536508E+01	-7.79610461599E+01
5.39000000000E+06	-1.05328788627E+01	-7.89120837947E+01
5.58500000000E+06	-1.08782856337E+01	-7.97520718105E+01
5.78000000000E+06	-1.12344416570E+01	-8.06853756466E+01
5.97500000000E+06	-1.15395532450E+01	-8.11961977270E+01
6.17000000000E+06	-1.18393618592E+01	-8.18072650029E+01
6.36500000000E+06	-1.21342623564E+01	-8.26024023508E+01
6.56000000000E+06	-1.24341782320E+01	-8.31589350908E+01
6.75500000000E+06	-1.27477924416E+01	-8.39888137226E+01
6.95000000000E+06	-1.30329543226E+01	-8.44732124622E+01
7.14500000000E+06	-1.33099795646E+01	-8.50452659912E+01
7.34000000000E+06	-1.36165901185E+01	-8.54891359929E+01
7.53500000000E+06	-1.38562597426E+01	-8.60446065009E+01
7.73000000000E+06	-1.41353314841E+01	-8.63390675208E+01
7.92500000000E+06	-1.43990706694E+01	-8.69847712219E+01
8.12000000000E+06	-1.46538660318E+01	-8.73505487145E+01
8.31500000000E+06	-1.49070762999E+01	-8.77142297791E+01
8.51000000000E+06	-1.52009619089E+01	-8.81146035628E+01
8.70500000000E+06	-1.54435893177E+01	-8.87881313079E+01
8.90000000000E+06	-1.56774355648E+01	-8.89497700368E+01
9.09500000000E+06	-1.59126309140E+01	-8.93159692527E+01
9.29000000000E+06	-1.61656714045E+01	-8.98309428171E+01
9.48500000000E+06	-1.63958626660E+01	-9.01215264308E+01
9.68000000000E+06	-1.66391859100E+01	-9.02015914507E+01
9.87500000000E+06	-1.68883876227E+01	-9.08365081384E+01
1.00700000000E+07	-1.71332461158E+01	-9.08444399871E+01
1.02650000000E+07	-1.73352855195E+01	-9.14025054611E+01
1.04600000000E+07	-1.75381870634E+01	-9.17552196185E+01
1.06550000000E+07	-1.78134961947E+01	-9.17276379641E+01
1.08500000000E+07	-1.79820731777E+01	-9.22439700074E+01
1.10450000000E+07	-1.82444014930E+01	-9.28821324703E+01
1.12400000000E+07	-1.84746337472E+01	-9.31972356239E+01
1.14350000000E+07	-1.86877936024E+01	-9.35611953989E+01
1.16300000000E+07	-1.89467072100E+01	-9.36458191186E+01
1.18250000000E+07	-1.91644356372E+01	-9.40851983769E+01
1.20200000000E+07	-1.93471247640E+01	-9.43766584967E+01
1.22150000000E+07	-1.96035427824E+01	-9.44686592286E+01
1.24100000000E+07	-1.98467619293E+01	-9.47433173991E+01
1.26050000000E+07	-2.00463368079E+01	-9.48863646634E+01
1.28000000000E+07	-2.02523435163E+01	-9.51757349845E+01
1.29950000000E+07	-2.05093449991E+01	-9.54177035578E+01
1.31900000000E+07	-2.06849000485E+01	-9.54101942886E+01
1.33850000000E+07	-2.09431542714E+01	-9.56443392365E+01
1.35800000000E+07	-2.10992802456E+01	-9.57688247963E+01
1.37750000000E+07	-2.13542420229E+01	-9.59009795266E+01
1.39700000000E+07	-2.16496310404E+01	-9.63663097727E+01
1.41650000000E+07	-2.18849306940E+01	-9.61607837572E+01
1.43600000000E+07	-2.20421724492E+01	-9.68663814224E+01
1.45550000000E+07	-2.23182732745E+01	-9.63178661212E+01
1.47500000000E+07	-2.25689469094E+01	-9.63813663228E+01
1.49450000000E+07	-2.27008818358E+01	-9.68325549497E+01
1.51400000000E+07	-2.30052882835E+01	-9.64446506599E+01
1.53350000000E+07	-2.31635892656E+01	-9.67576044040E+01
1.55300000000E+07	-2.35429897952E+01	-9.64376471674E+01
1.57250000000E+07	-2.36686605365E+01	-9.68418089709E+01
1.59200000000E+07	-2.38895193659E+01	-9.64815897162E+01
1.61150000000E+07	-2.42217405987E+01	-9.65464688987E+01
1.63100000000E+07	-2.44756392760E+01	-9.63096397435E+01
1.65050000000E+07	-2.47124371522E+01	-9.65173962282E+01
1.67000000000E+07	-2.49714639526E+01	-9.62514760942E+01
1.68950000000E+07	-2.51851780262E+01	-9.61206552379E+01
1.70900000000E+07	-2.54705680620E+01	-9.63897195106E+01
1.72850000000E+07	-2.56903517914E+01	-9.57807962376E+01
1.74800000000E+07	-2.59891373337E+01	-9.64384964017E+01
1.76750000000E+07	-2.62281096060E+01	-9.51171595792E+01
1.78700000000E+07	-2.64375622887E+01	-9.55082595182E+01
1.80650000000E+07	-2.66719603479E+01	-9.49946804632E+01
1.82600000000E+07	-2.69806736405E+01	-9.43782583093E+01
1.84550000000E+07	-2.72649210047E+01	-9.47552135773E+01
1.86500000000E+07	-2.75649492624E+01	-9.39859832393E+01
1.88450000000E+07	-2.78498260044E+01	-9.35544180694E+01
1.90400000000E+07	-2.81273838406E+01	-9.34440776103E+01
1.92350000000E+07	-2.84701036704E+01	-9.35627654901E+01
1.94300000000E+07	-2.86877864522E+01	-9.12960654068E+01
1.96250000000E+07	-2.89008364649E+01	-9.07090346902E+01
1.98200000000E+07	-2.91969270798E+01	-9.02100883588E+01
2.00150000000E+07	-2.95101520523E+01	-9.04250837074E+01
2.02100000000E+07	-2.98771125492E+01	-8.94088426162E+01
2.04050000000E+07	-3.01801212014E+01	-8.81587762198E+01
2.06000000000E+07	-3.03962964993E+01	-8.74898434159E+01
2.07950000000E+07	-3.07283414317E+01	-8.61697756614E+01
2.09900000000E+07	-3.10850921738E+01	-8.54219342047E+01
2.11850000000E+07	-3.11186908639E+01	-8.50623655763E+01
2.13800000000E+07	-3.15986540612E+01	-8.36173091953E+01
2.15750000000E+07	-3.20016411623E+01	-8.10145291361E+01
2.17700000000E+07	-3.20609633169E+01	-7.94464656823E+01
2.19650000000E+07	-3.24548956433E+01	-7.68384699912E+01
2.21600000000E+07	-3.27675669345E+01	-7.63511534322E+01
2.23550000000E+07	-3.31285672182E+01	-7.48388576818E+01
2.25500000000E+07	-3.35182597155E+01	-7.19080196723E+01
2.27450000000E+07	-3.36134334648E+01	-7.03307070608E+01
2.29400000000E+07	-3.38396244254E+01	-6.89775421310E+01
2.31350000000E+07	-3.40867183516E+01	-6.53909580997E+01
2.33300000000E+07	-3.44697418603E+01	-6.39732779031E+01
2.35250000000E+07	-3.43580596282E+01	-6.03692157446E+01
2.37200000000E+07	-3.48905503802E+01	-5.84990416669E+01
2.39150000000E+07	-3.50610515811E+01	-5.56471358612E+01
2.41100000000E+07	-3.50253953016E+01	-5.39112527609E+01
2.43050000000E+07	-3.51902981819E+01	-4.85258432944E+01
2.45000000000E+07	-3.49817845418E+01	-4.67169223752E+01
2.46950000000E+07	-3.54779656928E+01	-4.33402233454E+01
2.48900000000E+07	-3.52556624137E+01	-4.02686993694E+01
2.50850000000E+07	-3.52396190576E+01	-3.77200596272E+01
2.52800000000E+07	-3.51916477418E+01	-3.43434363772E+01
2.54750000000E+07	-3.51304135579E+01	-3.11946869790E+01
2.56700000000E+07	-3.51444539254E+01	-2.99062530315E+01
2.58650000000E+07	-3.48651097101E+01	-2.67906075044E+01
2.60600000000E+07	-3.47094960012E+01	-2.67172815409E+01
2.62550000000E+07	-3.45681250971E+01	-2.15838196616E+01
2.64500000000E+07	-3.43775678858E+01	-1.86146740241E+01
2.66450000000E+07	-3.44275534919E+01	-1.75837873412E+01
2.68400000000E+07	-3.42400755013E+01	-1.58920204411E+01
2.70350000000E+07	-3.39850712531E+01	-1.34187234089E+01
2.72300000000E+07	-3.35822110344E+01	-1.25134086071E+01
2.74250000000E+07	-3.37576611071E+01	-1.05935197143E+01
2.76200000000E+07	-3.32639839961E+01	-9.06713417943E+00
2.78150000000E+07	-3.30193096810E+01	-8.12924935725E+00
2.80100000000E+07	-3.28555499168E+01	-6.70081344622E+00
2.82050000000E+07	-3.24909128736E+01	-5.03709653523E+00
2.84000000000E+07	-3.25225223469E+01	-4.47386429645E+00
2.85950000000E+07	-3.21416599702E+01	-1.75983957394E+00
2.87900000000E+07	-3.20412407358E+01	-2.77754618964E+00
2.89850000000E+07	-3.16533601146E+01	-1.76840501955E+00
2.91800000000E+07	-3.17547214781E+01	-4.10038081663E-01
2.93750000000E+07	-3.14185356442E+01	6.22682337342E-02
2.95700000000E+07	-3.11088620912E+01	7.02614784295E-01
2.97650000000E+07	-3.11534886955E+01	1.50333470469E+00
2.99600000000E+07	-3.07479569588E+01	1.13793053135E+00
3.01550000000E+07	-3.06825847394E+01	1.95918672507E+00
3.03500000000E+07	-3.05399581712E+01	3.11386998184E+00
3.05450000000E+07	-3.02544714123E+01	2.90840207136E+00
3.07400000000E+07	-3.01256487886E+01	3.22157044892E+00
3.09350000000E+07	-2.98822785797E+01	3.95866145498E+00
3.11300000000E+07	-2.97536924724E+01	4.28416258932E+00
3.13250000000E+07	-2.95733936411E+01	3.81592524772E+00
3.15200000000E+07	-2.94398087014E+01	4.57926657976E+00
3.17150000000E+07	-2.92849512736E+01	4.58832217471E+00
3.19100000000E+07	-2.92670741412E+01	5.39147904338E+00
3.21050000000E+07	-2.89902540181E+01	5.32779589635E+00
3.23000000000E+07	-2.87857188670E+01	4.62243260698E+00
3.24950000000E+07	-2.87111609021E+01	5.37025215087E+00
3.26900000000E+07	-2.85821861148E+01	5.17426243477E+00
3.28850000000E+07	-2.83937397859E+01	5.64165361183E+00
3.30800000000E+07	-2.82611207321E+01	5.80503686300E+00
3.32750000000E+07	-2.81323740428E+01	5.25814779622E+00
3.34700000000E+07	-2.79194160098E+01	5.41747457122E+00
3.36650000000E+07	-2.78189793396E+01	5.33339682644E+00
3.38600000000E+07	-2.76577490905E+01	5.50454490425E+00
3.40550000000E+07	-2.76162927266E+01	5.17032455580E+00
3.42500000000E+07	-2.75202066971E+01	5.27546686972E+00
3.44450000000E+07	-2.73363578504E+01	4.81359656249E+00
3.46400000000E+07	-2.73006970702E+01	4.46658722514E+00
3.48350000000E+07	-2.69925459180E+01	5.25675806317E+00
3.50300000000E+07	-2.71068971167E+01	4.43130483316E+00
3.52250000000E+07	-2.69009149061E+01	5.27386183618E+00
3.54200000000E+07	-2.66853816561E+01	5.15720669990E+00
3.56150000000E+07	-2.66942522245E+01	4.07998643521E+00
3.58100000000E+07	-2.65879860269E+01	4.35535884224E+00
3.60050000000E+07	-2.64807028733E+01	3.98394309482E+00
3.62000000000E+07	-2.64189533075E+01	4.18251329691E+00
3.63950000000E+07	-2.62484179977E+01	2.70844214675E+00
3.65900000000E+07	-2.62353294012E+01	3.52359718210E+00
3.67850000000E+07	-2.62097509147E+01	3.29495536456E+00
3.69800000000E+07	-2.60685392162E+01	3.09725771828E+00
3.71750000000E+07	-2.59880041168E+01	2.73598447505E+00
3.73700000000E+07	-2.58389078790E+01	2.64485096124E+00
3.75650000000E+07	-2.58264024207E+01	1.85750321368E+00
3.77600000000E+07	-2.57402020751E+01	2.09772602921E+00
3.79550000000E+07	-2.56298834737E+01	1.47178807450E+00
3.81500000000E+07	-2.55385893258E+01	1.43343734003E+00
3.83450000000E+07	-2.54709447628E+01	1.12375664063E+00
3.85400000000E+07	-2.54225745947E+01	1.18876563469E+00
3.87350000000E+07	-2.53450089943E+01	9.70809156020E-01
3.89300000000E+07	-2.52105199696E+01	8.08492214338E-01
3.91250000000E+07	-2.51521763389E+01	6.95265845213E-01
3.93200000000E+07	-2.51471137004E+01	3.16649813365E-02
3.95150000000E+07	-2.50330104181E+01	-2.83972978129E-02
3.97100000000E+07	-2.49328546413E+01	-6.93378605088E-01
3.99050000000E+07	-2.49358092762E+01	-1.52174800786E-03
4.01000000000E+07	-2.48281187030E+01	-9.99647297837E-01
4.02950000000E+07	-2.47734962537E+01	-1.47926649706E+00
4.04900000000E+07	-2.47711928219E+01	-1.69935130444E+00
4.06850000000E+07	-2.47181489614E+01	-2.02541122627E+00
4.08800000000E+07	-2.46066649510E+01	-2.14597198656E+00
4.10750000000E+07	-2.46029674447E+01	-2.48712918537E+00
4.12700000000E+07	-2.45519001521E+01	-2.70570263437E+00
4.14650000000E+07	-2.44052923298E+01	-3.34756253533E+00
4.16600000000E+07	-2.43450071047E+01	-3.21052437938E+00
4.18550000000E+07	-2.44014532232E+01	-3.63862015359E+00
4.20500000000E+07	-2.43356269582E+01	-4.27665615966E+00
4.22450000000E+07	-2.42155789183E+01	-4.42820512616E+00
4.24400000000E+07	-2.41411556730E+01	-4.91407485714E+00
4.26350000000E+07	-2.40759292506E+01	-4.53558961504E+00
4.28300000000E+07	-2.41164938058E+01	-5.15467615345E+00
4.30250000000E+07	-2.40051831309E+01	-5.66377274906E+00
4.32200000000E+07	-2.39141350022E+01	-5.80516095523E+00
4.34150000000E+07	-2.39371507295E+01	-6.44021463261E+00
4.36100000000E+07	-2.38651815347E+01	-6.29647845854E+00
4.38050000000E+07	-2.38075340405E+01	-6.48473807081E+00
4.40000000000E+07	-2.37195626353E+01	-7.42148786289E+00
4.41950000000E+07	-2.37457152308E+01	-7.99083520581E+00
4.43900000000E+07	-2.36368872851E+01	-7.87441055295E+00
4.45850000000E+07	-2.35754858552E+01	-8.47073291063E+00
4.47800000000E+07	-2.36125203913E+01	-8.34017623312E+00
4.49750000000E+07	-2.36177982909E+01	-8.82287058186E+00
4.51700000000E+07	-2.35498922439E+01	-9.22622436185E+00
4.53650000000E+07	-2.34698184672E+01	-9.39109656405E+00
4.55600000000E+07	-2.34316396108E+01	-9.91320666940E+00
4.57550000000E+07	-2.33604891472E+01	-1.06044307798E+01
4.59500000000E+07	-2.33766325457E+01	-1.05627953563E+01
4.61450000000E+07	-2.32970045721E+01	-1.11579092755E+01
4.63400000000E+07	-2.32586814539E+01	-1.16495364232E+01
4.65350000000E+07	-2.32372082051E+01	-1.19529415435E+01
4.67300000000E+07	-2.32452176078E+01	-1.22251097662E+01
4.69250000000E+07	-2.31433711941E+01	-1.24847483142E+01
4.71200000000E+07	-2.32105616774E+01	-1.35365576016E+01
4.73150000000E+07	-2.31550415501E+01	-1.31822169106E+01
4.75100000000E+07	-2.31129054110E+01	-1.38664128482E+01
4.77050000000E+07	-2.31053281783E+01	-1.39774789901E+01
4.79000000000E+07	-2.31167664044E+01	-1.43803453197E+01
4.80950000000E+07	-2.30935204256E+01	-1.48972000475E+01
4.82900000000E+07	-2.29953090859E+01	-1.54842520585E+01
4.84850000000E+07	-2.28921800237E+01	-1.58581281213E+01
4.86800000000E+07	-2.29486506304E+01	-1.65107255657E+01
4.88750000000E+07	-2.28747295387E+01	-1.64361056927E+01
4.90700000000E+07	-2.29139087230E+01	-1.72431086692E+01
4.92650000000E+07	-2.28748761633E+01	-1.74477001761E+01
4.94600000000E+07	-2.28579476001E+01	-1.77077651185E+01
4.96550000000E+07	-2.27834413550E+01	-1.80780890124E+01
4.98500000000E+07	-2.27905532686E+01	-1.88782542881E+01
5.00450000000E+07	-2.27486145173E+01	-1.84881695747E+01
5.02400000000E+07	-2.27126524501E+01	-1.89513367705E+01
5.04350000000E+07	-2.27105373762E+01	-1.99763235607E+01
5.06300000000E+07	-2.26826054070E+01	-2.00857526257E+01
5.08250000000E+07	-2.26488647222E+01	-2.03261074397E+01
5.10200000000E+07	-2.25747716909E+01	-2.09794545138E+01
5.12150000000E+07	-2.25789224250E+01	-2.13246724634E+01
5.14100000000E+07	-2.25919536380E+01	-2.13561310472E+01
5.16050000000E+07	-2.26271828200E+01	-2.25658500401E+01
5.18000000000E+07	-2.25817133690E+01	-2.25893431773E+01
5.19950000000E+07	-2.25630733685E+01	-2.29628825803E+01
5.21900000000E+07	-2.25130325104E+01	-2.36881690857E+01
5.23850000000E+07	-2.24431839281E+01	-2.39406417750E+01
5.25800000000E+07	-2.25071100323E+01	-2.41817888824E+01
5.27750000000E+07	-2.24419956389E+01	-2.48299254815E+01
5.29700000000E+07	-2.24752994478E+01	-2.59659852870E+01
5.31650000000E+07	-2.25201361206E+01	-2.57457598759E+01
5.33600000000E+07	-2.24337763434E+01	-2.58415160179E+01
5.35550000000E+07	-2.24139306638E+01	-2.66353116702E+01
5.37500000000E+07	-2.24431593940E+01	-2.68719129713E+01
5.39450000000E+07	-2.24251108688E+01	-2.78066933247E+01
5.41400000000E+07	-2.24526207765E+01	-2.82366673308E+01
5.43350000000E+07	-2.23622432088E+01	-2.81916873001E+01
5.45300000000E+07	-2.23876734737E+01	-2.86954064407E+01
5.47250000000E+07	-2.23329558744E+01	-2.95322620046E+01
5.49200000000E+07	-2.23355867075E+01	-2.98554292492E+01
5.51150000000E+07	-2.22560619125E+01	-3.02218919015E+01
5.53100000000E+07	-2.23011093242E+01	-3.07310037061E+01
5.55050000000E+07	-2.22975799737E+01	-3.13074668128E+01
5.57000000000E+07	-2.23233359789E+01	-3.18980214204E+01
5.58950000000E+07	-2.23039233518E+01	-3.20642316463E+01
5.60900000000E+07	-2.23306355877E+01	-3.22693066515E+01
5.62850000000E+07	-2.22854810023E+01	-3.31810920773E+01
5.64800000000E+07	-2.22537607981E+01	-3.30905704980E+01
5.66750000000E+07	-2.22934999278E+01	-3.37712899742E+01
5.68700000000E+07	-2.22991062652E+01	-3.43205198909E+01
5.70650000000E+07	-2.22841762061E+01	-3.49059070993E+01
5.72600000000E+07	-2.23069462248E+01	-3.53792688230E+01
5.74550000000E+07	-2.22938321026E+01	-3.59438261779E+01
5.76500000000E+07	-2.22914203767E+01	-3.65622802172E+01
5.78450000000E+07	-2.22373909187E+01	-3.69383078726E+01
5.80400000000E+07	-2.22672996018E+01	-3.75104725293E+01
5.82350000000E+07	-2.23210657071E+01	-3.79267864182E+01
5.84300000000E+07	-2.22888867145E+01	-3.84185796740E+01
5.86250000000E+07	-2.22281225726E+01	-3.88154321498E+01
5.88200000000E+07	-2.22658432624E+01	-3.93836459497E+01
5.90150000000E+07	-2.22591736171E+01	-3.96360745471E+01
5.92100000000E+07	-2.23012203549E+01	-4.01758816794E+01
5.94050000000E+07	-2.22398229513E+01	-4.07657666684E+01
5.96000000000E+07	-2.21945039370E+01	-4.15636548537E+01
5.97950000000E+07	-2.23023760058E+01	-4.18230842645E+01
5.99900000000E+07	-2.22948995041E+01	-4.20467304263E+01
6.01850000000E+07	-2.22516607074E+01	-4.28315187461E+01
6.03800000000E+07	-2.22817967290E+01	-4.31967060924E+01
6.05750000000E+07	-2.22705353449E+01	-4.42260656597E+01
6.07700000000E+07	-2.22752650146E+01	-4.41694223151E+01
6.09650000000E+07	-2.23007240774E+01	-4.49525546511E+01
6.11600000000E+07	-2.23199768731E+01	-4.55614800694E+01
6.13550000000E+07	-2.23148183822E+01	-4.63002276470E+01
6.15500000000E+07	-2.23199944484E+01	-4.62298283860E+01
6.17450000000E+07	-2.23354059656E+01	-4.70691325180E+01
6.19400000000E+07	-2.23113532912E+01	-4.71508745413E+01
6.21350000000E+07	-2.24162022857E+01	-4.83874210624E+01
6.23300000000E+07	-2.23536024129E+01	-4.87816357784E+01
6.25250000000E+07	-2.23591698631E+01	-4.88274438041E+01
6.27200000000E+07	-2.23429999269E+01	-4.94789649850E+01
6.29150000000E+07	-2.23759005566E+01	-5.02149638510E+01
6.31100000000E+07	-2.23734048010E+01	-5.01770064687E+01
6.33050000000E+07	-2.23540751772E+01	-5.09899600618E+01
6.35000000000E+07	-2.24411118374E+01	-5.17598975154E+01
6.36950000000E+07	-2.24046873691E+01	-5.18079396621E+01
6.38900000000E+07	-2.23910820840E+01	-5.23518879893E+01
6.40850000000E+07	-2.24129457502E+01	-5.32371621776E+01
6.42800000000E+07	-2.24814940471E+01	-5.39190273827E+01
6.44750000000E+07	-2.24425062248E+01	-5.43782157264E+01
6.46700000000E+07	-2.24415125673E+01	-5.52642388629E+01
6.48650000000E+07	-2.24651141816E+01	-5.57479229506E+01
6.50600000000E+07	-2.24607804739E+01	-5.59504361437E+01
6.52550000000E+07	-2.25102082014E+01	-5.67838348004E+01
6.54500000000E+07	-2.24342400581E+01	-5.73992358936E+01
6.56450000000E+07	-2.25165837152E+01	-5.80848807693E+01
6.58400000000E+07	-2.24960127180E+01	-5.82282425755E+01
6.60350000000E+07	-2.25912152639E+01	-5.86526122834E+01
6.62300000000E+07	-2.26251509495E+01	-5.94704109857E+01
6.64250000000E+07	-2.25235695436E+01	-6.00873768759E+01
6.66200000000E+07	-2.26156357697E+01	-6.02244572401E+01
6.68150000000E+07	-2.26471496134E+01	-6.12639676524E+01
6.70100000000E+07	-2.26491320659E+01	-6.18670944198E+01
6.72050000000E+07	-2.26419816549E+01	-6.24905457227E+01
6.74000000000E+07	-2.26577139611E+01	-6.31293773582E+01
6.75950000000E+07	-2.26539899815E+01	-6.36763620116E+01
6.77900000000E+07	-2.27763888979E+01	-6.40777799805E+01
6.79850000000E+07	-2.27302521615E+01	-6.43202281992E+01
6.81800000000E+07	-2.27551405109E+01	-6.50553760012E+01
6.83750000000E+07	-2.27675124984E+01	-6.57173535171E+01
6.85700000000E+07	-2.27671050367E+01	-6.64803887334E+01
6.87650000000E+07	-2.27920973851E+01	-6.70603827949E+01
6.89600000000E+07	-2.28365579720E+01	-6.76020215142E+01
6.91550000000E+07	-2.27998935859E+01	-6.81641258565E+01
6.93500000000E+07	-2.28074022557E+01	-6.89359270779E+01
6.95450000000E+07	-2.28410093167E+01	-6.94243909672E+01
6.97400000000E+07	-2.28194192450E+01	-7.01735382470E+01
6.99350000000E+07	-2.29002257045E+01	-7.03930268991E+01
7.01300000000E+07	-2.29341333276E+01	-7.09144254873E+01
7.03250000000E+07	-2.29914138918E+01	-7.18081998331E+01
7.05200000000E+07	-2.29346452885E+01	-7.23435740743E+01
7.07150000000E+07	-2.29810265249E+01	-7.29914021994E+01
7.09100000000E+07	-2.29909354686E+01	-7.34264617852E+01
7.11050000000E+07	-2.30470581964E+01	-7.43017270898E+01
7.13000000000E+07	-2.30930766164E+01	-7.51217175292E+01
7.14950000000E+07	-2.30744379102E+01	-7.54999197575E+01
7.16900000000E+07	-2.31011116749E+01	-7.64739773105E+01
7.18850000000E+07	-2.31889834011E+01	-7.74238076316E+01
7.20800000000E+07	-2.31628350149E+01	-7.78218569934E+01
7.22750000000E+07	-2.32933611732E+01	-7.82458463539E+01
7.24700000000E+07	-2.32710943473E+01	-7.87900063189E+01
7.26650000000E+07	-2.31954079966E+01	-7.95585384151E+01
7.28600000000E+07	-2.32903443797E+01	-8.00390556068E+01
