# Hz S DB R 50
! CMT, M5045, 22160017, 22.4.3/2
! Date: 1/21/2023 20:33:14
! Data: Format (Calibration Info)
! Freq	S11:dB/Ang(F1)
5.00000000000E+06	-9.90801560369E+00	-7.66687982238E+01
5.19500000000E+06	-1.02310371716E+01	-7.76245636565E+01
5.39000000000E+06	-1.05734584426E+01	-7.83305325042E+01
5.58500000000E+06	-1.09279313282E+01	-7.95659120848E+01
5.78000000000E+06	-1.12190473781E+01	-8.02587743849E+01
5.97500000000E+06	-1.15723363000E+01	-8.11042792264E+01
6.17000000000E+06	-1.18784189910E+01	-8.16550757811E+01
6.36500000000E+06	-1.21533439123E+01	-8.23923229478E+01
6.56000000000E+06	-1.24584139592E+01	-8.31991463468E+01
6.75500000000E+06	-1.27551338085E+01	-8.37526507233E+01
6.95000000000E+06	-1.30547555785E+01	-8.42041112274E+01
7.14500000000E+06	-1.33405816609E+01	-8.47368424554E+01
7.34000000000E+06	-1.36013495808E+01	-8.53222443536E+01
7.53500000000E+06	-1.38943846705E+01	-8.59777895594E+01
7.73000000000E+06	-1.41202027097E+01	-8.63451269114E+01
7.92500000000E+06	-1.44301059447E+01	-8.68565764495E+01
8.12000000000E+06	-1.46700671140E+01	-8.71884898273E+01
8.31500000000E+06	-1.49414547786E+01	-8.78643580688E+01
8.51000000000E+06	-1.51805933633E+01	-8.85278385262E+01
8.70500000000E+06	-1.54195208826E+01	-8.87187311005E+01
8.90000000000E+06	-1.57113987198E+01	-8.92755022163E+01
9.09500000000E+06	-1.59168850699E+01	-8.94518627921E+01
9.29000000000E+06	-1.61561086312E+01	-8.96955127402E+01
9.48500000000E+06	-1.64623461565E+01	-9.04214646322E+01
9.68000000000E+06	-1.66380798171E+01	-9.06324632220E+01
9.87500000000E+06	-1.69030290503E+01	-9.08970396518E+01
1.00700000000E+07	-1.71403986967E+01	-9.13983378786E+01
1.02650000000E+07	-1.74130442609E+01	-9.19596983252E+01
1.04600000000E+07	-1.76142906353E+01	-9.23091933848E+01
1.06550000000E+07	-1.78264303615E+01	-9.23586061794E+01
1.08500000000E+07	-1.80410288415E+01	-9.27188610834E+01
1.10450000000E+07	-1.82636969033E+01	-9.32630878535E+01
1.12400000000E+07	-1.85306891025E+01	-9.35326584201E+01
1.14350000000E+07	-1.87512861554E+01	-9.39589557614E+01
1.16300000000E+07	-1.89983660753E+01	-9.39108652923E+01
1.18250000000E+07	-1.92140399793E+01	-9.44757989986E+01
1.20200000000E+07	-1.94945576607E+01	-9.49912326093E+01
1.22150000000E+07	-1.96778159261E+01	-9.50751972511E+01
1.24100000000E+07	-1.99107448148E+01	-9.52329930376E+01
1.26050000000E+07	-2.01537513151E+01	-9.57771896444E+01
1.28000000000E+07	-2.03679270125E+01	-9.60278702910E+01
1.29950000000E+07	-2.05522888987E+01	-9.62157327566E+01
1.31900000000E+07	-2.08894375734E+01	-9.65095221951E+01
1.33850000000E+07	-2.11362129932E+01	-9.62337181072E+01
1.35800000000E+07	-2.12474869539E+01	-9.69215660942E+01
1.37750000000E+07	-2.15575931429E+01	-9.68068458158E+01
1.39700000000E+07	-2.17794623383E+01	-9.70611305501E+01
1.41650000000E+07	-2.21024190481E+01	-9.69662634806E+01
1.43600000000E+07	-2.22971702200E+01	-9.72763204702E+01
1.45550000000E+07	-2.25211076268E+01	-9.72651057741E+01
1.47500000000E+07	-2.26984556060E+01	-9.77161290274E+01
1.49450000000E+07	-2.30035410416E+01	-9.78737740826E+01
1.51400000000E+07	-2.32739803430E+01	-9.81158504492E+01
1.53350000000E+07	-2.34919520589E+01	-9.76075983798E+01
1.55300000000E+07	-2.37459574960E+01	-9.77643069065E+01
1.57250000000E+07	-2.39412923535E+01	-9.78250414683E+01
1.59200000000E+07	-2.42433704972E+01	-9.75854025000E+01
1.61150000000E+07	-2.45076333113E+01	-9.78902939483E+01
1.63100000000E+07	-2.47646551439E+01	-9.77912385447E+01
1.65050000000E+07	-2.50554168355E+01	-9.72041148178E+01
1.67000000000E+07	-2.52260221293E+01	-9.75509878606E+01
1.68950000000E+07	-2.56319170002E+01	-9.71587599652E+01
1.70900000000E+07	-2.58195461254E+01	-9.74407917468E+01
1.72850000000E+07	-2.61772137331E+01	-9.65870157990E+01
1.74800000000E+07	-2.64238936137E+01	-9.66503067494E+01
1.76750000000E+07	-2.66800637139E+01	-9.59562664415E+01
1.78700000000E+07	-2.70546284430E+01	-9.58206342061E+01
1.80650000000E+07	-2.72905291626E+01	-9.68853726320E+01
1.82600000000E+07	-2.75913887648E+01	-9.57675395125E+01
1.84550000000E+07	-2.78630321177E+01	-9.55997721386E+01
1.86500000000E+07	-2.81474954474E+01	-9.51474097258E+01
1.88450000000E+07	-2.86020818867E+01	-9.43624988153E+01
1.90400000000E+07	-2.87903715424E+01	-9.38791492138E+01
1.92350000000E+07	-2.90898998569E+01	-9.27864822081E+01
1.94300000000E+07	-2.94284531484E+01	-9.31583471347E+01
1.96250000000E+07	-2.97964707506E+01	-9.10393155758E+01
1.98200000000E+07	-3.01196348046E+01	-9.05118355771E+01
2.00150000000E+07	-3.05368638055E+01	-8.97054557100E+01
2.02100000000E+07	-3.08553456637E+01	-8.88201071227E+01
2.04050000000E+07	-3.10963216355E+01	-8.75110399761E+01
2.06000000000E+07	-3.13214957822E+01	-8.66565479605E+01
2.07950000000E+07	-3.17579081136E+01	-8.55628315189E+01
2.09900000000E+07	-3.21198555178E+01	-8.31878964278E+01
2.11850000000E+07	-3.23073263485E+01	-8.24499557915E+01
2.13800000000E+07	-3.26620949715E+01	-8.18260689184E+01
2.15750000000E+07	-3.31543442931E+01	-7.99471373775E+01
2.17700000000E+07	-3.33801078288E+01	-7.70499813171E+01
2.19650000000E+07	-3.37187265943E+01	-7.43419449035E+01
2.21600000000E+07	-3.41450871616E+01	-7.29536513238E+01
2.23550000000E+07	-3.45188545537E+01	-6.97136739882E+01
2.25500000000E+07	-3.47254449093E+01	-6.74844993074E+01
2.27450000000E+07	-3.48229473711E+01	-6.50115594432E+01
2.29400000000E+07	-3.53888549513E+01	-6.05950430223E+01
2.31350000000E+07	-3.55360433570E+01	-5.80852048784E+01
2.33300000000E+07	-3.58364020874E+01	-5.47687802971E+01
2.35250000000E+07	-3.57068184834E+01	-5.26520388928E+01
2.37200000000E+07	-3.60112209856E+01	-4.93368019906E+01
2.39150000000E+07	-3.58294728680E+01	-4.42254975850E+01
2.41100000000E+07	-3.58088926291E+01	-4.05098601709E+01
2.43050000000E+07	-3.60751573696E+01	-3.73707846513E+01
2.45000000000E+07	-3.59415401637E+01	-3.50475371901E+01
2.46950000000E+07	-3.61204429922E+01	-3.19969935352E+01
2.48900000000E+07	-3.58631734496E+01	-2.68818472112E+01
2.50850000000E+07	-3.55569349031E+01	-2.45327891633E+01
2.52800000000E+07	-3.54614529490E+01	-2.14164238776E+01
2.54750000000E+07	-3.51396549400E+01	-1.96250563950E+01
2.56700000000E+07	-3.49363942310E+01	-1.70230477077E+01
2.58650000000E+07	-3.49002244412E+01	-1.55703726236E+01
2.60600000000E+07	-3.46033059555E+01	-1.23638191231E+01
2.62550000000E+07	-3.42439655669E+01	-1.19626113028E+01
2.64500000000E+07	-3.39530554838E+01	-8.30840736387E+00
2.66450000000E+07	-3.38343926787E+01	-4.83250738118E+00
2.68400000000E+07	-3.36497891141E+01	-4.77560802589E+00
2.70350000000E+07	-3.33029637796E+01	-2.95235930564E+00
2.72300000000E+07	-3.30287420283E+01	-1.47958382019E+00
2.74250000000E+07	-3.27827096081E+01	-6.54989315284E-01
2.76200000000E+07	-3.24777770965E+01	1.89128957561E+00
2.78150000000E+07	-3.23224744750E+01	4.15349207811E-01
2.80100000000E+07	-3.21631874738E+01	2.27355956879E+00
2.82050000000E+07	-3.19460852724E+01	3.02847376582E+00
2.84000000000E+07	-3.16116217916E+01	3.56074639370E+00
2.85950000000E+07	-3.15264895806E+01	4.87501482627E+00
2.87900000000E+07	-3.12882413103E+01	4.94694035388E+00
2.89850000000E+07	-3.10187445988E+01	5.76197787722E+00
2.91800000000E+07	-3.06873949131E+01	5.71216224163E+00
2.93750000000E+07	-3.05242164899E+01	7.90147552468E+00
2.95700000000E+07	-3.04013739180E+01	7.12429451642E+00
2.97650000000E+07	-3.02551357662E+01	7.02301109643E+00
2.99600000000E+07	-2.99262010420E+01	8.22965164516E+00
3.01550000000E+07	-2.97227224670E+01	7.68971342516E+00
3.03500000000E+07	-2.94592509662E+01	9.27586173148E+00
3.05450000000E+07	-2.92586106349E+01	8.28892960832E+00
3.07400000000E+07	-2.91366256023E+01	8.87517846969E+00
3.09350000000E+07	-2.89941323147E+01	7.92658333195E+00
3.11300000000E+07	-2.89525477591E+01	8.79661682606E+00
3.13250000000E+07	-2.86089008636E+01	9.12130678625E+00
3.15200000000E+07	-2.85021863658E+01	9.14820539311E+00
3.17150000000E+07	-2.83055903505E+01	8.91901763175E+00
3.19100000000E+07	-2.82802205464E+01	8.33810053420E+00
3.21050000000E+07	-2.80317143478E+01	9.91199989217E+00
3.23000000000E+07	-2.78258527212E+01	9.43991051844E+00
3.24950000000E+07	-2.77148613086E+01	8.82937398839E+00
3.26900000000E+07	-2.76895636738E+01	9.68852390228E+00
3.28850000000E+07	-2.74620181295E+01	9.56189487815E+00
3.30800000000E+07	-2.73317388401E+01	8.98088052946E+00
3.32750000000E+07	-2.73152309938E+01	8.92599406604E+00
3.34700000000E+07	-2.71335374364E+01	8.71801550245E+00
3.36650000000E+07	-2.69741364949E+01	8.53738909594E+00
3.38600000000E+07	-2.68658567717E+01	8.62703685775E+00
3.40550000000E+07	-2.67125628210E+01	8.51651803125E+00
3.42500000000E+07	-2.65738248730E+01	8.06369060507E+00
3.44450000000E+07	-2.65386545166E+01	7.67086960216E+00
3.46400000000E+07	-2.64333348696E+01	8.04719243856E+00
3.48350000000E+07	-2.64424289374E+01	7.75855332207E+00
3.50300000000E+07	-2.62088433359E+01	7.91976130119E+00
3.52250000000E+07	-2.60871882037E+01	7.18642999672E+00
3.54200000000E+07	-2.60624982758E+01	6.69467435468E+00
3.56150000000E+07	-2.59233300708E+01	7.43183860348E+00
3.58100000000E+07	-2.58417612010E+01	6.73284260002E+00
3.60050000000E+07	-2.56551740220E+01	6.09160494450E+00
3.62000000000E+07	-2.56115532484E+01	5.66615870625E+00
3.63950000000E+07	-2.55762072824E+01	6.27981228982E+00
3.65900000000E+07	-2.54926041051E+01	5.49467883869E+00
3.67850000000E+07	-2.53044066272E+01	5.26773356857E+00
3.69800000000E+07	-2.52332070279E+01	5.14274917365E+00
3.71750000000E+07	-2.51943537835E+01	5.24017845281E+00
3.73700000000E+07	-2.50398190599E+01	4.91006584237E+00
3.75650000000E+07	-2.50072240566E+01	4.35890253682E+00
3.77600000000E+07	-2.48675149773E+01	3.74628565162E+00
3.79550000000E+07	-2.48140582026E+01	3.55251042936E+00
3.81500000000E+07	-2.48591478397E+01	3.88191319621E+00
3.83450000000E+07	-2.47112866988E+01	3.36327296778E+00
3.85400000000E+07	-2.46214225572E+01	3.17787600419E+00
3.87350000000E+07	-2.45725299946E+01	2.70671375151E+00
3.89300000000E+07	-2.44776743080E+01	2.57215083936E+00
3.91250000000E+07	-2.43361055591E+01	2.19500587121E+00
3.93200000000E+07	-2.43565555503E+01	1.29385649116E+00
3.95150000000E+07	-2.42473960556E+01	1.49637569774E+00
3.97100000000E+07	-2.42734880363E+01	8.75003820331E-01
3.99050000000E+07	-2.42199265455E+01	4.99730133873E-01
4.01000000000E+07	-2.40955828200E+01	5.24364445174E-01
4.02950000000E+07	-2.40376285326E+01	1.22385325470E-01
4.04900000000E+07	-2.40004043677E+01	-5.71304129116E-02
4.06850000000E+07	-2.38931666639E+01	-7.58268029765E-01
4.08800000000E+07	-2.39294338528E+01	-7.60106564426E-01
4.10750000000E+07	-2.38219703872E+01	-9.23226933759E-01
4.12700000000E+07	-2.37632857021E+01	-1.40173527583E+00
4.14650000000E+07	-2.37494241177E+01	-1.85948090047E+00
4.16600000000E+07	-2.37055604107E+01	-2.55310772680E+00
4.18550000000E+07	-2.36215395666E+01	-2.58177237312E+00
4.20500000000E+07	-2.35204803447E+01	-2.85446328842E+00
4.22450000000E+07	-2.35305453124E+01	-3.03925071065E+00
4.24400000000E+07	-2.34340549295E+01	-3.38581969339E+00
4.26350000000E+07	-2.34027527933E+01	-4.01317960702E+00
4.28300000000E+07	-2.33557616294E+01	-3.81061890989E+00
4.30250000000E+07	-2.32751841319E+01	-4.20316386755E+00
4.32200000000E+07	-2.32496159699E+01	-4.66337168223E+00
4.34150000000E+07	-2.32334797804E+01	-5.39493738578E+00
4.36100000000E+07	-2.31772945408E+01	-5.40938265096E+00
4.38050000000E+07	-2.31382977444E+01	-5.70114399556E+00
4.40000000000E+07	-2.31550643177E+01	-6.76999657038E+00
4.41950000000E+07	-2.30641656264E+01	-6.74574324046E+00
4.43900000000E+07	-2.29986951033E+01	-6.70811497500E+00
4.45850000000E+07	-2.29408613237E+01	-7.09054375401E+00
4.47800000000E+07	-2.28750178043E+01	-7.63570057870E+00
4.49750000000E+07	-2.28859360152E+01	-7.76585345647E+00
4.51700000000E+07	-2.28159171154E+01	-8.57176558542E+00
4.53650000000E+07	-2.28049847587E+01	-8.87243616474E+00
4.55600000000E+07	-2.27603264057E+01	-9.37527112629E+00
4.57550000000E+07	-2.26884927769E+01	-9.60419650329E+00
4.59500000000E+07	-2.26757009233E+01	-9.54821327545E+00
4.61450000000E+07	-2.26885685800E+01	-9.97857780880E+00
4.63400000000E+07	-2.25903542200E+01	-1.09674936919E+01
4.65350000000E+07	-2.26272725293E+01	-1.07368693743E+01
4.67300000000E+07	-2.25538975318E+01	-1.14532782193E+01
4.69250000000E+07	-2.24993127501E+01	-1.19134635243E+01
4.71200000000E+07	-2.25004711887E+01	-1.21138656966E+01
4.73150000000E+07	-2.24559394311E+01	-1.24086253176E+01
4.75100000000E+07	-2.23856823224E+01	-1.27550829195E+01
4.77050000000E+07	-2.24552130031E+01	-1.33026299790E+01
4.79000000000E+07	-2.23650947159E+01	-1.36996236210E+01
4.80950000000E+07	-2.23706024081E+01	-1.41084169037E+01
4.82900000000E+07	-2.23136758476E+01	-1.46976212201E+01
4.84850000000E+07	-2.22976529448E+01	-1.49366722204E+01
4.86800000000E+07	-2.23148510467E+01	-1.56668294358E+01
4.88750000000E+07	-2.22328614022E+01	-1.59095521706E+01
4.90700000000E+07	-2.22088326754E+01	-1.63507289147E+01
4.92650000000E+07	-2.21795280201E+01	-1.65032551735E+01
4.94600000000E+07	-2.21329492314E+01	-1.74782749411E+01
4.96550000000E+07	-2.21054182370E+01	-1.73147676493E+01
4.98500000000E+07	-2.21213482533E+01	-1.80824159853E+01
5.00450000000E+07	-2.21197155802E+01	-1.84555498965E+01
5.02400000000E+07	-2.20711601519E+01	-1.88471171089E+01
5.04350000000E+07	-2.20664013462E+01	-1.86463513796E+01
5.06300000000E+07	-2.20232238612E+01	-1.95550455864E+01
5.08250000000E+07	-2.19701228451E+01	-2.00015446798E+01
5.10200000000E+07	-2.20263747415E+01	-2.05994347185E+01
5.12150000000E+07	-2.19353566582E+01	-2.09043500606E+01
5.14100000000E+07	-2.19553618616E+01	-2.16287171068E+01
5.16050000000E+07	-2.19201422549E+01	-2.20275774535E+01
5.18000000000E+07	-2.19442031359E+01	-2.23619444452E+01
5.19950000000E+07	-2.18483061326E+01	-2.24087799252E+01
5.21900000000E+07	-2.19263920084E+01	-2.33085780977E+01
5.23850000000E+07	-2.18604267663E+01	-2.35134893504E+01
5.25800000000E+07	-2.18394609064E+01	-2.37492966304E+01
5.27750000000E+07	-2.18821716468E+01	-2.44931662275E+01
5.29700000000E+07	-2.18284097405E+01	-2.47715451896E+01
5.31650000000E+07	-2.17817214026E+01	-2.54202539954E+01
5.33600000000E+07	-2.17999198418E+01	-2.57006961954E+01
5.35550000000E+07	-2.17752205710E+01	-2.61740786338E+01
5.37500000000E+07	-2.17992068037E+01	-2.65192235973E+01
5.39450000000E+07	-2.17707931613E+01	-2.69673274215E+01
5.41400000000E+07	-2.17409274194E+01	-2.76884396498E+01
5.43350000000E+07	-2.16717692055E+01	-2.77622883275E+01
5.45300000000E+07	-2.17641113106E+01	-2.84645172191E+01
5.47250000000E+07	-2.17063665341E+01	-2.88509395944E+01
5.49200000000E+07	-2.17331495369E+01	-2.97175117331E+01
5.51150000000E+07	-2.16813604782E+01	-2.99280607707E+01
5.53100000000E+07	-2.16994706664E+01	-3.05383081131E+01
5.55050000000E+07	-2.17301899944E+01	-3.04894866604E+01
5.57000000000E+07	-2.16981747902E+01	-3.12503151562E+01
5.58950000000E+07	-2.17487099192E+01	-3.16182207698E+01
5.60900000000E+07	-2.16953491514E+01	-3.25228577136E+01
5.62850000000E+07	-2.16710608445E+01	-3.28638448039E+01
5.64800000000E+07	-2.16428461433E+01	-3.32767983718E+01
5.66750000000E+07	-2.16614817602E+01	-3.39820808611E+01
5.68700000000E+07	-2.16501723842E+01	-3.39545855528E+01
5.70650000000E+07	-2.16885273969E+01	-3.44612076571E+01
5.72600000000E+07	-2.16407821803E+01	-3.52041505109E+01
5.74550000000E+07	-2.16805796640E+01	-3.52983710055E+01
5.76500000000E+07	-2.16848089834E+01	-3.59309951106E+01
5.78450000000E+07	-2.16762288486E+01	-3.67728217331E+01
5.80400000000E+07	-2.16336217193E+01	-3.70423387287E+01
5.82350000000E+07	-2.16305840316E+01	-3.75421493701E+01
5.84300000000E+07	-2.16656766509E+01	-3.80886627354E+01
5.86250000000E+07	-2.16207297590E+01	-3.88349432172E+01
5.88200000000E+07	-2.16927133965E+01	-3.90971783057E+01
5.90150000000E+07	-2.16734874901E+01	-3.93595436480E+01
5.92100000000E+07	-2.16815471065E+01	-3.98475096892E+01
5.94050000000E+07	-2.15931134854E+01	-4.06369114438E+01
5.96000000000E+07	-2.16478231845E+01	-4.11145867831E+01
5.97950000000E+07	-2.16147756148E+01	-4.14304073759E+01
5.99900000000E+07	-2.16739010929E+01	-4.19940976352E+01
6.01850000000E+07	-2.16922629807E+01	-4.25621046389E+01
6.03800000000E+07	-2.16583421342E+01	-4.30436345450E+01
6.05750000000E+07	-2.16417870878E+01	-4.36683504495E+01
6.07700000000E+07	-2.16927654240E+01	-4.43264575048E+01
6.09650000000E+07	-2.16287292657E+01	-4.44005572340E+01
6.11600000000E+07	-2.16569156824E+01	-4.49758609268E+01
6.13550000000E+07	-2.17295079405E+01	-4.58915636106E+01
6.15500000000E+07	-2.17286397613E+01	-4.61616863777E+01
6.17450000000E+07	-2.17007045781E+01	-4.66566881812E+01
6.19400000000E+07	-2.17368201998E+01	-4.73146376012E+01
6.21350000000E+07	-2.17012573442E+01	-4.74964854268E+01
6.23300000000E+07	-2.17609833479E+01	-4.81085412775E+01
6.25250000000E+07	-2.17217146492E+01	-4.91373667273E+01
6.27200000000E+07	-2.16923235030E+01	-4.94778856252E+01
6.29150000000E+07	-2.17826843496E+01	-4.95279252683E+01
6.31100000000E+07	-2.17645299793E+01	-5.04080855083E+01
6.33050000000E+07	-2.18393596837E+01	-5.08556854753E+01
6.35000000000E+07	-2.18625696330E+01	-5.14259569157E+01
6.36950000000E+07	-2.17725025632E+01	-5.17214880425E+01
6.38900000000E+07	-2.17927345774E+01	-5.24788370351E+01
6.40850000000E+07	-2.18339514133E+01	-5.28077608270E+01
6.42800000000E+07	-2.18413519902E+01	-5.37073123762E+01
6.44750000000E+07	-2.18388530141E+01	-5.42742963182E+01
6.46700000000E+07	-2.19018023154E+01	-5.49344628329E+01
6.48650000000E+07	-2.18538456749E+01	-5.54200583200E+01
6.50600000000E+07	-2.19214272219E+01	-5.57722488151E+01
6.52550000000E+07	-2.19692060456E+01	-5.60494945152E+01
6.54500000000E+07	-2.19083626728E+01	-5.70145023358E+01
6.56450000000E+07	-2.19414589774E+01	-5.76757184573E+01
6.58400000000E+07	-2.19758944728E+01	-5.77708193626E+01
6.60350000000E+07	-2.19548071657E+01	-5.86497138388E+01
6.62300000000E+07	-2.19542942810E+01	-5.91402107050E+01
6.64250000000E+07	-2.20275430377E+01	-5.99205216250E+01
6.66200000000E+07	-2.20089699167E+01	-6.01608553576E+01
6.68150000000E+07	-2.20695337784E+01	-6.10671322401E+01
6.70100000000E+07	-2.20491535906E+01	-6.16832774403E+01
6.72050000000E+07	-2.20508967370E+01	-6.18527447780E+01
6.74000000000E+07	-2.20407670076E+01	-6.26577675955E+01
6.75950000000E+07	-2.21019794189E+01	-6.33646099636E+01
6.77900000000E+07	-2.20856051561E+01	-6.38897293452E+01
6.79850000000E+07	-2.21535408495E+01	-6.44510853818E+01
6.81800000000E+07	-2.21895096648E+01	-6.49934468487E+01
6.83750000000E+07	-2.21873518436E+01	-6.52695555898E+01
6.85700000000E+07	-2.21853654412E+01	-6.61311041468E+01
6.87650000000E+07	-2.21948005055E+01	-6.64528633653E+01
6.89600000000E+07	-2.22379038113E+01	-6.72930287676E+01
6.91550000000E+07	-2.22156231864E+01	-6.79824932522E+01
6.93500000000E+07	-2.22757275838E+01	-6.82333190618E+01
6.95450000000E+07	-2.22680336506E+01	-6.91269982078E+01
6.97400000000E+07	-2.22893003080E+01	-6.93813451036E+01
6.99350000000E+07	-2.22769634811E+01	-7.03729287147E+01
7.01300000000E+07	-2.23593719123E+01	-7.11121416410E+01
7.03250000000E+07	-2.24014475811E+01	-7.13204432022E+01
7.05200000000E+07	-2.24224631707E+01	-7.21719043503E+01
7.07150000000E+07	-2.24152244860E+01	-7.24221998375E+01
7.09100000000E+07	-2.24367552430E+01	-7.34925131646E+01
7.11050000000E+07	-2.25245585859E+01	-7.35122652819E+01
7.13000000000E+07	-2.24886234269E+01	-7.42364914408E+01
7.14950000000E+07	-2.24680315500E+01	-7.49956257349E+01
7.16900000000E+07	-2.24858002719E+01	-7.59246085482E+01
7.18850000000E+07	-2.25406894773E+01	-7.62036744233E+01
7.20800000000E+07	-2.25692444559E+01	-7.67433043302E+01
7.22750000000E+07	-2.26253424570E+01	-7.78185539230E+01
7.24700000000E+07	-2.26210003185E+01	-7.81599167433E+01
7.26650000000E+07	-2.26691149692E+01	-7.89058094436E+01
7.28600000000E+07	-2.27189840927E+01	-7.96762690550E+01
