# Hz S DB R 50
! CMT, M5045, 22160017, 22.4.3/2
! Date: 1/21/2023 19:45:43
! Data: Format (Calibration Info)
! Freq	S11:dB/Ang(F1)
5.00000000000E+06	-9.80484076097E+00	-7.61441046340E+01
5.19500000000E+06	-1.01829107985E+01	-7.73596765828E+01
5.39000000000E+06	-1.05356503325E+01	-7.80435857892E+01
5.58500000000E+06	-1.08714404316E+01	-7.91782918285E+01
5.78000000000E+06	-1.11648126038E+01	-8.00582224611E+01
5.97500000000E+06	-1.14798657628E+01	-8.06351020324E+01
6.17000000000E+06	-1.18281949491E+01	-8.12329816714E+01
6.36500000000E+06	-1.21378855888E+01	-8.20821039087E+01
6.56000000000E+06	-1.24295808270E+01	-8.26805537204E+01
6.75500000000E+06	-1.27117915570E+01	-8.32419852940E+01
6.95000000000E+06	-1.29956174909E+01	-8.39285593581E+01
7.14500000000E+06	-1.32982533547E+01	-8.45658322859E+01
7.34000000000E+06	-1.35460501170E+01	-8.50077617027E+01
7.53500000000E+06	-1.38264302854E+01	-8.53823234962E+01
7.73000000000E+06	-1.41007420224E+01	-8.60034394708E+01
7.92500000000E+06	-1.43827558113E+01	-8.65639999618E+01
8.12000000000E+06	-1.46550039982E+01	-8.67506606429E+01
8.31500000000E+06	-1.48894893492E+01	-8.73636653256E+01
8.51000000000E+06	-1.51894229392E+01	-8.78573137447E+01
8.70500000000E+06	-1.54289538534E+01	-8.80004272283E+01
8.90000000000E+06	-1.56675911965E+01	-8.85082987962E+01
9.09500000000E+06	-1.59491677441E+01	-8.91061662544E+01
9.29000000000E+06	-1.61594680820E+01	-8.94394196251E+01
9.48500000000E+06	-1.64042937527E+01	-8.98213787909E+01
9.68000000000E+06	-1.66359359128E+01	-9.02252286371E+01
9.87500000000E+06	-1.69253879760E+01	-9.02231923929E+01
1.00700000000E+07	-1.71575098662E+01	-9.06502366313E+01
1.02650000000E+07	-1.74300697736E+01	-9.10766282757E+01
1.04600000000E+07	-1.76329021722E+01	-9.17539589784E+01
1.06550000000E+07	-1.79293287774E+01	-9.16277412704E+01
1.08500000000E+07	-1.80763115086E+01	-9.19845818665E+01
1.10450000000E+07	-1.83485752698E+01	-9.23432514504E+01
1.12400000000E+07	-1.85573033840E+01	-9.25026403577E+01
1.14350000000E+07	-1.88094567346E+01	-9.29373457658E+01
1.16300000000E+07	-1.91172934209E+01	-9.29605540572E+01
1.18250000000E+07	-1.93023377333E+01	-9.36014643121E+01
1.20200000000E+07	-1.95297646563E+01	-9.37801922537E+01
1.22150000000E+07	-1.97945861862E+01	-9.40977241784E+01
1.24100000000E+07	-1.99819362356E+01	-9.41194644505E+01
1.26050000000E+07	-2.02597735397E+01	-9.41744673591E+01
1.28000000000E+07	-2.04875585273E+01	-9.44715624947E+01
1.29950000000E+07	-2.07509801957E+01	-9.52787739163E+01
1.31900000000E+07	-2.09446149659E+01	-9.51507816789E+01
1.33850000000E+07	-2.12012281017E+01	-9.52802157921E+01
1.35800000000E+07	-2.14581888743E+01	-9.51719265437E+01
1.37750000000E+07	-2.17257884965E+01	-9.52767392069E+01
1.39700000000E+07	-2.19497909782E+01	-9.50516816862E+01
1.41650000000E+07	-2.21659606832E+01	-9.57474648092E+01
1.43600000000E+07	-2.24819769362E+01	-9.55129320225E+01
1.45550000000E+07	-2.26753536116E+01	-9.57120893772E+01
1.47500000000E+07	-2.29216248925E+01	-9.56436390309E+01
1.49450000000E+07	-2.32481136287E+01	-9.55247103782E+01
1.51400000000E+07	-2.34669750960E+01	-9.60308340119E+01
1.53350000000E+07	-2.36490532179E+01	-9.56577117302E+01
1.55300000000E+07	-2.40058739210E+01	-9.49122769222E+01
1.57250000000E+07	-2.41714066027E+01	-9.57858441358E+01
1.59200000000E+07	-2.44763534731E+01	-9.52547752374E+01
1.61150000000E+07	-2.48009219389E+01	-9.53909858460E+01
1.63100000000E+07	-2.50873547973E+01	-9.43154991865E+01
1.65050000000E+07	-2.53661463303E+01	-9.52418470868E+01
1.67000000000E+07	-2.55630135720E+01	-9.47557599988E+01
1.68950000000E+07	-2.58854403576E+01	-9.40766811033E+01
1.70900000000E+07	-2.62272150387E+01	-9.38417501640E+01
1.72850000000E+07	-2.64385092368E+01	-9.37611764033E+01
1.74800000000E+07	-2.66445583784E+01	-9.36208434615E+01
1.76750000000E+07	-2.69993721071E+01	-9.31615043287E+01
1.78700000000E+07	-2.73515730015E+01	-9.33187915641E+01
1.80650000000E+07	-2.75927392981E+01	-9.24462759199E+01
1.82600000000E+07	-2.78850710173E+01	-9.19016493625E+01
1.84550000000E+07	-2.81619265636E+01	-9.12066703090E+01
1.86500000000E+07	-2.85370306834E+01	-9.07837036834E+01
1.88450000000E+07	-2.88132503137E+01	-8.89889559305E+01
1.90400000000E+07	-2.91878163285E+01	-8.88676148160E+01
1.92350000000E+07	-2.95472857257E+01	-8.83349124875E+01
1.94300000000E+07	-2.98217778083E+01	-8.66320844941E+01
1.96250000000E+07	-3.01931274210E+01	-8.60561553166E+01
1.98200000000E+07	-3.04768210619E+01	-8.54862931494E+01
2.00150000000E+07	-3.08165807297E+01	-8.37163724951E+01
2.02100000000E+07	-3.10950118124E+01	-8.19256232076E+01
2.04050000000E+07	-3.14961103835E+01	-8.11544443771E+01
2.06000000000E+07	-3.17906206309E+01	-7.85310367381E+01
2.07950000000E+07	-3.20217626355E+01	-7.64667458513E+01
2.09900000000E+07	-3.25670095705E+01	-7.60340616485E+01
2.11850000000E+07	-3.26895143302E+01	-7.30909095895E+01
2.13800000000E+07	-3.32939774180E+01	-7.13320302120E+01
2.15750000000E+07	-3.32178393621E+01	-6.86334587132E+01
2.17700000000E+07	-3.37148017202E+01	-6.65379692802E+01
2.19650000000E+07	-3.39036531312E+01	-6.41471586156E+01
2.21600000000E+07	-3.41760848099E+01	-6.05683816258E+01
2.23550000000E+07	-3.43111499250E+01	-5.82172705842E+01
2.25500000000E+07	-3.46625704900E+01	-5.70415569608E+01
2.27450000000E+07	-3.48288565702E+01	-5.32846822139E+01
2.29400000000E+07	-3.49662472655E+01	-4.97268187154E+01
2.31350000000E+07	-3.47904777794E+01	-4.44977974364E+01
2.33300000000E+07	-3.49020616424E+01	-4.18430545390E+01
2.35250000000E+07	-3.49373843364E+01	-3.80705346901E+01
2.37200000000E+07	-3.48627375816E+01	-3.62959701931E+01
2.39150000000E+07	-3.49640655389E+01	-3.12335327928E+01
2.41100000000E+07	-3.47888064735E+01	-2.79097578708E+01
2.43050000000E+07	-3.44422178404E+01	-2.52989700466E+01
2.45000000000E+07	-3.47435187856E+01	-2.23575365564E+01
2.46950000000E+07	-3.43897677036E+01	-2.02419950224E+01
2.48900000000E+07	-3.42625398750E+01	-1.75574038337E+01
2.50850000000E+07	-3.38659423742E+01	-1.42854945980E+01
2.52800000000E+07	-3.37691273464E+01	-1.31195604886E+01
2.54750000000E+07	-3.37065308750E+01	-1.08570242260E+01
2.56700000000E+07	-3.32900610728E+01	-1.08611787590E+01
2.58650000000E+07	-3.30239687691E+01	-6.64903755440E+00
2.60600000000E+07	-3.28193277364E+01	-5.10616373156E+00
2.62550000000E+07	-3.28498847236E+01	-4.14832131245E+00
2.64500000000E+07	-3.24554811785E+01	-3.09301467764E+00
2.66450000000E+07	-3.21622781263E+01	-1.91329016706E+00
2.68400000000E+07	-3.18334249496E+01	2.04016943924E-01
2.70350000000E+07	-3.15591041829E+01	5.62449454549E-01
2.72300000000E+07	-3.13331408642E+01	1.90171920754E+00
2.74250000000E+07	-3.13230634311E+01	1.75636915002E+00
2.76200000000E+07	-3.09863526382E+01	2.94403504347E+00
2.78150000000E+07	-3.06947577863E+01	5.10531399742E+00
2.80100000000E+07	-3.06025778020E+01	5.56142289604E+00
2.82050000000E+07	-3.03309558886E+01	5.52582364343E+00
2.84000000000E+07	-3.02430912778E+01	5.43275371609E+00
2.85950000000E+07	-2.98395481275E+01	6.70262135415E+00
2.87900000000E+07	-2.96282642255E+01	7.17797798932E+00
2.89850000000E+07	-2.96935584849E+01	6.65148787188E+00
2.91800000000E+07	-2.92845572391E+01	7.54470292574E+00
2.93750000000E+07	-2.92323907143E+01	7.90423431966E+00
2.95700000000E+07	-2.88782889557E+01	8.75451714649E+00
2.97650000000E+07	-2.88453994762E+01	8.48776990130E+00
2.99600000000E+07	-2.86186395361E+01	8.93533194183E+00
3.01550000000E+07	-2.83606902356E+01	9.13504676297E+00
3.03500000000E+07	-2.81941817251E+01	9.00556189159E+00
3.05450000000E+07	-2.80569859581E+01	9.38679341382E+00
3.07400000000E+07	-2.79598860275E+01	9.08708621636E+00
3.09350000000E+07	-2.78160110527E+01	9.18437828206E+00
3.11300000000E+07	-2.76994231328E+01	9.98334216396E+00
3.13250000000E+07	-2.76396673175E+01	9.36131879593E+00
3.15200000000E+07	-2.73759432222E+01	1.00990734992E+01
3.17150000000E+07	-2.71254769160E+01	1.00324032249E+01
3.19100000000E+07	-2.71054375635E+01	9.05047444382E+00
3.21050000000E+07	-2.69818029753E+01	9.76885636178E+00
3.23000000000E+07	-2.68103217942E+01	9.83167358328E+00
3.24950000000E+07	-2.66608703184E+01	9.10287277847E+00
3.26900000000E+07	-2.64367402482E+01	9.12703138661E+00
3.28850000000E+07	-2.64870640793E+01	9.85175709418E+00
3.30800000000E+07	-2.63162798617E+01	9.18451261192E+00
3.32750000000E+07	-2.62112959164E+01	8.82065726016E+00
3.34700000000E+07	-2.60047362380E+01	8.98258605262E+00
3.36650000000E+07	-2.58642198206E+01	8.59597681920E+00
3.38600000000E+07	-2.58068975822E+01	8.20656451087E+00
3.40550000000E+07	-2.57744971867E+01	8.31023247309E+00
3.42500000000E+07	-2.55460023694E+01	8.75280669107E+00
3.44450000000E+07	-2.54874438050E+01	8.37830645874E+00
3.46400000000E+07	-2.53176326980E+01	7.34404982665E+00
3.48350000000E+07	-2.52872114841E+01	7.66846638406E+00
3.50300000000E+07	-2.51873423647E+01	7.28249440895E+00
3.52250000000E+07	-2.50324888720E+01	7.35314112544E+00
3.54200000000E+07	-2.50910937218E+01	6.79205750712E+00
3.56150000000E+07	-2.49084657521E+01	7.14629922581E+00
3.58100000000E+07	-2.48489214599E+01	6.53172125161E+00
3.60050000000E+07	-2.47387891266E+01	6.01773689032E+00
3.62000000000E+07	-2.46183036112E+01	6.17482031653E+00
3.63950000000E+07	-2.46771327654E+01	6.83601394578E+00
3.65900000000E+07	-2.45035002715E+01	5.47071493700E+00
3.67850000000E+07	-2.43989878986E+01	4.99469335684E+00
3.69800000000E+07	-2.43082634254E+01	4.63990479281E+00
3.71750000000E+07	-2.42978387451E+01	4.49546991648E+00
3.73700000000E+07	-2.41579963942E+01	4.68226374373E+00
3.75650000000E+07	-2.40558322914E+01	4.04141866131E+00
3.77600000000E+07	-2.40389189419E+01	3.97316626380E+00
3.79550000000E+07	-2.39267099050E+01	3.19911001735E+00
3.81500000000E+07	-2.38831676853E+01	3.33674858912E+00
3.83450000000E+07	-2.38083854746E+01	3.12077585777E+00
3.85400000000E+07	-2.37594190363E+01	2.94435804121E+00
3.87350000000E+07	-2.36903449645E+01	3.20815377108E+00
3.89300000000E+07	-2.36046333912E+01	2.01414235448E+00
3.91250000000E+07	-2.36112441385E+01	1.51080306634E+00
3.93200000000E+07	-2.35146993180E+01	1.38473700228E+00
3.95150000000E+07	-2.34025413208E+01	1.27156386214E+00
3.97100000000E+07	-2.33012552770E+01	6.92504066859E-01
3.99050000000E+07	-2.32963212331E+01	5.60715797371E-01
4.01000000000E+07	-2.32421398689E+01	3.47847564045E-01
4.02950000000E+07	-2.31670474682E+01	-3.39548239838E-01
4.04900000000E+07	-2.31233644320E+01	-4.18826076903E-01
4.06850000000E+07	-2.31023724469E+01	-4.89705609732E-01
4.08800000000E+07	-2.30532022352E+01	-5.39050639010E-01
4.10750000000E+07	-2.29459641104E+01	-1.74089223204E+00
4.12700000000E+07	-2.29065267682E+01	-1.10969996712E+00
4.14650000000E+07	-2.28209283185E+01	-1.78785116675E+00
4.16600000000E+07	-2.27995994775E+01	-2.12766355070E+00
4.18550000000E+07	-2.27321386339E+01	-2.52215008286E+00
4.20500000000E+07	-2.26681420110E+01	-3.14320629906E+00
4.22450000000E+07	-2.26160015023E+01	-3.25607947250E+00
4.24400000000E+07	-2.25499059119E+01	-3.04792714318E+00
4.26350000000E+07	-2.25301103810E+01	-4.37197662621E+00
4.28300000000E+07	-2.24891997077E+01	-4.21269831921E+00
4.30250000000E+07	-2.24512692280E+01	-4.56499748093E+00
4.32200000000E+07	-2.23947404774E+01	-5.44532306536E+00
4.34150000000E+07	-2.23410162681E+01	-5.68712644576E+00
4.36100000000E+07	-2.23064649156E+01	-5.88290096600E+00
4.38050000000E+07	-2.23276283710E+01	-6.06110987033E+00
4.40000000000E+07	-2.22707804932E+01	-6.42733392118E+00
4.41950000000E+07	-2.22059532715E+01	-6.72755932882E+00
4.43900000000E+07	-2.21603939496E+01	-6.73865183557E+00
4.45850000000E+07	-2.21415992803E+01	-7.25977111630E+00
4.47800000000E+07	-2.20795785563E+01	-7.94362639286E+00
4.49750000000E+07	-2.20658508555E+01	-8.17612062134E+00
4.51700000000E+07	-2.19837507796E+01	-8.44565839310E+00
4.53650000000E+07	-2.19852959214E+01	-8.80261610532E+00
4.55600000000E+07	-2.19251693723E+01	-8.91911449789E+00
4.57550000000E+07	-2.18516870278E+01	-9.67321253394E+00
4.59500000000E+07	-2.19062127602E+01	-1.00894161226E+01
4.61450000000E+07	-2.18486395309E+01	-1.05097026831E+01
4.63400000000E+07	-2.18001988106E+01	-1.08970258360E+01
4.65350000000E+07	-2.17389407716E+01	-1.12294981169E+01
4.67300000000E+07	-2.17046384211E+01	-1.16456743843E+01
4.69250000000E+07	-2.16770582249E+01	-1.18863013940E+01
4.71200000000E+07	-2.16484584412E+01	-1.21382591884E+01
4.73150000000E+07	-2.16516593851E+01	-1.25149375601E+01
4.75100000000E+07	-2.15960503774E+01	-1.29577183999E+01
4.77050000000E+07	-2.15859606902E+01	-1.36732086180E+01
4.79000000000E+07	-2.15428739906E+01	-1.41098839177E+01
4.80950000000E+07	-2.15223427311E+01	-1.40543568472E+01
4.82900000000E+07	-2.14838235759E+01	-1.46975227669E+01
4.84850000000E+07	-2.14560320213E+01	-1.50515347623E+01
4.86800000000E+07	-2.14477183893E+01	-1.53516519134E+01
4.88750000000E+07	-2.14594169650E+01	-1.59495315891E+01
4.90700000000E+07	-2.13959901459E+01	-1.63697355041E+01
4.92650000000E+07	-2.13401966947E+01	-1.69231452950E+01
4.94600000000E+07	-2.13582076025E+01	-1.69795640769E+01
4.96550000000E+07	-2.13147681240E+01	-1.74044230955E+01
4.98500000000E+07	-2.12836977950E+01	-1.80094271187E+01
5.00450000000E+07	-2.12776183823E+01	-1.81896318562E+01
5.02400000000E+07	-2.12377904197E+01	-1.85571509984E+01
5.04350000000E+07	-2.12069495034E+01	-1.93467170236E+01
5.06300000000E+07	-2.12363370226E+01	-1.98697972824E+01
5.08250000000E+07	-2.11114116119E+01	-2.01460528512E+01
5.10200000000E+07	-2.11662342625E+01	-2.05382762456E+01
5.12150000000E+07	-2.10475485220E+01	-2.10246141770E+01
5.14100000000E+07	-2.11786323166E+01	-2.13350518964E+01
5.16050000000E+07	-2.11314033986E+01	-2.14872415664E+01
5.18000000000E+07	-2.10877898167E+01	-2.21717232419E+01
5.19950000000E+07	-2.10660822982E+01	-2.26999551206E+01
5.21900000000E+07	-2.10335170820E+01	-2.31645371625E+01
5.23850000000E+07	-2.10282467572E+01	-2.35100190345E+01
5.25800000000E+07	-2.10388681204E+01	-2.38302191124E+01
5.27750000000E+07	-2.09995443795E+01	-2.44122015935E+01
5.29700000000E+07	-2.10235103677E+01	-2.51206199561E+01
5.31650000000E+07	-2.09915065891E+01	-2.51149018974E+01
5.33600000000E+07	-2.09706432959E+01	-2.55841124241E+01
5.35550000000E+07	-2.09406563128E+01	-2.58496436952E+01
5.37500000000E+07	-2.09698603343E+01	-2.64926568296E+01
5.39450000000E+07	-2.09546645978E+01	-2.68338620694E+01
5.41400000000E+07	-2.09831070606E+01	-2.74530919259E+01
5.43350000000E+07	-2.08871981038E+01	-2.75551956305E+01
5.45300000000E+07	-2.08849654256E+01	-2.84176844804E+01
5.47250000000E+07	-2.09121995120E+01	-2.86904133092E+01
5.49200000000E+07	-2.08186668213E+01	-2.96068186721E+01
5.51150000000E+07	-2.08396590998E+01	-2.97444761920E+01
5.53100000000E+07	-2.08809429125E+01	-3.01427577065E+01
5.55050000000E+07	-2.08055085120E+01	-3.03924961684E+01
5.57000000000E+07	-2.08393285267E+01	-3.10809397607E+01
5.58950000000E+07	-2.08282243566E+01	-3.14486526730E+01
5.60900000000E+07	-2.07726586469E+01	-3.20221761660E+01
5.62850000000E+07	-2.07874425446E+01	-3.26471474623E+01
5.64800000000E+07	-2.07999373014E+01	-3.28012992698E+01
5.66750000000E+07	-2.07982107335E+01	-3.37652527191E+01
5.68700000000E+07	-2.08037054415E+01	-3.38388327707E+01
5.70650000000E+07	-2.07984189953E+01	-3.44536093709E+01
5.72600000000E+07	-2.08128067967E+01	-3.50560853279E+01
5.74550000000E+07	-2.07480193350E+01	-3.53671210096E+01
5.76500000000E+07	-2.08277804415E+01	-3.57942674470E+01
5.78450000000E+07	-2.07915179715E+01	-3.65060042100E+01
5.80400000000E+07	-2.08095279002E+01	-3.67062055694E+01
5.82350000000E+07	-2.07631430781E+01	-3.72134030612E+01
5.84300000000E+07	-2.08097825217E+01	-3.78104053592E+01
5.86250000000E+07	-2.08076286660E+01	-3.82183147400E+01
5.88200000000E+07	-2.07736412831E+01	-3.86660458603E+01
5.90150000000E+07	-2.07659773038E+01	-3.88523826422E+01
5.92100000000E+07	-2.07548911542E+01	-3.96183610586E+01
5.94050000000E+07	-2.07644924302E+01	-3.99851053558E+01
5.96000000000E+07	-2.07807666268E+01	-4.03967440992E+01
5.97950000000E+07	-2.08552276342E+01	-4.11474621060E+01
5.99900000000E+07	-2.07929231170E+01	-4.16440843981E+01
6.01850000000E+07	-2.07933041541E+01	-4.22856467771E+01
6.03800000000E+07	-2.07530421138E+01	-4.26108980570E+01
6.05750000000E+07	-2.08235172610E+01	-4.31204788566E+01
6.07700000000E+07	-2.07561911362E+01	-4.32984895552E+01
6.09650000000E+07	-2.07518268544E+01	-4.38930687956E+01
6.11600000000E+07	-2.07772899086E+01	-4.46038144140E+01
6.13550000000E+07	-2.07848156972E+01	-4.50325730535E+01
6.15500000000E+07	-2.07808004995E+01	-4.56237326065E+01
6.17450000000E+07	-2.08078202602E+01	-4.61387138559E+01
6.19400000000E+07	-2.08039618410E+01	-4.66304120475E+01
6.21350000000E+07	-2.08329185035E+01	-4.72905129771E+01
6.23300000000E+07	-2.07843504729E+01	-4.78062595210E+01
6.25250000000E+07	-2.08623237840E+01	-4.81043630445E+01
6.27200000000E+07	-2.08181222189E+01	-4.88881780944E+01
6.29150000000E+07	-2.08695509864E+01	-4.90708572978E+01
6.31100000000E+07	-2.08038255763E+01	-4.97783322156E+01
6.33050000000E+07	-2.08659752614E+01	-4.97949938556E+01
6.35000000000E+07	-2.08661753042E+01	-5.11013346385E+01
6.36950000000E+07	-2.08617671034E+01	-5.11804915381E+01
6.38900000000E+07	-2.09400698782E+01	-5.14206499131E+01
6.40850000000E+07	-2.08924114590E+01	-5.21218587886E+01
6.42800000000E+07	-2.09160773730E+01	-5.28037298041E+01
6.44750000000E+07	-2.09243138255E+01	-5.32354903650E+01
6.46700000000E+07	-2.08783048394E+01	-5.37971543430E+01
6.48650000000E+07	-2.09551747746E+01	-5.40795313888E+01
6.50600000000E+07	-2.09452603237E+01	-5.49480979197E+01
6.52550000000E+07	-2.09334541308E+01	-5.56578501389E+01
6.54500000000E+07	-2.09488469703E+01	-5.56713379537E+01
6.56450000000E+07	-2.09524084015E+01	-5.65086304483E+01
6.58400000000E+07	-2.09768198384E+01	-5.71102939637E+01
6.60350000000E+07	-2.09725532843E+01	-5.76500865021E+01
6.62300000000E+07	-2.09919228733E+01	-5.80906828460E+01
6.64250000000E+07	-2.10756663569E+01	-5.84341148676E+01
6.66200000000E+07	-2.10118132849E+01	-5.92486473836E+01
6.68150000000E+07	-2.10925533874E+01	-5.98205699303E+01
6.70100000000E+07	-2.10559981851E+01	-6.04694465693E+01
6.72050000000E+07	-2.10824900443E+01	-6.08057253383E+01
6.74000000000E+07	-2.10714517299E+01	-6.14778580516E+01
6.75950000000E+07	-2.11112017514E+01	-6.22440607759E+01
6.77900000000E+07	-2.11018866560E+01	-6.22576188072E+01
6.79850000000E+07	-2.11030070312E+01	-6.32186306281E+01
6.81800000000E+07	-2.11560961707E+01	-6.36789490140E+01
6.83750000000E+07	-2.11735939223E+01	-6.40784296380E+01
6.85700000000E+07	-2.11682273756E+01	-6.49116052644E+01
6.87650000000E+07	-2.12071283572E+01	-6.51373829736E+01
6.89600000000E+07	-2.11965002411E+01	-6.58004032003E+01
6.91550000000E+07	-2.12168748790E+01	-6.65104328356E+01
6.93500000000E+07	-2.11959083307E+01	-6.68136709021E+01
6.95450000000E+07	-2.12464892406E+01	-6.80627397219E+01
6.97400000000E+07	-2.12998164992E+01	-6.82533543165E+01
6.99350000000E+07	-2.12701694068E+01	-6.84196854561E+01
7.01300000000E+07	-2.13274681006E+01	-6.94730886338E+01
7.03250000000E+07	-2.13776782947E+01	-6.99839948111E+01
7.05200000000E+07	-2.13423636120E+01	-7.05914592485E+01
7.07150000000E+07	-2.14067266394E+01	-7.11352671089E+01
7.09100000000E+07	-2.13529686976E+01	-7.15225784893E+01
7.11050000000E+07	-2.14581385608E+01	-7.26906301562E+01
7.13000000000E+07	-2.14422990161E+01	-7.30798025048E+01
7.14950000000E+07	-2.14789640856E+01	-7.36671327959E+01
7.16900000000E+07	-2.14975585060E+01	-7.41740091238E+01
7.18850000000E+07	-2.14961054214E+01	-7.44646494478E+01
7.20800000000E+07	-2.14678309505E+01	-7.50538050419E+01
7.22750000000E+07	-2.15256867608E+01	-7.62952921814E+01
7.24700000000E+07	-2.15764060860E+01	-7.61650794103E+01
7.26650000000E+07	-2.15884530454E+01	-7.70520788497E+01
7.28600000000E+07	-2.15819922015E+01	-7.75653448218E+01
