# Hz S DB R 50
! CMT, M5045, 22160017, 22.4.3/2
! Date: 1/21/2023 20:25:26
! Data: Format (Calibration Info)
! Freq	S11:dB/Ang(F1)
5.00000000000E+06	-9.92485738613E+00	-7.49989092095E+01
5.19500000000E+06	-1.02605986742E+01	-7.59201610747E+01
5.39000000000E+06	-1.06333910542E+01	-7.67758071605E+01
5.58500000000E+06	-1.09600906865E+01	-7.75779190913E+01
5.78000000000E+06	-1.12632397142E+01	-7.81931932132E+01
5.97500000000E+06	-1.16057671650E+01	-7.89281734962E+01
6.17000000000E+06	-1.19145833957E+01	-7.93419258835E+01
6.36500000000E+06	-1.21962030907E+01	-8.00453596126E+01
6.56000000000E+06	-1.24960423749E+01	-8.04087888681E+01
6.75500000000E+06	-1.27774395569E+01	-8.12130913400E+01
6.95000000000E+06	-1.30756242530E+01	-8.15570783939E+01
7.14500000000E+06	-1.33455304412E+01	-8.19947205612E+01
7.34000000000E+06	-1.36230626112E+01	-8.24453219721E+01
7.53500000000E+06	-1.38753204358E+01	-8.27180441816E+01
7.73000000000E+06	-1.41294021593E+01	-8.31933899870E+01
7.92500000000E+06	-1.43843171192E+01	-8.36519802032E+01
8.12000000000E+06	-1.46893610939E+01	-8.39183095510E+01
8.31500000000E+06	-1.49257670942E+01	-8.40998137327E+01
8.51000000000E+06	-1.51436642312E+01	-8.45412372799E+01
8.70500000000E+06	-1.54046625369E+01	-8.48727013260E+01
8.90000000000E+06	-1.56172372670E+01	-8.51737060128E+01
9.09500000000E+06	-1.59082778786E+01	-8.52736122571E+01
9.29000000000E+06	-1.61440165248E+01	-8.58272101609E+01
9.48500000000E+06	-1.63315370660E+01	-8.58896305179E+01
9.68000000000E+06	-1.65935533230E+01	-8.62109546411E+01
9.87500000000E+06	-1.67899398859E+01	-8.64049463745E+01
1.00700000000E+07	-1.70443761423E+01	-8.63883990443E+01
1.02650000000E+07	-1.72582473885E+01	-8.68352610479E+01
1.04600000000E+07	-1.74472564815E+01	-8.73270085132E+01
1.06550000000E+07	-1.76777501570E+01	-8.75059661768E+01
1.08500000000E+07	-1.78908009895E+01	-8.76529657284E+01
1.10450000000E+07	-1.80729719247E+01	-8.78441136537E+01
1.12400000000E+07	-1.83155785186E+01	-8.79210684431E+01
1.14350000000E+07	-1.85467584349E+01	-8.81425611812E+01
1.16300000000E+07	-1.87329801096E+01	-8.85102708847E+01
1.18250000000E+07	-1.90042796585E+01	-8.84596842163E+01
1.20200000000E+07	-1.91831555666E+01	-8.86151996540E+01
1.22150000000E+07	-1.93834138210E+01	-8.89218989099E+01
1.24100000000E+07	-1.96012982704E+01	-8.90759236835E+01
1.26050000000E+07	-1.98126193349E+01	-8.90463407145E+01
1.28000000000E+07	-2.00739200519E+01	-8.92585637159E+01
1.29950000000E+07	-2.03087877188E+01	-8.89503161838E+01
1.31900000000E+07	-2.04878809559E+01	-8.92442910918E+01
1.33850000000E+07	-2.07048132859E+01	-8.92421448781E+01
1.35800000000E+07	-2.08973413338E+01	-8.94597999284E+01
1.37750000000E+07	-2.10838117328E+01	-8.94347421359E+01
1.39700000000E+07	-2.13002844449E+01	-8.96383368309E+01
1.41650000000E+07	-2.15616532073E+01	-8.95525867450E+01
1.43600000000E+07	-2.17299510722E+01	-8.89969675179E+01
1.45550000000E+07	-2.19770335238E+01	-8.91526851160E+01
1.47500000000E+07	-2.21477072573E+01	-8.94305410209E+01
1.49450000000E+07	-2.23584810749E+01	-8.96324363299E+01
1.51400000000E+07	-2.25790848877E+01	-8.90254906409E+01
1.53350000000E+07	-2.27496560535E+01	-8.89556162067E+01
1.55300000000E+07	-2.30712254462E+01	-8.92203327444E+01
1.57250000000E+07	-2.32744249170E+01	-8.92524949120E+01
1.59200000000E+07	-2.35102572392E+01	-8.84104276281E+01
1.61150000000E+07	-2.35935537843E+01	-8.82025199815E+01
1.63100000000E+07	-2.38079194416E+01	-8.81658620523E+01
1.65050000000E+07	-2.41521627586E+01	-8.81103671654E+01
1.67000000000E+07	-2.43183010983E+01	-8.76745399800E+01
1.68950000000E+07	-2.45416793746E+01	-8.76168270198E+01
1.70900000000E+07	-2.47498184419E+01	-8.71327490625E+01
1.72850000000E+07	-2.50486214625E+01	-8.73591689380E+01
1.74800000000E+07	-2.52055739823E+01	-8.59761261390E+01
1.76750000000E+07	-2.53650963021E+01	-8.61167278785E+01
1.78700000000E+07	-2.56348068382E+01	-8.62692708502E+01
1.80650000000E+07	-2.57947725084E+01	-8.51989482879E+01
1.82600000000E+07	-2.61228369395E+01	-8.45510454708E+01
1.84550000000E+07	-2.63851673227E+01	-8.39367651642E+01
1.86500000000E+07	-2.65546435644E+01	-8.39731415269E+01
1.88450000000E+07	-2.67554832167E+01	-8.33194277171E+01
1.90400000000E+07	-2.70708816199E+01	-8.25052792587E+01
1.92350000000E+07	-2.72083031411E+01	-8.19977305548E+01
1.94300000000E+07	-2.73496240994E+01	-8.11639952303E+01
1.96250000000E+07	-2.75878100316E+01	-8.02122128459E+01
1.98200000000E+07	-2.78866216472E+01	-8.00607487480E+01
2.00150000000E+07	-2.80809075285E+01	-7.90341670542E+01
2.02100000000E+07	-2.84448089257E+01	-7.88974004334E+01
2.04050000000E+07	-2.85803535598E+01	-7.68401879791E+01
2.06000000000E+07	-2.86783789405E+01	-7.66666329315E+01
2.07950000000E+07	-2.90006390312E+01	-7.62187051075E+01
2.09900000000E+07	-2.91718296399E+01	-7.34791813923E+01
2.11850000000E+07	-2.92826334911E+01	-7.36016871378E+01
2.13800000000E+07	-2.95809274954E+01	-7.11745059278E+01
2.15750000000E+07	-2.96759164776E+01	-6.99186580360E+01
2.17700000000E+07	-2.99145243653E+01	-6.92492960395E+01
2.19650000000E+07	-3.01056576536E+01	-6.88820529198E+01
2.21600000000E+07	-3.03837310960E+01	-6.68228875233E+01
2.23550000000E+07	-3.04162072391E+01	-6.48164212182E+01
2.25500000000E+07	-3.07196473183E+01	-6.32848426584E+01
2.27450000000E+07	-3.08294115371E+01	-6.27945403623E+01
2.29400000000E+07	-3.08598566926E+01	-6.02136612137E+01
2.31350000000E+07	-3.10672856715E+01	-5.88102918311E+01
2.33300000000E+07	-3.13001898713E+01	-5.73977873575E+01
2.35250000000E+07	-3.13691521855E+01	-5.53029077475E+01
2.37200000000E+07	-3.14412702355E+01	-5.44834195620E+01
2.39150000000E+07	-3.15607657954E+01	-5.17983182559E+01
2.41100000000E+07	-3.15449526391E+01	-4.89281356707E+01
2.43050000000E+07	-3.17668877417E+01	-4.85192266358E+01
2.45000000000E+07	-3.18191870979E+01	-4.67794272995E+01
2.46950000000E+07	-3.16090076396E+01	-4.39798277580E+01
2.48900000000E+07	-3.19043897614E+01	-4.25056808581E+01
2.50850000000E+07	-3.17883296697E+01	-4.25967004303E+01
2.52800000000E+07	-3.18606580412E+01	-3.99003079618E+01
2.54750000000E+07	-3.19877075141E+01	-3.65571139078E+01
2.56700000000E+07	-3.17876285482E+01	-3.59517405133E+01
2.58650000000E+07	-3.19039514295E+01	-3.35632348121E+01
2.60600000000E+07	-3.18767637397E+01	-3.16552401191E+01
2.62550000000E+07	-3.16246440388E+01	-3.17399555912E+01
2.64500000000E+07	-3.17540355171E+01	-2.96813494907E+01
2.66450000000E+07	-3.15151465316E+01	-2.75407841053E+01
2.68400000000E+07	-3.12759537840E+01	-2.63214354114E+01
2.70350000000E+07	-3.15137460804E+01	-2.44115536163E+01
2.72300000000E+07	-3.13217200901E+01	-2.33528061157E+01
2.74250000000E+07	-3.12881529763E+01	-2.24809618014E+01
2.76200000000E+07	-3.09765413134E+01	-2.08664719606E+01
2.78150000000E+07	-3.07304744021E+01	-1.92239902792E+01
2.80100000000E+07	-3.08502244177E+01	-1.84469292285E+01
2.82050000000E+07	-3.07829123713E+01	-1.71806525243E+01
2.84000000000E+07	-3.06563501833E+01	-1.61971427229E+01
2.85950000000E+07	-3.04999752448E+01	-1.52608985766E+01
2.87900000000E+07	-3.03974174257E+01	-1.51423318600E+01
2.89850000000E+07	-3.01853937206E+01	-1.25755660506E+01
2.91800000000E+07	-3.01252586509E+01	-1.36135745850E+01
2.93750000000E+07	-2.99430986826E+01	-1.11760694939E+01
2.95700000000E+07	-2.99035238599E+01	-1.07195722253E+01
2.97650000000E+07	-2.97192251109E+01	-9.21912875760E+00
2.99600000000E+07	-2.96475300068E+01	-1.00543550939E+01
3.01550000000E+07	-2.94810757701E+01	-9.08569593638E+00
3.03500000000E+07	-2.93435130994E+01	-8.25956278652E+00
3.05450000000E+07	-2.92990261867E+01	-8.48564804623E+00
3.07400000000E+07	-2.89399241116E+01	-8.01356861714E+00
3.09350000000E+07	-2.88724987536E+01	-6.14454533219E+00
3.11300000000E+07	-2.87995186555E+01	-6.53100083833E+00
3.13250000000E+07	-2.86187476780E+01	-5.56150184601E+00
3.15200000000E+07	-2.85346863462E+01	-5.99022940405E+00
3.17150000000E+07	-2.84736689877E+01	-5.12292377089E+00
3.19100000000E+07	-2.83626625107E+01	-5.16247056483E+00
3.21050000000E+07	-2.81495710278E+01	-4.54308986994E+00
3.23000000000E+07	-2.80803376014E+01	-4.73965243850E+00
3.24950000000E+07	-2.79769160979E+01	-4.67236101025E+00
3.26900000000E+07	-2.77516846073E+01	-3.90631146684E+00
3.28850000000E+07	-2.75795006645E+01	-3.63735059121E+00
3.30800000000E+07	-2.75993292639E+01	-3.02581595230E+00
3.32750000000E+07	-2.75238685738E+01	-3.46750570476E+00
3.34700000000E+07	-2.73982862460E+01	-3.69561671224E+00
3.36650000000E+07	-2.72113227124E+01	-2.73032450283E+00
3.38600000000E+07	-2.71434477934E+01	-3.01776043605E+00
3.40550000000E+07	-2.70637300906E+01	-3.45293214226E+00
3.42500000000E+07	-2.69252162207E+01	-2.68773767063E+00
3.44450000000E+07	-2.68241336424E+01	-3.37004592099E+00
3.46400000000E+07	-2.67222686919E+01	-3.27491248845E+00
3.48350000000E+07	-2.66055157693E+01	-2.95679150045E+00
3.50300000000E+07	-2.65839066293E+01	-3.46202617800E+00
3.52250000000E+07	-2.64676482846E+01	-3.14504574072E+00
3.54200000000E+07	-2.63646795072E+01	-3.47706380159E+00
3.56150000000E+07	-2.62593878903E+01	-3.29707025554E+00
3.58100000000E+07	-2.62081942325E+01	-3.18246984287E+00
3.60050000000E+07	-2.61127773953E+01	-3.32635271846E+00
3.62000000000E+07	-2.61226951868E+01	-3.38211291941E+00
3.63950000000E+07	-2.59181625460E+01	-3.09427528335E+00
3.65900000000E+07	-2.58393035301E+01	-3.41638470549E+00
3.67850000000E+07	-2.56993333079E+01	-3.60671431961E+00
3.69800000000E+07	-2.57508353051E+01	-3.90645252952E+00
3.71750000000E+07	-2.55452074198E+01	-4.26651100550E+00
3.73700000000E+07	-2.55822678857E+01	-4.13804817360E+00
3.75650000000E+07	-2.54725904696E+01	-4.09500713108E+00
3.77600000000E+07	-2.54043677099E+01	-4.09887703104E+00
3.79550000000E+07	-2.52944799801E+01	-4.96685815373E+00
3.81500000000E+07	-2.52499304388E+01	-4.49448660997E+00
3.83450000000E+07	-2.52135437718E+01	-4.56734994949E+00
3.85400000000E+07	-2.50428230863E+01	-5.34741346914E+00
3.87350000000E+07	-2.50658868064E+01	-4.60815419573E+00
3.89300000000E+07	-2.49635446055E+01	-5.22013544141E+00
3.91250000000E+07	-2.49025061264E+01	-5.23438302938E+00
3.93200000000E+07	-2.47449003237E+01	-5.63821673938E+00
3.95150000000E+07	-2.47275374593E+01	-5.18197024188E+00
3.97100000000E+07	-2.48006201527E+01	-5.70732114607E+00
3.99050000000E+07	-2.46595096922E+01	-6.85273676250E+00
4.01000000000E+07	-2.46576999758E+01	-6.79984882304E+00
4.02950000000E+07	-2.45125773067E+01	-6.93007263112E+00
4.04900000000E+07	-2.44334934953E+01	-6.96504351412E+00
4.06850000000E+07	-2.44269267415E+01	-7.05721519527E+00
4.08800000000E+07	-2.43949499311E+01	-7.51985574192E+00
4.10750000000E+07	-2.42525375490E+01	-7.35049831963E+00
4.12700000000E+07	-2.42757241978E+01	-7.23505697094E+00
4.14650000000E+07	-2.42097423544E+01	-8.32263989989E+00
4.16600000000E+07	-2.41337289401E+01	-8.17270864390E+00
4.18550000000E+07	-2.41186677029E+01	-8.50960019028E+00
4.20500000000E+07	-2.40373422068E+01	-8.43171374987E+00
4.22450000000E+07	-2.40472911014E+01	-8.98298152832E+00
4.24400000000E+07	-2.39418123478E+01	-9.17350826853E+00
4.26350000000E+07	-2.39013136234E+01	-9.20888463549E+00
4.28300000000E+07	-2.39019849884E+01	-9.74710888514E+00
4.30250000000E+07	-2.38114605059E+01	-9.81271245444E+00
4.32200000000E+07	-2.37815448409E+01	-9.95732546447E+00
4.34150000000E+07	-2.36602246585E+01	-1.05702760428E+01
4.36100000000E+07	-2.36706568293E+01	-1.06014793066E+01
4.38050000000E+07	-2.36138150439E+01	-1.11569625783E+01
4.40000000000E+07	-2.35942106942E+01	-1.13836747325E+01
4.41950000000E+07	-2.35602398680E+01	-1.16761615040E+01
4.43900000000E+07	-2.34987016109E+01	-1.21494911888E+01
4.45850000000E+07	-2.34372248240E+01	-1.23135738817E+01
4.47800000000E+07	-2.33766787313E+01	-1.28961538582E+01
4.49750000000E+07	-2.33749728525E+01	-1.26230799614E+01
4.51700000000E+07	-2.32888079210E+01	-1.30848967541E+01
4.53650000000E+07	-2.32736262522E+01	-1.37555246988E+01
4.55600000000E+07	-2.32444340643E+01	-1.37910926665E+01
4.57550000000E+07	-2.31488183957E+01	-1.42496943671E+01
4.59500000000E+07	-2.31744540119E+01	-1.41553911715E+01
4.61450000000E+07	-2.31971651700E+01	-1.48510727277E+01
4.63400000000E+07	-2.31751242339E+01	-1.49047169736E+01
4.65350000000E+07	-2.30665928842E+01	-1.50092691758E+01
4.67300000000E+07	-2.30629381945E+01	-1.55182612309E+01
4.69250000000E+07	-2.29824285846E+01	-1.57398562138E+01
4.71200000000E+07	-2.29945877852E+01	-1.62474768223E+01
4.73150000000E+07	-2.30031993018E+01	-1.66988750647E+01
4.75100000000E+07	-2.29230303726E+01	-1.69224669176E+01
4.77050000000E+07	-2.28431976498E+01	-1.72205776780E+01
4.79000000000E+07	-2.28408391260E+01	-1.77384692088E+01
4.80950000000E+07	-2.28564684694E+01	-1.80741516858E+01
4.82900000000E+07	-2.28283110963E+01	-1.82639190777E+01
4.84850000000E+07	-2.27141760848E+01	-1.85759452058E+01
4.86800000000E+07	-2.27974593973E+01	-1.89065159316E+01
4.88750000000E+07	-2.27216470127E+01	-1.93351244940E+01
4.90700000000E+07	-2.26964565495E+01	-1.96293831108E+01
4.92650000000E+07	-2.26988887615E+01	-2.04424830215E+01
4.94600000000E+07	-2.26286344012E+01	-2.02203215198E+01
4.96550000000E+07	-2.25652646829E+01	-2.07552049954E+01
4.98500000000E+07	-2.26630781028E+01	-2.12601404094E+01
5.00450000000E+07	-2.25375461249E+01	-2.13825814284E+01
5.02400000000E+07	-2.25982437424E+01	-2.19524008774E+01
5.04350000000E+07	-2.25043236710E+01	-2.23907830011E+01
5.06300000000E+07	-2.24678123010E+01	-2.24168445978E+01
5.08250000000E+07	-2.25358394470E+01	-2.33862173665E+01
5.10200000000E+07	-2.24565884241E+01	-2.34428398081E+01
5.12150000000E+07	-2.24094560051E+01	-2.38180327424E+01
5.14100000000E+07	-2.24313303154E+01	-2.41252850625E+01
5.16050000000E+07	-2.23901614511E+01	-2.47425247262E+01
5.18000000000E+07	-2.23626451855E+01	-2.46917941338E+01
5.19950000000E+07	-2.23581628755E+01	-2.55590044635E+01
5.21900000000E+07	-2.23137542313E+01	-2.58395077952E+01
5.23850000000E+07	-2.22929509759E+01	-2.61538175242E+01
5.25800000000E+07	-2.23038178713E+01	-2.65369753253E+01
5.27750000000E+07	-2.23091116480E+01	-2.69679189615E+01
5.29700000000E+07	-2.22505811844E+01	-2.72072103363E+01
5.31650000000E+07	-2.22400928326E+01	-2.76792066176E+01
5.33600000000E+07	-2.22242880195E+01	-2.79616807102E+01
5.35550000000E+07	-2.22675552472E+01	-2.88752171535E+01
5.37500000000E+07	-2.22309746015E+01	-2.91745746502E+01
5.39450000000E+07	-2.21981522307E+01	-2.93081004192E+01
5.41400000000E+07	-2.21942722600E+01	-2.98317317377E+01
5.43350000000E+07	-2.22121861228E+01	-3.08401312539E+01
5.45300000000E+07	-2.21724617098E+01	-3.05450915167E+01
5.47250000000E+07	-2.21586548711E+01	-3.11148355917E+01
5.49200000000E+07	-2.21633135202E+01	-3.19343788342E+01
5.51150000000E+07	-2.21517831679E+01	-3.18161925863E+01
5.53100000000E+07	-2.21507274096E+01	-3.19987806377E+01
5.55050000000E+07	-2.21145145754E+01	-3.28063450061E+01
5.57000000000E+07	-2.21189400123E+01	-3.35708993128E+01
5.58950000000E+07	-2.20732306511E+01	-3.36123348270E+01
5.60900000000E+07	-2.21119142181E+01	-3.40677800157E+01
5.62850000000E+07	-2.21147332426E+01	-3.46336851674E+01
5.64800000000E+07	-2.20573823839E+01	-3.50667566925E+01
5.66750000000E+07	-2.20636154244E+01	-3.54336265723E+01
5.68700000000E+07	-2.20624736183E+01	-3.56678202959E+01
5.70650000000E+07	-2.20555173488E+01	-3.64196934990E+01
5.72600000000E+07	-2.20108548264E+01	-3.71164215583E+01
5.74550000000E+07	-2.20259138847E+01	-3.69741951036E+01
5.76500000000E+07	-2.20374448335E+01	-3.77139539468E+01
5.78450000000E+07	-2.20349388771E+01	-3.84130171247E+01
5.80400000000E+07	-2.19879568248E+01	-3.87460517776E+01
5.82350000000E+07	-2.20480719764E+01	-3.88328033624E+01
5.84300000000E+07	-2.20566594293E+01	-3.95204306075E+01
5.86250000000E+07	-2.20857055125E+01	-4.00162080011E+01
5.88200000000E+07	-2.20026712833E+01	-4.06318336515E+01
5.90150000000E+07	-2.20208478944E+01	-4.08922435421E+01
5.92100000000E+07	-2.20961234266E+01	-4.13307017739E+01
5.94050000000E+07	-2.20253555003E+01	-4.20421976608E+01
5.96000000000E+07	-2.21009019519E+01	-4.19739482043E+01
5.97950000000E+07	-2.20149476467E+01	-4.27522991093E+01
5.99900000000E+07	-2.21086559380E+01	-4.30410150135E+01
6.01850000000E+07	-2.20360743157E+01	-4.38474519851E+01
6.03800000000E+07	-2.20395234050E+01	-4.41730751028E+01
6.05750000000E+07	-2.20467357533E+01	-4.45455430637E+01
6.07700000000E+07	-2.20867649502E+01	-4.50027410330E+01
6.09650000000E+07	-2.20412979041E+01	-4.53372742853E+01
6.11600000000E+07	-2.20754148704E+01	-4.62720194670E+01
6.13550000000E+07	-2.20856527603E+01	-4.67086753608E+01
6.15500000000E+07	-2.20869578988E+01	-4.70186195486E+01
6.17450000000E+07	-2.20735696931E+01	-4.75160079578E+01
6.19400000000E+07	-2.20617267108E+01	-4.81767204688E+01
6.21350000000E+07	-2.20550671538E+01	-4.85771727404E+01
6.23300000000E+07	-2.21110481284E+01	-4.89539664717E+01
6.25250000000E+07	-2.20943988345E+01	-4.94183147106E+01
6.27200000000E+07	-2.21505877686E+01	-4.99946259837E+01
6.29150000000E+07	-2.21353461259E+01	-5.04221240229E+01
6.31100000000E+07	-2.20577120461E+01	-5.10751914654E+01
6.33050000000E+07	-2.21221114039E+01	-5.18112371508E+01
6.35000000000E+07	-2.21019023549E+01	-5.22347177699E+01
6.36950000000E+07	-2.21528815367E+01	-5.24136965696E+01
6.38900000000E+07	-2.21818693822E+01	-5.30160351312E+01
6.40850000000E+07	-2.21373661291E+01	-5.36013960079E+01
6.42800000000E+07	-2.21916720751E+01	-5.38480602853E+01
6.44750000000E+07	-2.21898315853E+01	-5.45294659978E+01
6.46700000000E+07	-2.21729539804E+01	-5.52304565644E+01
6.48650000000E+07	-2.22022328412E+01	-5.57020282141E+01
6.50600000000E+07	-2.22148479974E+01	-5.61475811982E+01
6.52550000000E+07	-2.22232030963E+01	-5.62533634693E+01
6.54500000000E+07	-2.22306373071E+01	-5.69886731795E+01
6.56450000000E+07	-2.22593225151E+01	-5.75059059006E+01
6.58400000000E+07	-2.22918026327E+01	-5.77709991787E+01
6.60350000000E+07	-2.22919003769E+01	-5.82245813181E+01
6.62300000000E+07	-2.22824357231E+01	-5.94292421610E+01
6.64250000000E+07	-2.23272510166E+01	-5.96633317987E+01
6.66200000000E+07	-2.23236942360E+01	-6.01246802467E+01
6.68150000000E+07	-2.22960325259E+01	-6.09975106573E+01
6.70100000000E+07	-2.23742717051E+01	-6.14156501025E+01
6.72050000000E+07	-2.23760966793E+01	-6.16866118319E+01
6.74000000000E+07	-2.23773354954E+01	-6.25367979833E+01
6.75950000000E+07	-2.23876876252E+01	-6.26721451002E+01
6.77900000000E+07	-2.23976541098E+01	-6.36187857396E+01
6.79850000000E+07	-2.24570509058E+01	-6.40622740949E+01
6.81800000000E+07	-2.23928491393E+01	-6.45361898312E+01
6.83750000000E+07	-2.24244295237E+01	-6.49844966378E+01
6.85700000000E+07	-2.24882155128E+01	-6.59083593870E+01
6.87650000000E+07	-2.25144456578E+01	-6.65794807416E+01
6.89600000000E+07	-2.24870957342E+01	-6.64431953438E+01
6.91550000000E+07	-2.25175331379E+01	-6.74180913621E+01
6.93500000000E+07	-2.25379355995E+01	-6.77597795625E+01
6.95450000000E+07	-2.25216379137E+01	-6.89303082204E+01
6.97400000000E+07	-2.25613175581E+01	-6.86058953588E+01
6.99350000000E+07	-2.26243760768E+01	-6.98230936064E+01
7.01300000000E+07	-2.26493310569E+01	-7.03570509811E+01
7.03250000000E+07	-2.26292031240E+01	-7.08966387680E+01
7.05200000000E+07	-2.26525314457E+01	-7.12968672953E+01
7.07150000000E+07	-2.26791475618E+01	-7.18219979308E+01
7.09100000000E+07	-2.26645193853E+01	-7.25020712486E+01
7.11050000000E+07	-2.26945499156E+01	-7.28416729808E+01
7.13000000000E+07	-2.27109369268E+01	-7.40322204671E+01
7.14950000000E+07	-2.27869304813E+01	-7.42298684256E+01
7.16900000000E+07	-2.27196380173E+01	-7.47949140317E+01
7.18850000000E+07	-2.27776819364E+01	-7.53270761821E+01
7.20800000000E+07	-2.28488827387E+01	-7.59170477280E+01
7.22750000000E+07	-2.28781673285E+01	-7.67456549750E+01
7.24700000000E+07	-2.28220773397E+01	-7.72366328757E+01
7.26650000000E+07	-2.28262702548E+01	-7.82189706811E+01
