!Keysight Technologies N9917A: A.12.46
!Date: Friday, 11 November 2022 22:59:48
!Timezone: (UTC) Coordinated Universal Time
!Model: N9917A
!Serial: MY56071016
!GPS Latitude: 
!GPS Longitude: 
!GPS TimeStamp: 0001-01-01 00:00:00Z
!GPS Seconds Since Last Read: 0
!CHECKSUM:1625686136
!Correction: S11(ON U)S21(ON U)S12(ON U)S22(ON U)
!S2P File: Measurements:S11,S21,S12,S22:
# Hz S DB R 50
5000000	-0.140145458816263	-9.02579343691503	-71.8162386326424	62.9290186118607	-68.9103254784351	83.2517024420826	-0.0476476014365119	-9.23099038419641	
5195000	-0.147625733354304	-9.45439914303663	-67.3017796512021	69.6948680606949	-66.4636876246364	70.6779015800824	-0.0573378781177167	-9.67976904257929	
5390000	-0.159933617910238	-9.8903057592778	-71.5649578169477	108.826455640116	-82.214553878468	119.569209627877	-0.0618332312374194	-10.0875240592719	
5585000	-0.164121570938367	-10.3541641384072	-64.0544760755462	90.5959092308232	-66.2019831211797	98.7237518437282	-0.0638713260839317	-10.5275177814418	
5780000	-0.162118490794226	-10.7971506647702	-69.3377011230102	105.600952541155	-75.6754355046983	73.3887447393334	-0.0658497814583374	-10.9654716956077	
5975000	-0.161951191231069	-11.2625413994808	-68.2115273446624	80.3579491045451	-67.8887189517193	95.342219051843	-0.0637001764746524	-11.4057487545022	
6170000	-0.153820888576033	-11.7028458307413	-64.6051382863242	92.6020740095507	-66.3141551221979	62.5054477853117	-0.0622748870010596	-11.8121220074447	
6365000	-0.158172426587783	-12.1446767699917	-74.7076421984345	57.3763715988538	-70.3206693915412	110.985003973205	-0.0656009819871143	-12.2547461598852	
6560000	-0.153329500282294	-12.5920269642754	-63.8566980232158	101.039927090848	-67.3503501005899	69.099533864449	-0.0610236746878883	-12.7004416634894	
6755000	-0.140691357291313	-13.0014071027909	-69.273116276019	72.4959753842937	-67.4999288391388	85.9759810990262	-0.065195393843852	-13.1251123412229	
6950000	-0.135615478342076	-13.4684999932964	-66.6359615030259	67.5216389397607	-65.0927906486501	86.1740994935427	-0.0599794359604988	-13.5548660870445	
7145000	-0.12585868560208	-13.9332391165128	-67.6189261753281	57.392916049955	-65.0206926551951	81.814424559177	-0.0606349226592656	-13.9761582300983	
7340000	-0.117530974543213	-14.3699832201833	-67.3294066361177	76.3005432444907	-65.1828753686066	72.2442021455987	-0.055648560265886	-14.4325963756079	
7535000	-0.109914915235623	-14.8164909412881	-67.1362403515681	84.042941727085	-65.0142722062775	83.8729767488835	-0.0507195997758339	-14.8556500713335	
7730000	-0.0992534954842996	-15.2656437818646	-67.5288383359869	77.7702806400041	-69.75242144845	129.687985385137	-0.0495628399501071	-15.3017888329513	
7925000	-0.0925085132015167	-15.7103530020893	-66.3758683863961	62.4285930927651	-66.7475377215958	60.4182623486238	-0.0444772728253374	-15.7330121684985	
8120000	-0.0882538824164007	-16.1463074517734	-68.1473972248403	82.9585649621168	-66.4024586877772	83.3175922505184	-0.0429564833268775	-16.1864288375065	
8315000	-0.0797749541786402	-16.5954593599667	-68.5206634682243	35.9268222010232	-68.0100732640624	82.6278941503421	-0.041519043303362	-16.5981128193512	
8510000	-0.0698909811705954	-17.0158952117522	-67.859735854477	73.3303162745748	-65.4007800378389	71.8703117192459	-0.0382390280329017	-17.0966765216522	
8705000	-0.0656165152440503	-17.4853685039466	-66.2914101412297	73.9170821280345	-70.0425160631699	60.4781380445134	-0.038671651061514	-17.5253715882529	
8900000	-0.0570032384769568	-17.919016807998	-68.0252882742141	64.7182826954253	-66.938635831127	83.6376736511773	-0.0368542180286381	-17.9726155465179	
9095000	-0.0518117982255734	-18.3677103885403	-65.6419446052843	76.2772114664903	-65.5875511870225	70.6257813177837	-0.0386056797810774	-18.4644881860562	
9290000	-0.0474550962288205	-18.8412160442067	-66.8247905717165	56.1619032399291	-64.4375770534896	86.4616525027317	-0.0356865713005182	-18.889476484757	
9485000	-0.0416197740780532	-19.2863216938435	-65.0946756706601	56.5711539534158	-63.8966752089319	64.5418524468463	-0.0316389704087561	-19.3577207603184	
9680000	-0.0418219896311968	-19.7395523437476	-64.3724138971063	49.68028453219	-63.0430191030021	65.3833591350022	-0.0330126786090123	-19.8282985314997	
9875000	-0.0324868596836154	-20.1689139740851	-68.3615040660868	53.6504764379773	-65.5227554553316	65.5008812839996	-0.0307582740897551	-20.2566596590506	
10070000	-0.0314265750148402	-20.6233294478719	-67.7453823922673	55.310868714739	-66.0673066076742	64.4288662830047	-0.0281452122084293	-20.7195804480364	
10265000	-0.0312941149290094	-21.0761528444711	-65.5115489720646	50.5187475606569	-65.5438019246958	80.8414988445025	-0.0301096009938674	-21.1934965851683	
10460000	-0.0307238065476984	-21.5278691061879	-63.0364064994147	62.6557888265432	-64.0183714880545	60.098570181291	-0.0327441517094503	-21.6672355385918	
10655000	-0.0352963955876885	-22.0259633500382	-65.0362246610946	52.8034105602629	-65.0082249011953	58.9868702044842	-0.0367548384745267	-22.116643645003	
10850000	-0.0419215936249156	-22.5016119868904	-64.3124309292132	61.7630244419896	-64.0229265989428	65.8979088778064	-0.038200733839528	-22.5911859867258	
11045000	-0.0428362818331123	-22.9357612835069	-63.4470962840511	61.1951976901051	-64.0611199390506	69.5976404466611	-0.0440734554913686	-23.0765821903589	
11240000	-0.0484672413058368	-23.4089127378795	-64.1386583717029	52.0856602751283	-63.7844571310214	53.9073354203332	-0.0503825288993232	-23.5651749465836	
11435000	-0.0566376777395614	-23.8757378707991	-64.6858650527008	42.4479109969685	-62.9721804295901	65.0661659896905	-0.0534758900719688	-24.0303649491254	
11630000	-0.0592429498990532	-24.3360496968725	-64.959749435228	61.8626013789765	-64.7632972913229	62.1404661973553	-0.0599270670162906	-24.4939726597039	
11825000	-0.0701314408694445	-24.816081391195	-63.2756509550292	48.7017632061087	-64.8983818131366	53.0098123053216	-0.0674013388374609	-24.9867500792575	
12020000	-0.0748680495407913	-25.3169643879068	-63.0715786380329	54.2076864279346	-65.7866046828814	52.0613917033157	-0.0734711263943938	-25.4967934676003	
12215000	-0.0810501870258516	-25.8089298233434	-65.6271717399594	50.3902643138422	-64.6106682946773	25.7198672406919	-0.0778743074927851	-25.9693216006468	
12410000	-0.082717465700577	-26.3550302244695	-62.9943301195453	41.5409249740414	-63.1180764778462	32.0678182561262	-0.0816840214494989	-26.4956223117039	
12605000	-0.0868643370322185	-26.8789812718703	-62.806614569198	49.0948757883979	-62.8329191747678	61.9523311998539	-0.0829766023437433	-26.9984172386009	
12800000	-0.0835266054930067	-27.4147411461696	-62.0372263896102	35.3047479359699	-64.1800185842173	57.4564245939063	-0.0802228577767066	-27.5329575833585	
12995000	-0.0862779879240451	-27.9036637227284	-63.0929090602512	43.7501943953437	-65.154367407095	52.7501255022422	-0.0749087901763239	-28.0593944916379	
13190000	-0.0870655482105726	-28.4707256492129	-68.7176103358525	37.6614441252177	-63.3096375058245	42.9572490284903	-0.0693166689201914	-28.6170477591345	
13385000	-0.0905029238386392	-29.0239514707563	-62.9960593626006	38.9690023527953	-62.5959590319044	57.53525419865	-0.0675238739721011	-29.1520571409722	
13580000	-0.0851531078761701	-29.5839919405765	-61.2072034530941	49.9076342586725	-67.2605626149776	34.1968094491978	-0.0572480772582711	-29.6805443626857	
13775000	-0.0798770197718653	-30.1397690063063	-65.9532377770362	28.9842863361893	-64.4905539006026	28.4684810890892	-0.0586914971483287	-30.2111392704922	
13970000	-0.0814972987985439	-30.7320419477789	-60.0196261732106	43.6244033414378	-64.8665093172478	23.9911971876499	-0.0539782454689212	-30.7685167609976	
14165000	-0.0827755839790132	-31.2724701032684	-62.9154701804775	43.4570824828436	-62.1287338778207	23.6994225593382	-0.0560210960093799	-31.3209425732709	
14360000	-0.0884370890971914	-31.8965553619548	-65.1179861460422	37.4558492992471	-65.8358400540655	45.6607872932482	-0.0591697108683403	-31.9123645873247	
14555000	-0.0931395845529758	-32.4465403578079	-65.4005764817567	50.6247377839269	-64.340304775516	45.7313116929717	-0.0569807815785959	-32.4661016457216	
14750000	-0.0953637074952465	-33.0693710348991	-61.3101353270364	31.2524964406921	-62.5181676530514	52.5315638339556	-0.0636730430227311	-33.0705842289556	
14945000	-0.10141744419299	-33.6523984600847	-62.6978621736914	35.0333599456444	-63.1125115791146	42.9229376263246	-0.0746003635357732	-33.6569065634163	
15140000	-0.10940823955803	-34.2705004515684	-62.9686550468467	33.9818052063921	-63.8770730903472	65.9605295469521	-0.0749044161135888	-34.2045715982586	
15335000	-0.110561088854183	-34.8847476047344	-63.6090226853188	51.350660535908	-64.3395023920117	5.9616905755196	-0.0877542173890315	-34.8365060744546	
15530000	-0.114744526108592	-35.5179447548778	-63.5679469670666	8.42122802683929	-67.033915177895	38.2481084024692	-0.100918354879537	-35.4101992981051	
15725000	-0.124496399537077	-36.1708301261734	-64.7314944150396	21.6306988518214	-64.5325986126702	-12.6497822633671	-0.105488938940523	-36.0007796314589	
15920000	-0.124459114805119	-36.793500810702	-65.4624922103859	37.0355470533017	-61.0733481701515	24.4003663238614	-0.114411642054831	-36.6232173867995	
16115000	-0.130700755180591	-37.4245626696735	-67.2481217690007	39.6007506467913	-65.0612510785718	19.5933406914896	-0.121887651519667	-37.2284713177588	
16310000	-0.136802736665201	-38.0732777713872	-62.7051474623973	18.695760420233	-64.1163807902951	23.7497354454989	-0.129282144694312	-37.8936440673302	
16505000	-0.137051665634656	-38.7651429068706	-63.724850356381	46.1505718983832	-69.1144299404745	-5.14219642924337	-0.134804845321425	-38.5319666442909	
16700000	-0.143893023939402	-39.4556648312519	-63.600897286574	33.01759268068	-64.7668954176794	45.3278862315072	-0.13884588980507	-39.1825393527915	
16895000	-0.141058239538797	-40.1459927847016	-65.1847360041949	36.310937194856	-65.3729484640128	37.547033989311	-0.145190130758924	-39.8652981999881	
17090000	-0.136402156283199	-40.8383709851208	-63.1926900735054	42.0352661508012	-60.5380437885182	17.4361399947784	-0.151370388397137	-40.5542111456452	
17285000	-0.137465845665925	-41.5604307296722	-64.4707275346892	32.3252572484948	-64.9596687370701	40.7195468857977	-0.159407002794935	-41.1983965827203	
17480000	-0.127847015239808	-42.2509426724565	-66.8903688501984	18.4307031449032	-73.1570338721522	37.5785449573778	-0.167523566692634	-41.9100508157602	
17675000	-0.129533837591998	-43.0023003502625	-65.5601758446295	29.3649600293765	-65.9899012190294	29.3902103869418	-0.184810045433997	-42.6058325617922	
17870000	-0.126258053736598	-43.7428245408451	-66.0273964241616	22.1666288008556	-63.5471477997336	36.5752212630508	-0.189879740050712	-43.3069845910728	
18065000	-0.121944007134764	-44.470895023024	-67.78302844854	7.44261573437196	-66.5555671849887	23.5303333869938	-0.19822231033336	-44.011208863297	
18260000	-0.111681075927564	-45.2211694980129	-65.0310491529667	41.0365241756184	-66.8259332675254	15.4470604695803	-0.204714431937924	-44.7686440908507	
18455000	-0.108477116260423	-45.9830905064577	-64.6453180574513	27.4284143829882	-61.6214707720449	27.6579852010237	-0.209147247345989	-45.491993377351	
18650000	-0.101944855183377	-46.7736101641189	-65.7349230914295	35.0360215680188	-62.2753013720059	36.6853744743528	-0.211759588415794	-46.2548271950717	
18845000	-0.097851864262493	-47.5369109004926	-62.7546861372016	45.8363478427215	-64.8347703628235	21.244533935395	-0.219450402317524	-47.0168673649377	
19040000	-0.096611473747842	-48.3242262209445	-63.1446857804576	36.0027854286889	-63.076305280439	43.6853633920918	-0.225657097235149	-47.7960143979784	
19235000	-0.0853382354247312	-49.1172412052431	-63.4320808831059	33.6545208946127	-64.273022684951	14.9900938262018	-0.229321268571873	-48.6047804697122	
19430000	-0.0808237385445309	-49.9701492367197	-63.5683285587914	29.9749171907187	-63.538542615708	37.752765486454	-0.233086507902276	-49.4095134042918	
19625000	-0.0770632752777135	-50.7814752590486	-62.9103627290541	33.2292960461647	-64.1562402947848	22.4958327665466	-0.233037948192749	-50.1998986191129	
19820000	-0.0792154914256933	-51.6266180730357	-62.3307019889262	36.488392371583	-63.7082005013276	24.5097040032258	-0.240863736265995	-51.0537376968013	
20015000	-0.0776070308790005	-52.4887913488256	-62.2209918373686	29.3373399041059	-63.34300894476	19.6761250676574	-0.252142041897256	-51.893335914898	
20210000	-0.0889083900909553	-53.3666651690749	-63.0581377029676	14.6162364606926	-63.0659108915953	21.057852642542	-0.259791625094518	-52.7246708728269	
20405000	-0.0945205492862459	-54.2968546649805	-62.6201851351041	7.15569477559591	-60.7908703944784	20.0279943897369	-0.274785000116688	-53.5926106844347	
20600000	-0.102379487611481	-55.1721285504691	-62.93249471771	20.1864794161398	-62.2674456899909	20.2787692892059	-0.290289295652383	-54.4779111614325	
20795000	-0.111849638158406	-56.1315716860164	-61.2302329194388	15.9824653964577	-61.2813826034233	7.61071092284628	-0.306263472844669	-55.3746239141882	
20990000	-0.127907446439406	-57.1083281194791	-63.2970519594546	13.9114740489882	-61.0234908405015	13.222707635479	-0.324962689564384	-56.2921495058674	
21185000	-0.140921808079643	-58.1166889371171	-60.716232698353	18.8080026544499	-60.8417563939558	4.03144556084864	-0.344518416574582	-57.2253367610667	
21380000	-0.160138195623566	-59.0936598285355	-60.206822946088	14.5121947757379	-62.8747795786662	20.6677205055036	-0.371227798304072	-58.1658861825927	
21575000	-0.173396572469759	-60.1059593064786	-61.3606847310258	21.5357956071589	-61.4179277832732	18.0548921071266	-0.395361320311619	-59.1326907679417	
21770000	-0.181710656833586	-61.2026782707363	-59.0255081520241	11.5352225507794	-61.5055133175012	16.3183798305188	-0.420948388861682	-60.1644106442633	
21965000	-0.197468295189174	-62.269042605566	-58.8042245552835	15.5181574725128	-58.8555759075342	15.15930529482	-0.443282661232541	-61.1502526384277	
22160000	-0.201566629596928	-63.3801317158785	-58.0446395114732	16.0588576450189	-59.6352894650878	15.8645554451662	-0.474478497081915	-62.2145641842474	
22355000	-0.203046254319484	-64.4780097590187	-56.9247684287202	12.8724351915596	-57.1556510228522	5.03933209834488	-0.491074381092542	-63.2978591824067	
22550000	-0.205673824101617	-65.6402690169614	-55.2329261098738	8.11005127972387	-55.7394416621413	13.1990153362686	-0.505261794220397	-64.3742485323666	
22745000	-0.213897749761046	-66.8052043475868	-54.41387567504	5.81526704683309	-53.7630211791452	8.66679549420476	-0.523462477805528	-65.499884266833	
22940000	-0.226240037367845	-68.0209641971326	-51.9297540595883	4.81513177381146	-52.4955994086856	5.26377024920562	-0.54297425772491	-66.665604769145	
23135000	-0.231399068119867	-69.3127027409105	-49.5771966828367	-0.106929742136135	-48.6870635158863	0.0833981353849555	-0.554832436386096	-67.8520006024185	
23330000	-0.247618447659589	-70.6436670858172	-45.520635676222	-4.59968806792627	-45.4513169776675	-6.84278110992106	-0.589651824775819	-69.0507372191036	
23525000	-0.301781929685297	-72.1119655539198	-40.5264850984144	-23.6002783917699	-40.320397314016	-23.2160521380284	-0.636552856966962	-70.3792448892253	
23720000	-0.42375515824638	-72.8566260690502	-35.0149783069414	-79.1889210641184	-35.0020308594969	-80.6496804409757	-0.751104149618521	-70.9924561556523	
23915000	-0.314345369451928	-73.6736898548488	-38.9200979666524	-137.410160252065	-39.0682512551023	-137.341878611247	-0.659076718773933	-71.802481239823	
24110000	-0.286073486900667	-75.2033553801027	-43.0450650862336	-155.568346168143	-43.0158992267933	-157.084060033502	-0.651860096321848	-73.2553034302551	
24305000	-0.294797893891513	-76.7377103990522	-45.5804535359005	-165.479887065309	-45.5127161545951	-164.519495449431	-0.679203859261607	-74.6080342142117	
24500000	-0.305697568639541	-78.2117270276539	-46.6034841900115	-168.704807936649	-46.9312319733195	-176.179041649882	-0.706679578236018	-75.9822540352743	
24695000	-0.315368070102362	-79.6477851128388	-47.8944866220013	-177.073504401751	-48.0619588608319	-176.193475414143	-0.735074775371866	-77.3462285302118	
24890000	-0.337485045495945	-81.2120519707287	-48.3116705857793	-178.628620809291	-48.5590602373743	-178.758610340201	-0.769240306564146	-78.7229368468597	
25085000	-0.351935544340932	-82.8090197995373	-49.1830780410893	176.188976168151	-49.4802781565399	178.822530665611	-0.802846290388307	-80.0788725378236	
25280000	-0.366660012518401	-84.4070334094232	-50.4035022969401	172.107328249149	-49.5975792578331	171.905823406954	-0.843311040039917	-81.4872358473437	
25475000	-0.388509947861848	-86.0362855111658	-49.8937454549453	168.380743035757	-49.8400172889506	166.116875932139	-0.881214423238417	-82.9285285118197	
25670000	-0.411896863063681	-87.7152577462225	-49.7916196211282	165.743929913104	-50.0886625107327	167.7400052694	-0.923270864004434	-84.443289411214	
25865000	-0.438994557799104	-89.4151179591399	-50.6296330788043	161.084172559213	-50.7657652647124	156.058908413303	-0.972558723677229	-85.9661465208085	
26060000	-0.466852236183139	-91.1567918978094	-50.3723627136758	157.865898399421	-50.5842141407914	155.944087178392	-1.01680304527304	-87.5259707483984	
26255000	-0.497971145618711	-92.9732145829948	-50.2062065210459	151.354603316992	-50.1332431229786	153.40088200265	-1.06171566207623	-89.1122263939452	
26450000	-0.525699571228162	-94.8039455079499	-49.9036749966464	148.641987350583	-50.4830483927431	147.585434007472	-1.11610491568145	-90.704561396121	
26645000	-0.554830102447984	-96.6370130107644	-49.8917745421885	144.414145575238	-50.2041907495118	144.38114570142	-1.17023136993487	-92.3715434502626	
26840000	-0.588620169853591	-98.5480686116883	-49.8830975466916	138.691861406129	-50.1086397953668	136.152434028569	-1.22307909253929	-94.0563640346612	
27035000	-0.620692054575866	-100.542160779715	-50.14420615386	131.496757556971	-49.7905496844804	134.578233852547	-1.2828580887925	-95.7961601728219	
27230000	-0.649511752858091	-102.564190860794	-49.0254106481169	131.082118051268	-49.9626765616101	129.831584423786	-1.34463568621332	-97.5683588651937	
27425000	-0.678015494310507	-104.651673220135	-49.2452477398578	125.072662700682	-49.4667498109882	124.25035951715	-1.40451515671878	-99.3833397734589	
27620000	-0.712506436896809	-106.76719935237	-49.1554779669615	120.434754881303	-49.6451598895881	120.894151493688	-1.46803447496099	-101.230556489526	
27815000	-0.747306441617891	-108.98533822767	-49.448440911607	115.42469432624	-48.9695532069199	114.671103862015	-1.5374657827437	-103.131127051923	
28010000	-0.779984398898526	-111.238834851115	-49.1311370191069	111.1998301712	-49.0430635679115	110.755288183302	-1.60540303983915	-105.0530245254	
28205000	-0.816329577997002	-113.509068517868	-49.1128046852991	106.839988429924	-49.1708485680789	107.61555138433	-1.67429320845093	-107.028529105897	
28400000	-0.855201904571137	-115.858447425873	-49.0482426956598	99.9860917774042	-49.0125489803654	102.18000402178	-1.7446585737746	-109.084099216896	
28595000	-0.902201360728297	-118.279592415512	-49.3004525145637	96.1350510711679	-49.429453828203	97.7311563762345	-1.81789338629988	-111.121334312195	
28790000	-0.955012723321518	-120.729347837519	-49.3916458969072	91.5016361088488	-49.3923342403512	89.5481940242692	-1.8924375729445	-113.22468092856	
28985000	-1.01034082072552	-123.272595776705	-49.5887343787693	85.8826749087349	-49.2825796211118	85.985654359874	-1.97185414376916	-115.39784211627	
29180000	-1.06651404698372	-125.865230966546	-49.6401349894032	78.8239604200928	-49.6046838102269	77.4777875610294	-2.04916650036474	-117.602729612321	
29375000	-1.13336089093518	-128.509012199259	-50.1293914502906	69.1638581981932	-50.5592920667508	69.2302954942842	-2.13628322170449	-119.858877330503	
